(1790979224.196400) can0 1200FD01#0A70000000000000
(1790979224.196571) can0 020001FD#7FFF7FCA7FFF00F0
(1790979224.196711) can0 017FFF01#7FFF7FFF00000000
(1790979224.196880) can0 020001FD#7FFF80077FFF00F0
(1790979224.197015) can0 0400FD01#0000000000000000
(1790979224.197174) can0 020001FD#7FFF80667FFF00F0
(1790979224.197315) can0 1200FD02#0A70000000000000
(1790979224.197468) can0 020002FD#7FFF80AA7FFF00F0
(1790979224.197609) can0 017FFF02#7FFF7FFF00000000
(1790979224.197767) can0 020002FD#7FFF80C37FFF00F0
(1790979224.197907) can0 0400FD02#0000000000000000
(1790979224.198075) can0 020002FD#7FFF7FE57FFF00F0
(1790979224.198207) can0 1200FD03#0A70000000000000
(1790979224.198364) can0 020003FD#7FFF7FAC7FFF00E6
(1790979224.198505) can0 017FFF03#7FFF7FFF00000000
(1790979224.198661) can0 020003FD#7FFF80077FFF00E6
(1790979224.198804) can0 0400FD03#0000000000000000
(1790979224.198964) can0 020003FD#7FFF800D7FFF00E6
(1790979224.199103) can0 1200FD04#0A70000000000000
(1790979224.199280) can0 020004FD#7FFF80157FFF00F0
(1790979224.199417) can0 017FFF04#7FFF7FFF00000000
(1790979224.199574) can0 020004FD#7FFF80317FFF00F0
(1790979224.199718) can0 0400FD04#0000000000000000
(1790979224.199874) can0 020004FD#7FFF7FD37FFF00F0
(1790979224.200012) can0 1200FD05#0A70000000000000
(1790979224.200200) can0 020005FD#7FE07FFF7FFF00F0
(1790979224.200337) can0 017FFF05#7FFF7FFF00000000
(1790979224.200498) can0 020005FD#7FE07FF87FFF00F0
(1790979224.200638) can0 0400FD05#0000000000000000
(1790979224.200798) can0 020005FD#7FE07FF77FFF00F0
(1790979224.200935) can0 1800FD01#0102030405060000
(1790979224.201092) can0 020001FD#7FFF7F6C7FFF00F0
(1790979224.201231) can0 1800FD02#0102030405060000
(1790979224.201417) can0 020002FD#7FFF7F457FFF00F0
(1790979224.201550) can0 1800FD03#0102030405060000
(1790979224.201711) can0 020003FD#7FFF80397FFF00E6
(1790979224.201851) can0 1800FD04#0102030405060000
(1790979224.202029) can0 020004FD#7FFF7FF87FFF00F0
(1790979224.202162) can0 1800FD05#0102030405060000
(1790979224.202346) can0 020005FD#7FE080327FFF00F0
(1790979224.202480) can0 04008001#00C4000000000000
(1790979224.202638) can0 02000180#00C4560003012A07
(1790979224.203915) can0 00008101#0000000000000000
(1790979224.204072) can0 000001FE#457B30020C323817
(1790979224.204969) can0 11008201#0570000000000000
(1790979224.205129) can0 11000182#0570000000000000
(1790979224.206028) can0 11008301#1970000000000000
(1790979224.206181) can0 11000183#19700000E4B8B238
(1790979224.207085) can0 11008401#1B70000000000000
(1790979224.207241) can0 11000184#1B7000005AA777BE
(1790979224.208146) can0 11008501#2870000000000000
(1790979224.208325) can0 11000185#2870000058020000
(1790979224.209205) can0 11008601#2970000000000000
(1790979224.209379) can0 11000186#2970000000000000
(1790979224.210263) can0 11008701#2B70000000000000
(1790979224.210427) can0 11000187#2B70000000000000
(1790979224.211321) can0 04008802#00C4000000000000
(1790979224.211477) can0 02000288#00C4560003012A07
(1790979224.212384) can0 00008902#0000000000000000
(1790979224.212562) can0 000002FE#785630020C343701
(1790979224.213439) can0 11008A02#0570000000000000
(1790979224.213622) can0 1100028A#0570000000000000
(1790979224.214496) can0 11008B02#1970000000000000
(1790979224.214664) can0 1100028B#19700000ABAA3238
(1790979224.215555) can0 11008C02#1B70000000000000
(1790979224.215721) can0 1100028C#1B70000000000000
(1790979224.216615) can0 11008D02#2870000000000000
(1790979224.216770) can0 1100028D#2870000058020000
(1790979224.217672) can0 11008E02#2970000000000000
(1790979224.217830) can0 1100028E#2970000000000000
(1790979224.218731) can0 11008F02#2B70000000000000
(1790979224.218891) can0 1100028F#2B70000000000000
(1790979224.219792) can0 04009003#00C4000000000000
(1790979224.219964) can0 02000390#00C4560002032207
(1790979224.220854) can0 00009103#0000000000000000
(1790979224.221008) can0 000003FE#9D6A3B859C023019
(1790979224.221908) can0 11009203#0570000000000000
(1790979224.222067) can0 11000392#0570000000000000
(1790979224.222965) can0 11009303#1970000000000000
(1790979224.223118) can0 11000393#19700000DF7BCF38
(1790979224.224027) can0 11009403#1B70000000000000
(1790979224.224180) can0 11000394#1B7000002EC9263D
(1790979224.225085) can0 11009503#2870000000000000
(1790979224.225263) can0 11000395#2870000058020000
(1790979224.226144) can0 11009603#2970000000000000
(1790979224.226315) can0 11000396#2970000000000000
(1790979224.227203) can0 11009703#2B70000000000000
(1790979224.227366) can0 11000397#2B70000000000000
(1790979224.228263) can0 04009804#00C4000000000000
(1790979224.228423) can0 02000498#00C4560002032207
(1790979224.229325) can0 00009904#0000000000000000
(1790979224.229476) can0 000004FE#8A063B8F2450B00D
(1790979224.230379) can0 11009A04#0570000000000000
(1790979224.230538) can0 1100049A#0570000000000000
(1790979224.231438) can0 11009B04#1970000000000000
(1790979224.231597) can0 1100049B#1970000000000000
(1790979224.232498) can0 11009C04#1B70000000000000
(1790979224.232671) can0 1100049C#1B7000009647A43D
(1790979224.233556) can0 11009D04#2870000000000000
(1790979224.233724) can0 1100049D#2870000058020000
(1790979224.234618) can0 11009E04#2970000000000000
(1790979224.234776) can0 1100049E#2970000000000000
(1790979224.235674) can0 11009F04#2B70000000000000
(1790979224.235833) can0 1100049F#2B70000000000000
(1790979224.236720) can0 0400A005#00C4000000000000
(1790979224.236900) can0 020005A0#00C4560000032007
(1790979224.237779) can0 0000A105#0000000000000000
(1790979224.237945) can0 000005FE#622C30020C343701
(1790979224.238834) can0 1100A205#0570000000000000
(1790979224.238999) can0 110005A2#0570000000000000
(1790979224.239893) can0 1100A305#1970000000000000
(1790979224.240048) can0 110005A3#19700000E7E440BC
(1790979224.240952) can0 1100A405#1B70000000000000
(1790979224.241105) can0 110005A4#1B700000AC9DE9BB
(1790979224.242011) can0 1100A505#2870000000000000
(1790979224.242168) can0 110005A5#2870000058020000
(1790979224.243070) can0 1100A605#2970000000000000
(1790979224.243250) can0 110005A6#2970000000000000
(1790979224.244128) can0 1100A705#2B70000000000000
(1790979224.244300) can0 110005A7#2B70000000000000
(1790979224.245212) can0 1200FD01#0A70000000000000
(1790979224.245374) can0 020001FD#7FFF80B17FFF00F0
(1790979224.245515) can0 017FFF01#7FFF7FFF00000000
(1790979224.245673) can0 020001FD#7FFF80167FFF00F0
(1790979224.245814) can0 0400FD01#0000000000000000
(1790979224.245974) can0 020001FD#7FFF7F6E7FFF00F0
(1790979224.246112) can0 1200FD02#0A70000000000000
(1790979224.246269) can0 020002FD#7FFF7F937FFF00F0
(1790979224.246410) can0 017FFF02#7FFF7FFF00000000
(1790979224.246566) can0 020002FD#7FFF805B7FFF00F0
(1790979224.246706) can0 0400FD02#0000000000000000
(1790979224.246874) can0 020002FD#7FFF804E7FFF00F0
(1790979224.247006) can0 1200FD03#0A70000000000000
(1790979224.247163) can0 020003FD#7FFF7FE27FFF00E6
(1790979224.247305) can0 017FFF03#7FFF7FFF00000000
(1790979224.247462) can0 020003FD#7FFF7FCC7FFF00E6
(1790979224.247604) can0 0400FD03#0000000000000000
(1790979224.247762) can0 020003FD#7FFF7FF27FFF00E6
(1790979224.247901) can0 1200FD04#0A70000000000000
(1790979224.248077) can0 020004FD#7FFF80677FFF00F0
(1790979224.248214) can0 017FFF04#7FFF7FFF00000000
(1790979224.248373) can0 020004FD#7FFF80377FFF00F0
(1790979224.248518) can0 0400FD04#0000000000000000
(1790979224.248675) can0 020004FD#7FFF7FEB7FFF00F0
(1790979224.248814) can0 1200FD05#0A70000000000000
(1790979224.248999) can0 020005FD#7FE080047FFF00F0
(1790979224.249136) can0 017FFF05#7FFF7FFF00000000
(1790979224.249295) can0 020005FD#7FE080017FFF00F0
(1790979224.249436) can0 0400FD05#0000000000000000
(1790979224.249596) can0 020005FD#7FE07FE57FFF00F0
(1790979224.249732) can0 1200FD01#2870000058020000
(1790979224.249888) can0 020001FD#7FFF80747FFF00F0
(1790979224.250028) can0 1100B001#2870000000000000
(1790979224.250185) can0 110001B0#2870000058020000
(1790979224.250515) can0 1200FD02#2870000058020000
(1790979224.250670) can0 020002FD#7FFF7FE77FFF00F0
(1790979224.250809) can0 1100B102#2870000000000000
(1790979224.250969) can0 110002B1#2870000058020000
(1790979224.251575) can0 1200FD03#2870000058020000
(1790979224.251732) can0 020003FD#7FFF80117FFF00E6
(1790979224.251870) can0 1100B203#2870000000000000
(1790979224.252028) can0 110003B2#2870000058020000
(1790979224.252639) can0 1200FD04#2870000058020000
(1790979224.252824) can0 020004FD#7FFF7FED7FFF00F0
(1790979224.252958) can0 1100B304#2870000000000000
(1790979224.253125) can0 110004B3#2870000058020000
(1790979224.253701) can0 1200FD05#2870000058020000
(1790979224.253855) can0 020005FD#7FE080287FFF00F0
(1790979224.253992) can0 1100B405#2870000000000000
(1790979224.254150) can0 110005B4#2870000058020000
(1790979224.254764) can0 0600D001#0100000000000000
(1790979224.254929) can0 020001D0#7FFF7FFF7FFF00F0
(1790979224.255821) can0 1100E001#1970000000000000
(1790979224.255977) can0 110001E0#197000001D070639
(1790979224.256884) can0 0600D102#0100000000000000
(1790979224.257272) can0 020002D1#7FFF807B7FFF00F0
(1790979224.257940) can0 1100E102#1970000000000000
(1790979224.258114) can0 110002E1#19700000ABAAB2B8
(1790979224.259002) can0 0600D203#0100000000000000
(1790979224.259167) can0 020003D2#7FFF7FD57FFF00E6
(1790979224.260061) can0 1100E203#1970000000000000
(1790979224.260215) can0 110003E2#19700000E79CCF38
(1790979224.261125) can0 0600D304#0100000000000000
(1790979224.261283) can0 020004D3#7FFF7F957FFF00F0
(1790979224.262179) can0 1100E304#1970000000000000
(1790979224.262331) can0 110004E3#197000006BAD1B39
(1790979224.263240) can0 0600D405#0100000000000000
(1790979224.263400) can0 020005D4#7FFF802C7FFF00F0
(1790979224.264297) can0 1100E405#1970000000000000
(1790979224.264451) can0 110005E4#19700000CDCC2038
(1790979224.265359) can0 1100C001#2870000000000000
(1790979224.265527) can0 110001C0#2870000058020000
(1790979224.266416) can0 1100C102#2870000000000000
(1790979224.266573) can0 110002C1#2870000058020000
(1790979224.267474) can0 1100C203#2870000000000000
(1790979224.267631) can0 110003C2#2870000058020000
(1790979224.268533) can0 1100C304#2870000000000000
(1790979224.268689) can0 110004C3#2870000058020000
(1790979224.269592) can0 1100C405#2870000000000000
(1790979224.269749) can0 110005C4#2870000058020000
(1790979224.271305) can0 1200FD01#0A70000000000000
(1790979224.271480) can0 020001FD#7FFF80177FFF00F0
(1790979224.271616) can0 017FFF01#7FFF7FFF00000000
(1790979224.271773) can0 020001FD#80007FED7FFF00F0
(1790979224.271913) can0 0400FD01#0000000000000000
(1790979224.272081) can0 020001FD#80007FDB7FFF00F0
(1790979224.272213) can0 1200FD02#0A70000000000000
(1790979224.272368) can0 020002FD#7FFF80C47FFF00F0
(1790979224.272512) can0 017FFF02#7FFF7FFF00000000
(1790979224.272668) can0 020002FD#7FFF7FED7FFF00F0
(1790979224.272809) can0 0400FD02#0000000000000000
(1790979224.272965) can0 020002FD#7FFF7F547FFF00F0
(1790979224.273104) can0 1200FD03#0A70000000000000
(1790979224.273262) can0 020003FD#7FFF7FDB7FFF00E6
(1790979224.273403) can0 017FFF03#7FFF7FFF00000000
(1790979224.273563) can0 020003FD#7FFF7FFE7FFF00E6
(1790979224.273705) can0 0400FD03#0000000000000000
(1790979224.273863) can0 020003FD#7FFF801D7FFF00E6
(1790979224.274002) can0 1200FD04#0A70000000000000
(1790979224.274177) can0 020004FD#7FFF80257FFF00F0
(1790979224.274315) can0 017FFF04#7FFF7FFF00000000
(1790979224.274473) can0 020004FD#7FFF7FE77FFF00F0
(1790979224.274617) can0 0400FD04#0000000000000000
(1790979224.274773) can0 020004FD#7FFF7FD37FFF00F0
(1790979224.274911) can0 1200FD05#0A70000000000000
(1790979224.275096) can0 020005FD#7FFF80207FFF00F0
(1790979224.275233) can0 017FFF05#7FFF7FFF00000000
(1790979224.275401) can0 020005FD#7FFF7FF37FFF00F0
(1790979224.275537) can0 0400FD05#0000000000000000
(1790979224.275700) can0 020005FD#7FFF7FE47FFF00F0
(1790979224.293014) can0 11004001#1970000000000000
(1790979224.293176) can0 11000140#197000001D070639
(1790979224.294072) can0 11004101#2870000000000000
(1790979224.294230) can0 11000141#2870000058020000
(1790979224.295128) can0 11004202#1970000000000000
(1790979224.295281) can0 11000242#19700000ABAAB2B8
(1790979224.296188) can0 11004302#2870000000000000
(1790979224.296368) can0 11000243#2870000058020000
(1790979224.297248) can0 11004403#1970000000000000
(1790979224.297412) can0 11000344#19700000DF7B4FB8
(1790979224.298305) can0 11004503#2870000000000000
(1790979224.298463) can0 11000345#2870000058020000
(1790979224.299366) can0 11004604#1970000000000000
(1790979224.299519) can0 11000446#19700000E79CCF38
(1790979224.300422) can0 11004704#2870000000000000
(1790979224.300580) can0 11000447#2870000058020000
(1790979224.301481) can0 11004805#1970000000000000
(1790979224.301645) can0 11000548#19700000CDCC2038
(1790979224.302540) can0 11004905#2870000000000000
(1790979224.302697) can0 11000549#2870000058020000
(1790979224.303881) can0 0300FD01#0000000000000000
(1790979224.304142) can0 1200FD01#0570000000000000
(1790979224.304401) can0 0300FD02#0000000000000000
(1790979224.304659) can0 1200FD02#0570000000000000
(1790979224.304918) can0 0300FD03#0000000000000000
(1790979224.305176) can0 1200FD03#0570000000000000
(1790979224.305325) can0 028001FD#7FFF8029800900F0
(1790979224.305467) can0 0300FD04#0000000000000000
(1790979224.305725) can0 1200FD04#0570000000000000
(1790979224.305876) can0 028002FD#7FFF8033802800F0
(1790979224.306016) can0 0300FD05#0000000000000000
(1790979224.306164) can0 028002FD#7FFF801B803700F0
(1790979224.306302) can0 1200FD05#0570000000000000
(1790979224.306453) can0 028003FD#7FFF7FF27FE100E6
(1790979224.306594) can0 017FFF01#7FFF7FFF00000000
(1790979224.306792) can0 028001FD#80008096800500F0
(1790979224.306928) can0 017FFF02#7FFF7FFF00000000
(1790979224.307077) can0 028004FD#7FFF8001805100F0
(1790979224.307219) can0 017FFF03#7FFF7FFF00000000
(1790979224.307367) can0 028002FD#7FFF8038802000F0
(1790979224.307510) can0 017FFF04#7FFF7FFF00000000
(1790979224.307657) can0 028003FD#7FFF80357FC700E6
(1790979224.307799) can0 017FFF05#7FFF7FFF00000000
(1790979224.307947) can0 028004FD#7FFF800C803500F0
(1790979224.308094) can0 028001FD#80007FB7800100F0
(1790979224.308230) can0 028004FD#7FFF7FF9805E00F0
(1790979224.308370) can0 11006001#1970000000000000
(1790979224.308518) can0 028005FD#7FFF8026802700F0
(1790979224.308658) can0 017FFF01#7FFF7FFF00000000
(1790979224.308807) can0 028005FD#7FFF801C802F00F0
(1790979224.308949) can0 017FFF02#7FFF7FFF00000000
(1790979224.309098) can0 02800160#7FFF7F7A7FED00F0
(1790979224.309239) can0 017FFF03#7FFF7FFF00000000
(1790979224.309388) can0 028002FD#7FFF7FE2802500F0
(1790979224.309530) can0 017FFF04#7FFF7FFF00000000
(1790979224.309677) can0 028003FD#7FFF7FB47FD100E6
(1790979224.309819) can0 017FFF05#7FFF7FFF00000000
(1790979224.309966) can0 028003FD#7FFF7F987FCA00E6
(1790979224.310107) can0 017FFF01#7FFF7FFF00000000
(1790979224.310257) can0 028004FD#7FFF801A802F00F0
(1790979224.310399) can0 017FFF02#7FFF7FFF00000000
(1790979224.310550) can0 02800160#800080127FF400F0
(1790979224.310692) can0 017FFF03#7FFF7FFF00000000
(1790979224.310840) can0 028002FD#7FFF8056804200F0
(1790979224.310982) can0 017FFF04#7FFF7FFF00000000
(1790979224.311132) can0 028003FD#80007FF77FD500E6
(1790979224.311274) can0 017FFF05#7FFF7FFF00000000
(1790979224.311427) can0 028004FD#7FFF7F93800900F0
(1790979224.311571) can0 028005FD#8000802F804200F0
(1790979224.311715) can0 028005FD#7FFF7FB1804C00F0
(1790979224.311851) can0 028005FD#7FFF7FD1802100F0
(1790979224.311996) can0 11000160#19700000ABAA3238
(1790979224.312499) can0 11006101#2870000000000000
(1790979224.312689) can0 11000161#2870000058020000
(1790979224.312825) can0 017FFF01#7FFF7FFF00000000
(1790979224.312993) can0 02800161#7FFF7FE87FFD00F0
(1790979224.313129) can0 017FFF02#7FFF7FFF00000000
(1790979224.313328) can0 028002FD#7FFF7FB4803800F0
(1790979224.313464) can0 017FFF03#7FFF7FFF00000000
(1790979224.313675) can0 028003FD#8000802E7FCF00E6
(1790979224.313812) can0 017FFF04#7FFF7FFF00000000
(1790979224.314038) can0 028004FD#7FFF7FE4800200F0
(1790979224.314176) can0 017FFF05#7FFF7FFF00000000
(1790979224.314409) can0 028005FD#7FFF8032804900F0
(1790979224.314541) can0 11006202#1970000000000000
(1790979224.314733) can0 11000262#1970000000000000
(1790979224.314869) can0 017FFF01#7FFF7FFF00000000
(1790979224.315042) can0 02800161#7FFF7FEE7FF600F0
(1790979224.315178) can0 017FFF02#7FFF7FFF00000000
(1790979224.315377) can0 02800262#7FFF7FC9801F00F0
(1790979224.315513) can0 017FFF03#7FFF7FFF00000000
(1790979224.315726) can0 028003FD#7FFF7FC67FF500E6
(1790979224.315863) can0 017FFF04#7FFF7FFF00000000
(1790979224.316090) can0 028004FD#7FFF7FDC800C00F0
(1790979224.316228) can0 017FFF05#7FFF7FFF00000000
(1790979224.316461) can0 028005FD#7FFF7FE3803400F0
(1790979224.316595) can0 11006302#2870000000000000
(1790979224.316781) can0 11000263#2870000058020000
(1790979224.316917) can0 017FFF01#7FFF7FFF00000000
(1790979224.317092) can0 02800161#800080E17FFB00F0
(1790979224.317228) can0 017FFF02#7FFF7FFF00000000
(1790979224.317427) can0 02800263#7FFF8086803000F0
(1790979224.317563) can0 017FFF03#7FFF7FFF00000000
(1790979224.317776) can0 028003FD#7FFF7FCF7FF800E6
(1790979224.317914) can0 017FFF04#7FFF7FFF00000000
(1790979224.318140) can0 028004FD#7FFF7FF3801000F0
(1790979224.318277) can0 017FFF05#7FFF7FFF00000000
(1790979224.318507) can0 028005FD#7FFF7FDD802900F0
(1790979224.318640) can0 11006403#1970000000000000
(1790979224.318828) can0 11000364#19700000638C4F39
(1790979224.318964) can0 017FFF01#7FFF7FFF00000000
(1790979224.319142) can0 02800161#7FFF7FE67FF700F0
(1790979224.319278) can0 017FFF02#7FFF7FFF00000000
(1790979224.319475) can0 02800263#7FFF7F75803200F0
(1790979224.319611) can0 017FFF03#7FFF7FFF00000000
(1790979224.319826) can0 02800364#7FFF80597FE700E6
(1790979224.319964) can0 017FFF04#7FFF7FFF00000000
(1790979224.320188) can0 028004FD#7FFF7FB57FFA00F0
(1790979224.320325) can0 017FFF05#7FFF7FFF00000000
(1790979224.320525) can0 028005FD#7FFF8022800D00F0
(1790979224.320647) can0 11006503#2870000000000000
(1790979224.320831) can0 11000365#2870000058020000
(1790979224.320967) can0 017FFF01#7FFF7FFF00000000
(1790979224.321142) can0 02800161#7FFF7FB7800500F0
(1790979224.321278) can0 017FFF02#7FFF7FFF00000000
(1790979224.321476) can0 02800263#7FFE7F6C800E00F0
(1790979224.321613) can0 017FFF03#7FFF7FFF00000000
(1790979224.321826) can0 02800365#800080037FE300E6
(1790979224.321963) can0 017FFF04#7FFF7FFF00000000
(1790979224.322187) can0 028004FD#7FFF7FB3800600F0
(1790979224.322324) can0 017FFF05#7FFF7FFF00000000
(1790979224.322564) can0 028005FD#7FFF801F800C00F0
(1790979224.322698) can0 11006604#1970000000000000
(1790979224.322889) can0 11000466#19700000EFBD4F38
(1790979224.323025) can0 017FFF01#7FFF7FFF00000000
(1790979224.323193) can0 02800161#7FFF8027800800F0
(1790979224.323328) can0 017FFF02#7FFF7FFF00000000
(1790979224.323525) can0 02800263#7FFE7EA9802300F0
(1790979224.323661) can0 017FFF03#7FFF7FFF00000000
(1790979224.323874) can0 02800365#7FFF8025803100E6
(1790979224.324011) can0 017FFF04#7FFF7FFF00000000
(1790979224.324236) can0 02800466#7FFF7FFB800B00F0
(1790979224.324373) can0 017FFF05#7FFF7FFF00000000
(1790979224.324612) can0 028005FD#7FFF800D7FF900F0
(1790979224.324745) can0 11006704#2870000000000000
(1790979224.324942) can0 11000467#2870000058020000
(1790979224.325078) can0 017FFF01#7FFF7FFF00000000
(1790979224.325236) can0 02800161#7FFF7F3F7FFE00F0
(1790979224.325378) can0 017FFF02#7FFF7FFF00000000
(1790979224.325578) can0 02800263#7FFF8055801500F0
(1790979224.325714) can0 017FFF03#7FFF7FFF00000000
(1790979224.325927) can0 02800365#7FFF8018800C00E6
(1790979224.326064) can0 017FFF04#7FFF7FFF00000000
(1790979224.326284) can0 02800467#7FFF7FD97FDE00F0
(1790979224.326421) can0 017FFF05#7FFF7FFF00000000
(1790979224.326659) can0 028005FD#7FFF7FCC801800F0
(1790979224.326791) can0 11006805#1970000000000000
(1790979224.326964) can0 11000568#1970000067E620B8
(1790979224.327101) can0 017FFF01#7FFF7FFF00000000
(1790979224.327292) can0 02800161#8000802D7FFA00F0
(1790979224.327428) can0 017FFF02#7FFF7FFF00000000
(1790979224.327627) can0 02800263#7FFE8014801000F0
(1790979224.327763) can0 017FFF03#7FFF7FFF00000000
(1790979224.327976) can0 02800365#7FFF80687FFB00E6
(1790979224.328113) can0 017FFF04#7FFF7FFF00000000
(1790979224.328335) can0 02800467#7FFF803C801300F0
(1790979224.328473) can0 017FFF05#7FFF7FFF00000000
(1790979224.328709) can0 02800568#7FFF7FCB7FEF00F0
(1790979224.328842) can0 11006905#2870000000000000
(1790979224.329015) can0 11000569#2870000058020000
(1790979224.329151) can0 017FFF01#7FFF7FFF00000000
(1790979224.329342) can0 02800161#8000809D7FF800F0
(1790979224.329478) can0 017FFF02#7FFF7FFF00000000
(1790979224.329677) can0 02800263#7FFF80F9800200F0
(1790979224.329813) can0 017FFF03#7FFF7FFF00000000
(1790979224.330025) can0 02800365#8000806C7FE500E6
(1790979224.330162) can0 017FFF04#7FFF7FFF00000000
(1790979224.330387) can0 02800467#8000804D801800F0
(1790979224.330525) can0 017FFF05#7FFF7FFF00000000
(1790979224.330759) can0 02800569#7FFF80137FFE00F0
(1790979224.330895) can0 017FFF01#7FFF7FFF00000000
(1790979224.331092) can0 02800161#80007FC77FFD00F0
(1790979224.331228) can0 017FFF02#7FFF7FFF00000000
(1790979224.331426) can0 02800263#7FFF7F92800600F0
(1790979224.331562) can0 017FFF03#7FFF7FFF00000000
(1790979224.331775) can0 02800365#7FFF7F967FF500E6
(1790979224.331913) can0 017FFF04#7FFF7FFF00000000
(1790979224.332138) can0 02800467#7FFF7FEF800500F0
(1790979224.332272) can0 017FFF05#7FFF7FFF0F5C147B
(1790979224.332511) can0 02800569#7FFF7FB3801400F0
(1790979224.335024) can0 017FFF01#7FFF7FFF00000000
(1790979224.335187) can0 02800161#7FFF8007800000F0
(1790979224.335328) can0 017FFF02#7FFF7FFF00000000
(1790979224.335525) can0 02800263#7FFE802B7FF100F0
(1790979224.335661) can0 017FFF03#7FFF7FFF00000000
(1790979224.335875) can0 02800365#7FFF7FCF7FF600E6
(1790979224.336012) can0 017FFF04#7FFF7FFF00000000
(1790979224.336237) can0 02800467#7FFF8004801A00F0
(1790979224.336369) can0 017FFF05#7FFE7FFF0F5C147B
(1790979224.336584) can0 02800569#7FFF7FC57FFF00F0
(1790979224.340016) can0 017FFF01#7FFF7FFF00000000
(1790979224.340191) can0 02800161#80007F457FFD00F0
(1790979224.340327) can0 017FFF02#7FFF7FFF00000000
(1790979224.340526) can0 02800263#7FFF80127FD200F0
(1790979224.340660) can0 017FFF03#7FFF7FFF00000000
(1790979224.340875) can0 02800365#7FFF80257FF300E6
(1790979224.341012) can0 017FFF04#7FFF7FFF00000000
(1790979224.341236) can0 02800467#7FFF803A7FF700F0
(1790979224.341368) can0 017FFF05#7FFE7FFF0F5C147B
(1790979224.341608) can0 02800569#7FFF80257FE700F0
(1790979224.345017) can0 017FFF01#7FFF7FFF00000000
(1790979224.345190) can0 02800161#7FFF7FAD7FF600F0
(1790979224.345326) can0 017FFF02#7FFF7FFF00000000
(1790979224.345525) can0 02800263#7FFE7F34801C00F0
(1790979224.345661) can0 017FFF03#7FFF7FFF00000000
(1790979224.345877) can0 02800365#7FFF7FFA800D00E6
(1790979224.346014) can0 017FFF04#7FFF7FFF00000000
(1790979224.346237) can0 02800467#7FFF8008800300F0
(1790979224.346369) can0 017FFF05#7FFD7FFF0F5C147B
(1790979224.346608) can0 02800569#7FFF7FF87FDD00F0
(1790979224.350017) can0 017FFF01#7FFF7FFF00000000
(1790979224.350193) can0 02800161#80008043800400F0
(1790979224.350329) can0 017FFF02#7FFF7FFF00000000
(1790979224.350530) can0 02800263#7FFF80DC800400F0
(1790979224.350666) can0 017FFF03#7FFF7FFF00000000
(1790979224.350877) can0 02800365#7FFF801B7FF400E6
(1790979224.351014) can0 017FFF04#7FFF7FFF00000000
(1790979224.351240) can0 02800467#7FFF7FFB7FFC00F0
(1790979224.351372) can0 017FFF05#7FFC7FFF0F5C147B
(1790979224.351609) can0 02800569#7FFF80117FE200F0
(1790979224.355017) can0 017FFF01#7FFF7FFF00000000
(1790979224.355192) can0 02800161#7FFF7F83800500F0
(1790979224.355329) can0 017FFF02#7FFF7FFF00000000
(1790979224.355527) can0 02800263#7FFF808E800A00F0
(1790979224.355663) can0 017FFF03#7FFF7FFF00000000
(1790979224.355877) can0 02800365#80007FE4800000E6
(1790979224.356014) can0 017FFF04#7FFF7FFF00000000
(1790979224.356236) can0 02800467#7FFF7FB0802700F0
(1790979224.356368) can0 017FFF05#7FFC7FFF0F5C147B
(1790979224.356610) can0 02800569#7FFF800F800200F0
(1790979224.360016) can0 017FFF01#7FFF7FFF00000000
(1790979224.360192) can0 02800161#7FFF7F747FE800F0
(1790979224.360328) can0 017FFF02#7FFF7FFF00000000
(1790979224.360528) can0 02800263#7FFF8119800E00F0
(1790979224.360661) can0 017FFF03#7FFF7FFF00000000
(1790979224.360875) can0 02800365#7FFF803B800100E6
(1790979224.361012) can0 017FFF04#7FFF7FFF00000000
(1790979224.361236) can0 02800467#7FFF7FCD801B00F0
(1790979224.361368) can0 017FFF05#7FFB7FFF0F5C147B
(1790979224.361607) can0 02800569#7FFF7FCC7FD500F0
(1790979224.365017) can0 017FFF01#7FFF7FFF00000000
(1790979224.365190) can0 02800161#7FFF7F9D800900F0
(1790979224.365326) can0 017FFF02#7FFF7FFF00000000
(1790979224.365523) can0 02800263#7FFF80B7801200F0
(1790979224.365660) can0 017FFF03#7FFF7FFF00000000
(1790979224.365875) can0 02800365#7FFF802E800300E6
(1790979224.366012) can0 017FFF04#7FFF7FFF00000000
(1790979224.366234) can0 02800467#7FFF80637FD100F0
(1790979224.366368) can0 017FFF05#7FFA7FFF0F5C147B
(1790979224.366609) can0 02800569#7FFF7FEE7FAE00F0
(1790979224.370017) can0 017FFF01#7FFF7FFF00000000
(1790979224.370190) can0 02800161#7FFF7F34801500F0
(1790979224.370326) can0 017FFF02#7FFF7FFF00000000
(1790979224.370527) can0 02800263#7FFE80597FFC00F0
(1790979224.370663) can0 017FFF03#7FFF7FFF00000000
(1790979224.370875) can0 02800365#7FFF8062800200E6
(1790979224.371012) can0 017FFF04#7FFF7FFF00000000
(1790979224.371235) can0 02800467#7FFF80357FFE00F0
(1790979224.371369) can0 017FFF05#7FFA7FFF0F5C147B
(1790979224.371606) can0 02800569#7FFE7FDD7F7A00F0
(1790979224.375016) can0 017FFF01#7FFF7FFF00000000
(1790979224.375190) can0 02800161#80007FB57FF200F0
(1790979224.375326) can0 017FFF02#7FFF7FFF00000000
(1790979224.375524) can0 02800263#7FFF805B7FFB00F0
(1790979224.375661) can0 017FFF03#7FFF7FFF00000000
(1790979224.375878) can0 02800365#800080167FF800E6
(1790979224.376015) can0 017FFF04#7FFF7FFF00000000
(1790979224.376236) can0 02800467#7FFF8023800A00F0
(1790979224.376369) can0 017FFF05#7FF97FFF0F5C147B
(1790979224.376609) can0 02800569#7FFE801E7F8E00F0
(1790979224.380017) can0 017FFF01#7FFF7FFF00000000
(1790979224.380192) can0 02800161#80007FEA7FE900F0
(1790979224.380328) can0 017FFF02#7FFF7FFF00000000
(1790979224.380527) can0 02800263#7FFE7FCA7FF200F0
(1790979224.380662) can0 017FFF03#7FFF7FFF00000000
(1790979224.380875) can0 02800365#8000809A800300E6
(1790979224.381012) can0 017FFF04#7FFF7FFF00000000
(1790979224.381237) can0 02800467#7FFF800F7FEE00F0
(1790979224.381370) can0 017FFF05#7FF87FFF0F5C147B
(1790979224.381606) can0 02800569#7FFE7FF37FA500F0
(1790979224.385018) can0 017FFF01#7FFF7FFF00000000
(1790979224.385189) can0 02800161#7FFF7F9C800D00F0
(1790979224.385325) can0 017FFF02#7FFF7FFF00000000
(1790979224.385482) can0 02800263#7FFE7F8C7FFC00F0
(1790979224.385624) can0 017FFF03#7FFF7FFF00000000
(1790979224.385825) can0 02800365#7FFF8003800F00E6
(1790979224.385963) can0 017FFF04#7FFF7FFF00000000
(1790979224.386185) can0 02800467#7FFF8027802200F0
(1790979224.386318) can0 017FFF05#7FF87FFF0F5C147B
(1790979224.386558) can0 02800569#7FFE7FC97F7400F0
(1790979224.390017) can0 017FFF01#7FFF7FFF00000000
(1790979224.390192) can0 02800161#7FFF805D800E00F0
(1790979224.390328) can0 017FFF02#7FFF7FFF00000000
(1790979224.390526) can0 02800263#7FFF7F90801600F0
(1790979224.390663) can0 017FFF03#7FFF7FFF00000000
(1790979224.390876) can0 02800365#7FFF8011801B00E6
(1790979224.391014) can0 017FFF04#7FFF7FFF00000000
(1790979224.391234) can0 02800467#7FFF804B7FC300F0
(1790979224.391366) can0 017FFF05#7FF77FFF0F5C147B
(1790979224.391567) can0 02800569#7FFE800D7F8200F0
(1790979224.395017) can0 017FFF01#7FFF7FFF00000000
(1790979224.395191) can0 02800161#7FFF7FB37FFA00F0
(1790979224.395327) can0 017FFF02#7FFF7FFF00000000
(1790979224.395529) can0 02800263#7FFF7FF37FE400F0
(1790979224.395666) can0 017FFF03#7FFF7FFF00000000
(1790979224.395876) can0 02800365#7FFF800B7FF600E6
(1790979224.396014) can0 017FFF04#7FFF7FFF00000000
(1790979224.396238) can0 02800467#7FFF80017FE500F0
(1790979224.396370) can0 017FFF05#7FF77FFF0F5C147B
(1790979224.396606) can0 02800569#7FFE7FAB7F6A00F0
(1790979224.400019) can0 017FFF01#7FFF7FFF00000000
(1790979224.400191) can0 02800161#80008005800000F0
(1790979224.400327) can0 017FFF02#7FFF7FFF00000000
(1790979224.400525) can0 02800263#7FFE8025801000F0
(1790979224.400660) can0 017FFF03#7FFF7FFF00000000
(1790979224.400876) can0 02800365#7FFF7FB87FF400E6
(1790979224.401014) can0 017FFF04#7FFF7FFF00000000
(1790979224.401238) can0 02800467#7FFF7FE27FEF00F0
(1790979224.401370) can0 017FFF05#7FF67FFF0F5C147B
(1790979224.401607) can0 02800569#7FFD800E7F6600F0
(1790979224.405018) can0 017FFF01#7FFF7FFF00000000
(1790979224.405191) can0 02800161#800080167FFF00F0
(1790979224.405327) can0 017FFF02#7FFF7FFF00000000
(1790979224.405526) can0 02800263#7FFF806F7FF900F0
(1790979224.405662) can0 017FFF03#7FFF7FFF00000000
(1790979224.405876) can0 02800365#7FFF7FE7800E00E6
(1790979224.406014) can0 017FFF04#7FFF7FFF00000000
(1790979224.406237) can0 02800467#7FFF80067FF900F0
(1790979224.406369) can0 017FFF05#7FF57FFF0F5C147B
(1790979224.406608) can0 02800569#7FFD7FBF7F6800F0
(1790979224.410018) can0 017FFF01#7FFF7FFF00000000
(1790979224.410191) can0 02800161#7FFF7FCF7FEE00F0
(1790979224.410327) can0 017FFF02#7FFF7FFF00000000
(1790979224.410527) can0 02800263#7FFE7FB9801E00F0
(1790979224.410663) can0 017FFF03#7FFF7FFF00000000
(1790979224.410875) can0 02800365#7FFF7FC7800C00E6
(1790979224.411013) can0 017FFF04#7FFF7FFF00000000
(1790979224.411236) can0 02800467#7FFF80237FD700F0
(1790979224.411368) can0 017FFF05#7FF57FFF0F5C147B
(1790979224.411608) can0 02800569#7FFD7FBB7F5F00F0
(1790979224.415018) can0 017FFF01#7FFF7FFF00000000
(1790979224.415190) can0 02800161#7FFF7FA7800300F0
(1790979224.415326) can0 017FFF02#7FFF7FFF00000000
(1790979224.415522) can0 02800263#7FFE7F6E7FFB00F0
(1790979224.415658) can0 017FFF03#7FFF7FFF00000000
(1790979224.415877) can0 02800365#7FFF802F800900E6
(1790979224.416014) can0 017FFF04#7FFF7FFF00000000
(1790979224.416237) can0 02800467#7FFF8044801B00F0
(1790979224.416369) can0 017FFF05#7FF47FFF0F5C147B
(1790979224.416607) can0 02800569#7FFD7FE27F5B00F0
(1790979224.420018) can0 017FFF01#7FFF7FFF00000000
(1790979224.420191) can0 02800161#7FFF7FC37FF300F0
(1790979224.420327) can0 017FFF02#7FFF7FFF00000000
(1790979224.420527) can0 02800263#7FFF8087800B00F0
(1790979224.420662) can0 017FFF03#7FFF7FFF00000000
(1790979224.420877) can0 02800365#7FFF80157FF400E6
(1790979224.421015) can0 017FFF04#7FFF7FFF00000000
(1790979224.421238) can0 02800467#7FFF7FC57FEF00F0
(1790979224.421370) can0 017FFF05#7FF37FFF0F5C147B
(1790979224.421611) can0 02800569#7FFD7FF27F5400F0
(1790979224.425019) can0 017FFF01#7FFF7FFF00000000
(1790979224.425191) can0 02800161#7FFF80917FFD00F0
(1790979224.425327) can0 017FFF02#7FFF7FFF00000000
(1790979224.425524) can0 02800263#7FFE7F50800900F0
(1790979224.425660) can0 017FFF03#7FFF7FFF00000000
(1790979224.425874) can0 02800365#800080AE7FE700E6
(1790979224.426011) can0 017FFF04#7FFF7FFF00000000
(1790979224.426235) can0 02800467#7FFF7FCC802900F0
(1790979224.426368) can0 017FFF05#7FF37FFF0F5C147B
(1790979224.426608) can0 02800569#7FFC80017F6000F0
(1790979224.430018) can0 017FFF01#7FFF7FFF00000000
(1790979224.430192) can0 02800161#7FFF807E7FFA00F0
(1790979224.430328) can0 017FFF02#7FFF7FFF00000000
(1790979224.430526) can0 02800263#7FFE7FBE7FE200F0
(1790979224.430662) can0 017FFF03#7FFF7FFF00000000
(1790979224.430876) can0 02800365#7FFF7FD37FF400E6
(1790979224.431013) can0 017FFF04#7FFF7FFF00000000
(1790979224.431236) can0 02800467#7FFF80607FE900F0
(1790979224.431370) can0 017FFF05#7FF27FFF0F5C147B
(1790979224.431608) can0 02800569#7FFB7FF17F5C00F0
(1790979224.435018) can0 017FFF01#7FFF7FFF00000000
(1790979224.435193) can0 02800161#7FFF7F657FF400F0
(1790979224.435329) can0 017FFF02#7FFF7FFF00000000
(1790979224.435529) can0 02800263#7FFF7FFB800700F0
(1790979224.435665) can0 017FFF03#7FFF7FFF00000000
(1790979224.435876) can0 02800365#7FFF7FE7801600E6
(1790979224.436013) can0 017FFF04#7FFF7FFF00000000
(1790979224.436238) can0 02800467#7FFF800B7FEB00F0
(1790979224.436373) can0 017FFF05#7FF17FFF0F5C147B
(1790979224.436606) can0 02800569#7FFB7F7B7F6100F0
(1790979224.440018) can0 017FFF01#7FFF7FFF00000000
(1790979224.440192) can0 02800161#80007FE3800800F0
(1790979224.440328) can0 017FFF02#7FFF7FFF00000000
(1790979224.440525) can0 02800263#7FFE7FD67FE600F0
(1790979224.440660) can0 017FFF03#7FFF7FFF00000000
(1790979224.440878) can0 02800365#7FFF80107FFA00E6
(1790979224.441015) can0 017FFF04#7FFF7FFF00000000
(1790979224.441235) can0 02800467#7FFF7FD57FEB00F0
(1790979224.441369) can0 017FFF05#7FF17FFF0F5C147B
(1790979224.441608) can0 02800569#7FF97FC27F7F00F0
(1790979224.445018) can0 017FFF01#7FFF7FFF00000000
(1790979224.445191) can0 02800161#80007F6C7FF600F0
(1790979224.445327) can0 017FFF02#7FFF7FFF00000000
(1790979224.445525) can0 02800263#7FFE800C7FF100F0
(1790979224.445661) can0 017FFF03#7FFF7FFF00000000
(1790979224.445876) can0 02800365#7FFF800D800400E6
(1790979224.446013) can0 017FFF04#7FFF7FFF00000000
(1790979224.446235) can0 02800467#7FFF7FFC800100F0
(1790979224.446366) can0 017FFF05#7FF07FFF0F5C147B
(1790979224.446605) can0 02800569#7FF87F8D7FBB00F0
(1790979224.450018) can0 017FFF01#7FFF7FFF00000000
(1790979224.450190) can0 02800161#7FFF8052800100F0
(1790979224.450326) can0 017FFF02#7FFF7FFF00000000
(1790979224.450525) can0 02800263#7FFE7FC8800B00F0
(1790979224.450661) can0 017FFF03#7FFF7FFF00000000
(1790979224.450875) can0 02800365#7FFF80137FE900E6
(1790979224.451012) can0 017FFF04#7FFF7FFF00000000
(1790979224.451237) can0 02800467#7FFF7FF97FE100F0
(1790979224.451370) can0 017FFF05#7FEF7FFF0F5C147B
(1790979224.451607) can0 02800569#7FF77F817FF200F0
(1790979224.455018) can0 017FFF01#7FFF7FFF00000000
(1790979224.455192) can0 02800161#7FFF7FA3800400F0
(1790979224.455328) can0 017FFF02#7FFF7FFF00000000
(1790979224.455525) can0 02800263#7FFF7FCA800A00F0
(1790979224.455661) can0 017FFF03#7FFF7FFF00000000
(1790979224.455875) can0 02800365#7FFF7FA27FE000E6
(1790979224.456012) can0 017FFF04#7FFF7FFF00000000
(1790979224.456237) can0 02800467#7FFF80407FEF00F0
(1790979224.456370) can0 017FFF05#7FEF7FFF0F5C147B
(1790979224.456607) can0 02800569#7FF57F307FDB00F0
(1790979224.460018) can0 017FFF01#7FFF7FFF00000000
(1790979224.460191) can0 02800161#7FFF7F66800400F0
(1790979224.460328) can0 017FFF02#7FFF7FFF00000000
(1790979224.460527) can0 02800263#7FFE7F82801D00F0
(1790979224.460661) can0 017FFF03#7FFF7FFF00000000
(1790979224.460876) can0 02800365#7FFF7FBF801100E6
(1790979224.461013) can0 017FFF04#7FFF7FFF00000000
(1790979224.461237) can0 02800467#7FFF8033800400F0
(1790979224.461369) can0 017FFF05#7FEE7FFF0F5C147B
(1790979224.461605) can0 02800569#7FF47F977F9100F0
(1790979224.465018) can0 017FFF01#7FFF7FFF00000000
(1790979224.465190) can0 02800161#7FFF802B800800F0
(1790979224.465326) can0 017FFF02#7FFF7FFF00000000
(1790979224.465523) can0 02800263#7FFE8036801200F0
(1790979224.465660) can0 017FFF03#7FFF7FFF00000000
(1790979224.465876) can0 02800365#7FFF7FF4800500E6
(1790979224.466013) can0 017FFF04#7FFF7FFF00000000
(1790979224.466237) can0 02800467#7FFF7FFF7FF100F0
(1790979224.466370) can0 017FFF05#7FED7FFF0F5C147B
(1790979224.466606) can0 02800569#7FF37F917F8600F0
(1790979224.470018) can0 017FFF01#7FFF7FFF00000000
(1790979224.470188) can0 02800161#8000806C800900F0
(1790979224.470324) can0 017FFF02#7FFF7FFF00000000
(1790979224.470522) can0 02800263#7FFE7F3F7FF500F0
(1790979224.470659) can0 017FFF03#7FFF7FFF00000000
(1790979224.470877) can0 02800365#7FFF7FF8800E00E6
(1790979224.471014) can0 017FFF04#7FFF7FFF00000000
(1790979224.471238) can0 02800467#7FFF7F7C800C00F0
(1790979224.471371) can0 017FFF05#7FED7FFF0F5C147B
(1790979224.471606) can0 02800569#7FF27FAC7F9200F0
(1790979224.475018) can0 017FFF01#7FFF7FFF00000000
(1790979224.475192) can0 02800161#7FFF80297FFF00F0
(1790979224.475328) can0 017FFF02#7FFF7FFF00000000
(1790979224.475528) can0 02800263#7FFE7F937FE400F0
(1790979224.475664) can0 017FFF03#7FFF7FFF00000000
(1790979224.475876) can0 02800365#7FFF7FF9801800E6
(1790979224.476014) can0 017FFF04#7FFF7FFF00000000
(1790979224.476235) can0 02800467#7FFF801A7FCE00F0
(1790979224.476368) can0 017FFF05#7FEC7FFF0F5C147B
(1790979224.476609) can0 02800569#7FF17F977F8100F0
(1790979224.480017) can0 017FFF01#7FFF7FFF00000000
(1790979224.480192) can0 02800161#7FFF80237FFF00F0
(1790979224.480328) can0 017FFF02#7FFF7FFF00000000
(1790979224.480529) can0 02800263#7FFE7FB57FEC00F0
(1790979224.480664) can0 017FFF03#7FFF7FFF00000000
(1790979224.480875) can0 02800365#7FFF803D801700E6
(1790979224.481013) can0 017FFF04#7FFF7FFF00000000
(1790979224.481237) can0 02800467#7FFF7FFC800E00F0
(1790979224.481369) can0 017FFF05#7FEB7FFF0F5C147B
(1790979224.481607) can0 02800569#7FF1800A7FD100F0
(1790979224.485018) can0 017FFF01#7FFF7FFF00000000
(1790979224.485189) can0 02800161#7FFF7FA07FF200F0
(1790979224.485325) can0 017FFF02#7FFF7FFF00000000
(1790979224.485522) can0 02800263#7FFE7F527FEE00F0
(1790979224.485658) can0 017FFF03#7FFF7FFF00000000
(1790979224.485875) can0 02800365#7FFF800C801500E6
(1790979224.486012) can0 017FFF04#7FFF7FFF00000000
(1790979224.486235) can0 02800467#7FFF802E801100F0
(1790979224.486368) can0 017FFF05#7FEB7FFF0F5C147B
(1790979224.486610) can0 02800569#7FF07FC4802400F0
(1790979224.490018) can0 017FFF01#7FFF7FFF00000000
(1790979224.490190) can0 02800161#7FFF7FA87FF100F0
(1790979224.490326) can0 017FFF02#7FFF7FFF00000000
(1790979224.490524) can0 02800263#7FFE7FE2801D00F0
(1790979224.490660) can0 017FFF03#7FFF7FFF00000000
(1790979224.490875) can0 02800365#7FFF802C800A00E6
(1790979224.491012) can0 017FFF04#7FFF7FFF00000000
(1790979224.491238) can0 02800467#7FFF7FD27FEC00F0
(1790979224.491370) can0 017FFF05#7FEA7FFF0F5C147B
(1790979224.491564) can0 02800569#7FEE7F4E803A00F0
(1790979224.495018) can0 017FFF01#7FFF7FFF00000000
(1790979224.495190) can0 02800161#7FFF7FCC7FFB00F0
(1790979224.495326) can0 017FFF02#7FFF7FFF00000000
(1790979224.495523) can0 02800263#7FFF805E802900F0
(1790979224.495659) can0 017FFF03#7FFF7FFF00000000
(1790979224.495876) can0 02800365#7FFF7FD17FFF00E6
(1790979224.496013) can0 017FFF04#7FFF7FFF00000000
(1790979224.496235) can0 02800467#7FFF7FF27FE300F0
(1790979224.496367) can0 017FFF05#7FE97FFF0F5C147B
(1790979224.496606) can0 02800569#7FEC7F767FF500F0
(1790979224.500018) can0 017FFF01#7FFF7FFF00000000
(1790979224.500194) can0 02800161#8000808E800400F0
(1790979224.500330) can0 017FFF02#7FFF7FFF00000000
(1790979224.500529) can0 02800263#7FFE7FFE7FE000F0
(1790979224.500665) can0 017FFF03#7FFF7FFF00000000
(1790979224.500875) can0 02800365#800080297FFB00E6
(1790979224.501012) can0 017FFF04#7FFF7FFF00000000
(1790979224.501235) can0 02800467#7FFF7FE7801500F0
(1790979224.501367) can0 017FFF05#7FE97FFF0F5C147B
(1790979224.501606) can0 02800569#7FEB7FA97FF700F0
(1790979224.505019) can0 017FFF01#7FFF7FFF00000000
(1790979224.505190) can0 02800161#7FFF8032800E00F0
(1790979224.505326) can0 017FFF02#7FFF7FFF00000000
(1790979224.505524) can0 02800263#7FFE80B6800700F0
(1790979224.505660) can0 017FFF03#7FFF7FFF00000000
(1790979224.505876) can0 02800365#8000803E7FFB00E6
(1790979224.506013) can0 017FFF04#7FFF7FFF00000000
(1790979224.506236) can0 02800467#7FFF7F747FF600F0
(1790979224.506369) can0 017FFF05#7FE87FFF0F5C147B
(1790979224.506607) can0 02800569#7FEA7FFC7FF900F0
(1790979224.510018) can0 017FFF01#7FFF7FFF00000000
(1790979224.510189) can0 02800161#7FFF7F717FF700F0
(1790979224.510325) can0 017FFF02#7FFF7FFF00000000
(1790979224.510521) can0 02800263#7FFE7F237FF100F0
(1790979224.510657) can0 017FFF03#7FFF7FFF00000000
(1790979224.510876) can0 02800365#7FFF80077FF000E6
(1790979224.511013) can0 017FFF04#7FFF7FFF00000000
(1790979224.511234) can0 02800467#7FFF803B7FEA00F0
(1790979224.511367) can0 017FFF05#7FE87FFF0F5C147B
(1790979224.511567) can0 02800569#7FE87F3B801400F0
(1790979224.515017) can0 017FFF01#7FFF7FFF00000000
(1790979224.515190) can0 02800161#800080257FF500F0
(1790979224.515326) can0 017FFF02#7FFF7FFF00000000
(1790979224.515523) can0 02800263#7FFE80687FF200F0
(1790979224.515659) can0 017FFF03#7FFF7FFF00000000
(1790979224.515875) can0 02800365#7FFF7FDE7FEE00E6
(1790979224.516012) can0 017FFF04#7FFF7FFF00000000
(1790979224.516236) can0 02800467#7FFF801C7FD800F0
(1790979224.516369) can0 017FFF05#7FE77FFF0F5C147B
(1790979224.516567) can0 02800569#7FE77F9F801900F0
(1790979224.520017) can0 017FFF01#7FFF7FFF00000000
(1790979224.520191) can0 02800161#80007FFD800800F0
(1790979224.520328) can0 017FFF02#7FFF7FFF00000000
(1790979224.520530) can0 02800263#7FFE7FE37FE100F0
(1790979224.520664) can0 017FFF03#7FFF7FFF00000000
(1790979224.520874) can0 02800365#7FFF7FA17FEF00E6
(1790979224.521011) can0 017FFF04#7FFF7FFF00000000
(1790979224.521235) can0 02800467#7FFF7FC37FF500F0
(1790979224.521367) can0 017FFF05#7FE67FFF0F5C147B
(1790979224.521567) can0 02800569#7FE57F6E801C00F0
(1790979224.525018) can0 017FFF01#7FFF7FFF00000000
(1790979224.525189) can0 02800161#7FFF7F29800800F0
(1790979224.525326) can0 017FFF02#7FFF7FFF00000000
(1790979224.525523) can0 02800263#7FFE7F3B800500F0
(1790979224.525659) can0 017FFF03#7FFF7FFF00000000
(1790979224.525876) can0 02800365#8000803B7FFC00E6
(1790979224.526013) can0 017FFF04#7FFF7FFF00000000
(1790979224.526236) can0 02800467#7FFF8001800600F0
(1790979224.526368) can0 017FFF05#7FE67FFF0F5C147B
(1790979224.526566) can0 02800569#7FE37F4E803400F0
(1790979224.530017) can0 017FFF01#7FFF7FFF00000000
(1790979224.530188) can0 02800161#7FFF7FCA800200F0
(1790979224.530324) can0 017FFF02#7FFF7FFF00000000
(1790979224.530482) can0 02800263#7FFE8075800400F0
(1790979224.530623) can0 017FFF03#7FFF7FFF00000000
(1790979224.530827) can0 02800365#7FFF80207FFE00E6
(1790979224.530964) can0 017FFF04#7FFF7FFF00000000
(1790979224.531184) can0 02800467#7FFF8030806000F0
(1790979224.531316) can0 017FFF05#7FE57FFF0F5C147B
(1790979224.531514) can0 02800569#7FE27FB3805500F0
(1790979224.535016) can0 017FFF01#7FFF7FFF00000000
(1790979224.535189) can0 02800161#800080C8800500F0
(1790979224.535325) can0 017FFF02#7FFF7FFF00000000
(1790979224.535524) can0 02800263#7FFE8044800800F0
(1790979224.535660) can0 017FFF03#7FFF7FFF00000000
(1790979224.535876) can0 02800365#7FFF80117FF400E6
(1790979224.536014) can0 017FFF04#7FFF7FFF00000000
(1790979224.536236) can0 02800467#7FFF8006800600F0
(1790979224.536369) can0 017FFF05#7FE47FFF0F5C147B
(1790979224.536569) can0 02800569#7FE17FA7801400F0
(1790979224.540025) can0 017FFF01#7FFF7FFF00000000
(1790979224.540184) can0 02800161#7FFF803E7FF100F0
(1790979224.540326) can0 017FFF02#7FFF7FFF00000000
(1790979224.540528) can0 02800263#7FFE7F7F7FFC00F0
(1790979224.540662) can0 017FFF03#7FFF7FFF00000000
(1790979224.540874) can0 02800365#80008045800500E6
(1790979224.541011) can0 017FFF04#7FFF7FFF00000000
(1790979224.541236) can0 02800467#7FFF7FB9802400F0
(1790979224.541369) can0 017FFF05#7FE47FFF0F5C147B
(1790979224.541567) can0 02800569#7FE17FE9802600F0
(1790979224.545022) can0 017FFF01#7FFF7FFF00000000
(1790979224.545190) can0 02800161#7FFF7FE67FF100F0
(1790979224.545326) can0 017FFF02#7FFF7FFF00000000
(1790979224.545523) can0 02800263#7FFE7F477FF500F0
(1790979224.545659) can0 017FFF03#7FFF7FFF00000000
(1790979224.545875) can0 02800365#7FFF804D800800E6
(1790979224.546012) can0 017FFF04#7FFF7FFF00000000
(1790979224.546236) can0 02800467#7FFF801D7FE600F0
(1790979224.546368) can0 017FFF05#7FE37FFF0F5C147B
(1790979224.546566) can0 02800569#7FE180217FF100F0
(1790979224.550018) can0 017FFF01#7FFF7FFF00000000
(1790979224.550189) can0 02800161#800080A1800B00F0
(1790979224.550326) can0 017FFF02#7FFF7FFF00000000
(1790979224.550522) can0 02800263#7FFF80A5800200F0
(1790979224.550659) can0 017FFF03#7FFF7FFF00000000
(1790979224.550877) can0 02800365#7FFF8012800800E6
(1790979224.551014) can0 017FFF04#7FFF7FFF00000000
(1790979224.551237) can0 02800467#7FFF7FD37FFC00F0
(1790979224.551369) can0 017FFF05#7FE27FFF0F5C147B
(1790979224.551567) can0 02800569#7FE18000801200F0
(1790979224.555018) can0 017FFF01#7FFF7FFF00000000
(1790979224.555191) can0 02800161#7FFF7F8C800400F0
(1790979224.555327) can0 017FFF02#7FFF7FFF00000000
(1790979224.555525) can0 02800263#7FFE7FBB800600F0
(1790979224.555661) can0 017FFF03#7FFF7FFF00000000
(1790979224.555875) can0 02800365#800080547FEF00E6
(1790979224.556012) can0 017FFF04#7FFF7FFF00000000
(1790979224.556235) can0 02800467#7FFF8039802800F0
(1790979224.556367) can0 017FFF05#7FE27FFF0F5C147B
(1790979224.556567) can0 02800569#7FE18057803600F0
(1790979224.560017) can0 017FFF01#7FFF7FFF00000000
(1790979224.560188) can0 02800161#800080CB801500F0
(1790979224.560324) can0 017FFF02#7FFF7FFF00000000
(1790979224.560524) can0 02800263#7FFF8068802500F0
(1790979224.560659) can0 017FFF03#7FFF7FFF00000000
(1790979224.560875) can0 02800365#7FFF801D7FF700E6
(1790979224.561012) can0 017FFF04#7FFF7FFF00000000
(1790979224.561241) can0 02800467#7FFF800C801E00F0
(1790979224.561374) can0 017FFF05#7FE17FFF0F5C147B
(1790979224.561565) can0 02800569#7FE18014803100F0
(1790979224.565018) can0 017FFF01#7FFF7FFF00000000
(1790979224.565187) can0 02800161#8000807B7FF300F0
(1790979224.565323) can0 017FFF02#7FFF7FFF00000000
(1790979224.565478) can0 02800263#7FFE8026800D00F0
(1790979224.565619) can0 017FFF03#7FFF7FFF00000000
(1790979224.565825) can0 02800365#8000801E800300E6
(1790979224.565963) can0 017FFF04#7FFF7FFF00000000
(1790979224.566186) can0 02800467#7FFF8004800E00F0
(1790979224.566319) can0 017FFF05#7FE07FFF0F5C147B
(1790979224.566516) can0 02800569#7FE07FC2803800F0
(1790979224.570018) can0 017FFF01#7FFF7FFF00000000
(1790979224.570191) can0 02800161#7FFF7FC37FF800F0
(1790979224.570327) can0 017FFF02#7FFF7FFF00000000
(1790979224.570523) can0 02800263#7FFE80077FD300F0
(1790979224.570659) can0 017FFF03#7FFF7FFF00000000
(1790979224.570875) can0 02800365#7FFF7FC87FFD00E6
(1790979224.571012) can0 017FFF04#7FFF7FFF00000000
(1790979224.571238) can0 02800467#7FFF7FE1800A00F0
(1790979224.571371) can0 017FFF05#7FE07FFF0F5C147B
(1790979224.571566) can0 02800569#7FE07FBB801700F0
(1790979224.575018) can0 017FFF01#7FFF7FFF00000000
(1790979224.575188) can0 02800161#7FFF7FB1800500F0
(1790979224.575324) can0 017FFF02#7FFF7FFF00000000
(1790979224.575522) can0 02800263#7FFE7FCE7FE100F0
(1790979224.575658) can0 017FFF03#7FFF7FFF00000000
(1790979224.575876) can0 02800365#7FFF7FEE801400E6
(1790979224.576014) can0 017FFF04#7FFF7FFF00000000
(1790979224.576235) can0 02800467#7FFF80347FF700F0
(1790979224.576368) can0 017FFF05#7FDF7FFF0F5C147B
(1790979224.576565) can0 02800569#7FDF7FF8802300F0
(1790979224.580018) can0 017FFF01#7FFF7FFF00000000
(1790979224.580188) can0 02800161#8000807A800100F0
(1790979224.580324) can0 017FFF02#7FFF7FFF00000000
(1790979224.580528) can0 02800263#7FFF80157FF500F0
(1790979224.580661) can0 017FFF03#7FFF7FFF00000000
(1790979224.580875) can0 02800365#7FFF8006800000E6
(1790979224.581013) can0 017FFF04#7FFF7FFF00000000
(1790979224.581234) can0 02800467#7FFF7FF3801300F0
(1790979224.581366) can0 017FFF05#7FDE7FFF0F5C147B
(1790979224.581605) can0 02800569#7FDF80017FD900F0
(1790979224.585022) can0 017FFF01#7FFF7FFF00000000
(1790979224.585192) can0 02800161#80008103800400F0
(1790979224.585327) can0 017FFF02#7FFF7FFF00000000
(1790979224.585525) can0 02800263#7FFE7FBF800B00F0
(1790979224.585661) can0 017FFF03#7FFF7FFF00000000
(1790979224.585874) can0 02800365#7FFF80287FEC00E6
(1790979224.586012) can0 017FFF04#7FFF7FFF00000000
(1790979224.586237) can0 02800467#7FFF80087FED00F0
(1790979224.586368) can0 017FFF05#7FDE7FFF0F5C147B
(1790979224.586567) can0 02800569#7FDE7FF4801F00F0
(1790979224.590019) can0 017FFF01#7FFF7FFF00000000
(1790979224.590187) can0 02800161#7FFF7FD77FF600F0
(1790979224.590323) can0 017FFF02#7FFF7FFF00000000
(1790979224.590521) can0 02800263#7FFE8071800100F0
(1790979224.590657) can0 017FFF03#7FFF7FFF00000000
(1790979224.590873) can0 02800365#7FFF8036800900E6
(1790979224.591011) can0 017FFF04#7FFF7FFF00000000
(1790979224.591234) can0 02800467#7FFF7FC77FDF00F0
(1790979224.591365) can0 017FFF05#7FDD7FFF0F5C147B
(1790979224.591564) can0 02800569#7FDE7F8D7FF500F0
(1790979224.595018) can0 017FFF01#7FFF7FFF00000000
(1790979224.595188) can0 02800161#7FFF8007800200F0
(1790979224.595324) can0 017FFF02#7FFF7FFF00000000
(1790979224.595524) can0 02800263#7FFE7FC6801400F0
(1790979224.595660) can0 017FFF03#7FFF7FFF00000000
(1790979224.595874) can0 02800365#7FFF7FF77FF300E6
(1790979224.596012) can0 017FFF04#7FFF7FFF00000000
(1790979224.596234) can0 02800467#7FFE7FDF800D00F0
(1790979224.596366) can0 017FFF05#7FDC7FFF0F5C147B
(1790979224.596563) can0 02800569#7FDE7FB3800B00F0
(1790979224.600018) can0 017FFF01#7FFF7FFF00000000
(1790979224.600187) can0 02800161#7FFF802C7FFA00F0
(1790979224.600323) can0 017FFF02#7FFF7FFF00000000
(1790979224.600523) can0 02800263#7FFE7FF77FF900F0
(1790979224.600656) can0 017FFF03#7FFF7FFF00000000
(1790979224.600873) can0 02800365#7FFF802A800200E6
(1790979224.601011) can0 017FFF04#7FFF7FFF00000000
(1790979224.601236) can0 02800467#7FFF801D7FF500F0
(1790979224.601367) can0 017FFF05#7FDC7FFF0F5C147B
(1790979224.601563) can0 02800569#7FDD7FD4800D00F0
(1790979224.605019) can0 017FFF01#7FFF7FFF00000000
(1790979224.605190) can0 02800161#8000805D7FFC00F0
(1790979224.605326) can0 017FFF02#7FFF7FFF00000000
(1790979224.605522) can0 02800263#7FFE80387FEF00F0
(1790979224.605658) can0 017FFF03#7FFF7FFF00000000
(1790979224.605874) can0 02800365#7FFF7FDA7FF300E6
(1790979224.606012) can0 017FFF04#7FFF7FFF00000000
(1790979224.606234) can0 02800467#7FFF7FED803200F0
(1790979224.606365) can0 017FFF05#7FDB7FFF0F5C147B
(1790979224.606565) can0 02800569#7FDC7FA0801700F0
(1790979224.610021) can0 017FFF01#7FFF7FFF00000000
(1790979224.610190) can0 02800161#7FFF8063800000F0
(1790979224.610325) can0 017FFF02#7FFF7FFF00000000
(1790979224.610522) can0 02800263#7FFF80C37FEA00F0
(1790979224.610658) can0 017FFF03#7FFF7FFF00000000
(1790979224.610874) can0 02800365#800080477FF700E6
(1790979224.611012) can0 017FFF04#7FFF7FFF00000000
(1790979224.611235) can0 02800467#7FFF8010800200F0
(1790979224.611366) can0 017FFF05#7FDA7FFF0F5C147B
(1790979224.611566) can0 02800569#7FDC7FC9800800F0
(1790979224.615022) can0 017FFF01#7FFF7FFF00000000
(1790979224.615191) can0 02800161#7FFF803F7FFB00F0
(1790979224.615325) can0 017FFF02#7FFF7FFF00000000
(1790979224.615527) can0 02800263#7FFE7F73801E00F0
(1790979224.615663) can0 017FFF03#7FFF7FFF00000000
(1790979224.615874) can0 02800365#800080207FFB00E6
(1790979224.616011) can0 017FFF04#7FFF7FFF00000000
(1790979224.616235) can0 02800467#7FFF802C7FF800F0
(1790979224.616367) can0 017FFF05#7FDA7FFF0F5C147B
(1790979224.616606) can0 02800569#7FDC7FF67FF800F0
(1790979224.620019) can0 017FFF01#7FFF7FFF00000000
(1790979224.620189) can0 02800161#80007F91800800F0
(1790979224.620325) can0 017FFF02#7FFF7FFF00000000
(1790979224.620524) can0 02800263#7FFE7F637FFE00F0
(1790979224.620658) can0 017FFF03#7FFF7FFF00000000
(1790979224.620876) can0 02800365#7FFF801B801700E6
(1790979224.621014) can0 017FFF04#7FFF7FFF00000000
(1790979224.621234) can0 02800467#7FFF80367FFB00F0
(1790979224.621366) can0 017FFF05#7FD97FFF0F5C147B
(1790979224.621567) can0 02800569#7FDB7FE07FE800F0
(1790979224.625019) can0 017FFF01#7FFF7FFF00000000
(1790979224.625189) can0 02800161#8000809F800700F0
(1790979224.625325) can0 017FFF02#7FFF7FFF00000000
(1790979224.625525) can0 02800263#7FFF806B801C00F0
(1790979224.625661) can0 017FFF03#7FFF7FFF00000000
(1790979224.625874) can0 02800365#80008017800E00E6
(1790979224.626011) can0 017FFF04#7FFF7FFF00000000
(1790979224.626231) can0 02800467#7FFF80427FDA00F0
(1790979224.626363) can0 017FFF05#7FD97FFF0F5C147B
(1790979224.626562) can0 02800569#7FDB802A800200F0
(1790979224.630018) can0 017FFF01#7FFF7FFF00000000
(1790979224.630188) can0 02800161#7FFF7F3B800200F0
(1790979224.630324) can0 017FFF02#7FFF7FFF00000000
(1790979224.630522) can0 02800263#7FFE800A801100F0
(1790979224.630658) can0 017FFF03#7FFF7FFF00000000
(1790979224.630874) can0 02800365#7FFF7FDB801100E6
(1790979224.631011) can0 017FFF04#7FFF7FFF00000000
(1790979224.631236) can0 02800467#7FFF80207FE500F0
(1790979224.631368) can0 017FFF05#7FD87FFF0F5C147B
(1790979224.631605) can0 02800569#7FDB7FF87FF300F0
(1790979224.635019) can0 017FFF01#7FFF7FFF00000000
(1790979224.635188) can0 02800161#8000803C800600F0
(1790979224.635323) can0 017FFF02#7FFF7FFF00000000
(1790979224.635523) can0 02800263#7FFE80427FFF00F0
(1790979224.635659) can0 017FFF03#7FFF7FFF00000000
(1790979224.635874) can0 02800365#800080287FF300E6
(1790979224.636011) can0 017FFF04#7FFF7FFF00000000
(1790979224.636234) can0 02800467#7FFF7FDE800B00F0
(1790979224.636365) can0 017FFF05#7FD77FFF0F5C147B
(1790979224.636562) can0 02800569#7FDA7FDD7FDA00F0
(1790979224.640020) can0 017FFF01#7FFF7FFF00000000
(1790979224.640189) can0 02800161#800080AA800400F0
(1790979224.640326) can0 017FFF02#7FFF7FFF00000000
(1790979224.640524) can0 02800263#7FFF809A800A00F0
(1790979224.640660) can0 017FFF03#7FFF7FFF00000000
(1790979224.640875) can0 02800365#8000801D7FF500E6
(1790979224.641012) can0 017FFF04#7FFF7FFF00000000
(1790979224.641234) can0 02800467#7FFF8038800000F0
(1790979224.641365) can0 017FFF05#7FD77FFF0F5C147B
(1790979224.641565) can0 02800569#7FDA80027FA400F0
(1790979224.645020) can0 017FFF01#7FFF7FFF00000000
(1790979224.645189) can0 02800161#7FFF7F9D800200F0
(1790979224.645324) can0 017FFF02#7FFF7FFF00000000
(1790979224.645522) can0 02800263#7FFE7FB57FFA00F0
(1790979224.645658) can0 017FFF03#7FFF7FFF00000000
(1790979224.645875) can0 02800365#7FFF8006800800E6
(1790979224.646012) can0 017FFF04#7FFF7FFF00000000
(1790979224.646234) can0 02800467#7FFF802F7FCF00F0
(1790979224.646365) can0 017FFF05#7FD67FFF0F5C147B
(1790979224.646605) can0 02800569#7FDA80217F8C00F0
(1790979224.650019) can0 017FFF01#7FFF7FFF00000000
(1790979224.650190) can0 02800161#7FFF8037800400F0
(1790979224.650327) can0 017FFF02#7FFF7FFF00000000
(1790979224.650524) can0 02800263#7FFE80247FEA00F0
(1790979224.650660) can0 017FFF03#7FFF7FFF00000000
(1790979224.650876) can0 02800365#7FFF7FEC7FFD00E6
(1790979224.651013) can0 017FFF04#7FFF7FFF00000000
(1790979224.651235) can0 02800467#7FFF7FEC800D00F0
(1790979224.651367) can0 017FFF05#7FD57FFF0F5C147B
(1790979224.651565) can0 02800569#7FDA80407F9600F0
(1790979224.655022) can0 017FFF01#7FFF7FFF00000000
(1790979224.655190) can0 02800161#7FFF803F7FF400F0
(1790979224.655327) can0 017FFF02#7FFF7FFF00000000
(1790979224.655525) can0 02800263#7FFF807B7FF000F0
(1790979224.655661) can0 017FFF03#7FFF7FFF00000000
(1790979224.655876) can0 02800365#7FFF7FFF7FF000E6
(1790979224.656013) can0 017FFF04#7FFF7FFF00000000
(1790979224.656235) can0 02800467#7FFF7FC0801000F0
(1790979224.656367) can0 017FFF05#7FD57FFF0F5C147B
(1790979224.656563) can0 02800569#7FD980067F6700F0
(1790979224.660020) can0 017FFF01#7FFF7FFF00000000
(1790979224.660188) can0 02800161#80007FA4800000F0
(1790979224.660325) can0 017FFF02#7FFF7FFF00000000
(1790979224.660527) can0 02800263#7FFF80AE7FE400F0
(1790979224.660662) can0 017FFF03#7FFF7FFF00000000
(1790979224.660876) can0 02800365#80007FE9801400E6
(1790979224.661013) can0 017FFF04#7FFF7FFF00000000
(1790979224.661236) can0 02800467#7FFF8015801900F0
(1790979224.661367) can0 017FFF05#7FD47FFF0F5C147B
(1790979224.661603) can0 02800569#7FD97FDB7FA700F0
(1790979224.665019) can0 017FFF01#7FFF7FFF00000000
(1790979224.665188) can0 02800161#7FFF7F9C800B00F0
(1790979224.665325) can0 017FFF02#7FFF7FFF00000000
(1790979224.665520) can0 02800263#7FFE7F71801700F0
(1790979224.665657) can0 017FFF03#7FFF7FFF00000000
(1790979224.665873) can0 02800365#7FFF7FDA7FFE00E6
(1790979224.666010) can0 017FFF04#7FFF7FFF00000000
(1790979224.666234) can0 02800467#7FFF7FDB802800F0
(1790979224.666365) can0 017FFF05#7FD37FFF0F5C147B
(1790979224.666562) can0 02800569#7FD97FE97F6D00F0
(1790979224.670020) can0 017FFF01#7FFF7FFF00000000
(1790979224.670189) can0 02800161#7FFF801D7FF900F0
(1790979224.670324) can0 017FFF02#7FFF7FFF00000000
(1790979224.670524) can0 02800263#7FFE7FB17FF400F0
(1790979224.670661) can0 017FFF03#7FFF7FFF00000000
(1790979224.670875) can0 02800365#7FFF7FD77FE800E6
(1790979224.671012) can0 017FFF04#7FFF7FFF00000000
(1790979224.671237) can0 02800467#7FFF8013801C00F0
(1790979224.671368) can0 017FFF05#7FD37FFF0F5C147B
(1790979224.671603) can0 02800569#7FD980087F7A00F0
(1790979224.675031) can0 017FFF01#7FFF7FFF00000000
(1790979224.675229) can0 02800161#7FFF7FA57FF700F0
(1790979224.675365) can0 017FFF02#7FFF7FFF00000000
(1790979224.675524) can0 02800263#7FFE7F987FEE00F0
(1790979224.675666) can0 017FFF03#7FFF7FFF00000000
(1790979224.675876) can0 02800365#7FFF801F7FFC00E6
(1790979224.676013) can0 017FFF04#7FFF7FFF00000000
(1790979224.676235) can0 02800467#7FFF7FEE802F00F0
(1790979224.676366) can0 017FFF05#7FD27FFF0F5C147B
(1790979224.676565) can0 02800569#7FD97FC47F6C00F0
(1790979224.680025) can0 017FFF01#7FFF7FFF00000000
(1790979224.680184) can0 02800161#80007FF07FF200F0
(1790979224.680325) can0 017FFF02#7FFF7FFF00000000
(1790979224.680524) can0 02800263#7FFE8048800100F0
(1790979224.680659) can0 017FFF03#7FFF7FFF00000000
(1790979224.680875) can0 02800365#7FFF7FFD7FFB00E6
(1790979224.681012) can0 017FFF04#7FFF7FFF00000000
(1790979224.681234) can0 02800467#7FFF801A7FEE00F0
(1790979224.681365) can0 017FFF05#7FD17FFF0F5C147B
(1790979224.681604) can0 02800569#7FD980347F7C00F0
(1790979224.685030) can0 017FFF01#7FFF7FFF00000000
(1790979224.685183) can0 02800161#7FFF7FBC7FF200F0
(1790979224.685325) can0 017FFF02#7FFF7FFF00000000
(1790979224.685525) can0 02800263#7FFF803D7FF400F0
(1790979224.685662) can0 017FFF03#7FFF7FFF00000000
(1790979224.685873) can0 02800365#7FFF7FCE7FE500E6
(1790979224.686010) can0 017FFF04#7FFF7FFF00000000
(1790979224.686235) can0 02800467#7FFF8001800900F0
(1790979224.686366) can0 017FFF05#7FD17FFF0F5C147B
(1790979224.686605) can0 02800569#7FD87FD57F5400F0
(1790979224.690023) can0 017FFF01#7FFF7FFF00000000
(1790979224.690183) can0 02800161#800080AC7FFF00F0
(1790979224.690324) can0 017FFF02#7FFF7FFF00000000
(1790979224.690520) can0 02800263#7FFE7F99801600F0
(1790979224.690657) can0 017FFF03#7FFF7FFF00000000
(1790979224.690874) can0 02800365#7FFF804A7FFF00E6
(1790979224.691011) can0 017FFF04#7FFF7FFF00000000
(1790979224.691235) can0 02800467#7FFF7FFC801600F0
(1790979224.691366) can0 017FFF05#7FD07FFF0F5C147B
(1790979224.691605) can0 02800569#7FD880157F5800F0
(1790979224.695023) can0 017FFF01#7FFF7FFF00000000
(1790979224.695181) can0 02800161#800080227FE500F0
(1790979224.695322) can0 017FFF02#7FFF7FFF00000000
(1790979224.695522) can0 02800263#7FFE80937FFF00F0
(1790979224.695659) can0 017FFF03#7FFF7FFF00000000
(1790979224.695875) can0 02800365#7FFF7FA07FF500E6
(1790979224.696012) can0 017FFF04#7FFF7FFF00000000
(1790979224.696234) can0 02800467#7FFF7FD17FEB00F0
(1790979224.696366) can0 017FFF05#7FCF7FFF0F5C147B
(1790979224.696604) can0 02800569#7FD77FE87F4A00F0
(1790979224.700019) can0 017FFF01#7FFF7FFF00000000
(1790979224.700187) can0 02800161#800080667FF900F0
(1790979224.700323) can0 017FFF02#7FFF7FFF00000000
(1790979224.700525) can0 02800263#7FFE7F40801500F0
(1790979224.700660) can0 017FFF03#7FFF7FFF00000000
(1790979224.700875) can0 02800365#7FFF7FC0800D00E6
(1790979224.701012) can0 017FFF04#7FFF7FFF00000000
(1790979224.701234) can0 02800467#7FFF7FEE7FD700F0
(1790979224.701366) can0 017FFF05#7FCF7FFF0F5C147B
(1790979224.701604) can0 02800569#7FD77FC77F2400F0
(1790979224.705020) can0 017FFF01#7FFF7FFF00000000
(1790979224.705189) can0 02800161#8000800B800100F0
(1790979224.705325) can0 017FFF02#7FFF7FFF00000000
(1790979224.705524) can0 02800263#7FFE7F7F800E00F0
(1790979224.705660) can0 017FFF03#7FFF7FFF00000000
(1790979224.705877) can0 02800365#8000801F7FFC00E6
(1790979224.706015) can0 017FFF04#7FFF7FFF00000000
(1790979224.706235) can0 02800467#7FFF801B7FFF00F0
(1790979224.706367) can0 017FFF05#7FCE7FFF0F5C147B
(1790979224.706607) can0 02800569#7FD67FE87F5400F0
(1790979224.710020) can0 017FFF01#7FFF7FFF00000000
(1790979224.710189) can0 02800161#7FFF800E800800F0
(1790979224.710324) can0 017FFF02#7FFF7FFF00000000
(1790979224.710523) can0 02800263#7FFE7FC17FFD00F0
(1790979224.710659) can0 017FFF03#7FFF7FFF00000000
(1790979224.710877) can0 02800365#7FFF803E7FE800E6
(1790979224.711014) can0 017FFF04#7FFF7FFF00000000
(1790979224.711233) can0 02800467#7FFF7F477FD900F0
(1790979224.711364) can0 017FFF05#7FCD7FFF0F5C147B
(1790979224.711562) can0 02800569#7FD680147F6B00F0
(1790979224.715022) can0 017FFF01#7FFF7FFF00000000
(1790979224.715181) can0 02800161#7FFF8043800200F0
(1790979224.715322) can0 017FFF02#7FFF7FFF00000000
(1790979224.715520) can0 02800263#7FFE804B800000F0
(1790979224.715656) can0 017FFF03#7FFF7FFF00000000
(1790979224.715873) can0 02800365#80007FCE7FF200E6
(1790979224.716011) can0 017FFF04#7FFF7FFF00000000
(1790979224.716233) can0 02800467#7FFF802B801A00F0
(1790979224.716364) can0 017FFF05#7FCD7FFF0F5C147B
(1790979224.716564) can0 02800569#7FD57FE67F5200F0
(1790979224.720018) can0 017FFF01#7FFF7FFF00000000
(1790979224.720186) can0 02800161#80007FAD7FF300F0
(1790979224.720322) can0 017FFF02#7FFF7FFF00000000
(1790979224.720519) can0 02800263#7FFE80447FF900F0
(1790979224.720654) can0 017FFF03#7FFF7FFF00000000
(1790979224.720873) can0 02800365#7FFF7FCB7FEF00E6
(1790979224.721011) can0 017FFF04#7FFF7FFF00000000
(1790979224.721233) can0 02800467#7FFF801C801B00F0
(1790979224.721365) can0 017FFF05#7FCC7FFF0F5C147B
(1790979224.721603) can0 02800569#7FD47FCA7F6000F0
(1790979224.725019) can0 017FFF01#7FFF7FFF00000000
(1790979224.725187) can0 02800161#7FFF7F417FF500F0
(1790979224.725323) can0 017FFF02#7FFF7FFF00000000
(1790979224.725519) can0 02800263#7FFE80697FE600F0
(1790979224.725655) can0 017FFF03#7FFF7FFF00000000
(1790979224.725876) can0 02800365#7FFF80117FFB00E6
(1790979224.726014) can0 017FFF04#7FFF7FFF00000000
(1790979224.726234) can0 02800467#7FFF8040800300F0
(1790979224.726366) can0 017FFF05#7FCB7FFF0F5C147B
(1790979224.726606) can0 02800569#7FD37FBD7F8C00F0
(1790979224.730018) can0 017FFF01#7FFF7FFF00000000
(1790979224.730187) can0 02800161#80008031800200F0
(1790979224.730323) can0 017FFF02#7FFF7FFF00000000
(1790979224.730519) can0 02800263#7FFE7F7A800E00F0
(1790979224.730655) can0 017FFF03#7FFF7FFF00000000
(1790979224.730875) can0 02800365#7FFF80027FF800E6
(1790979224.731012) can0 017FFF04#7FFF7FFF00000000
(1790979224.731239) can0 02800467#7FFF80107FFF00F0
(1790979224.731371) can0 017FFF05#7FCB7FFF0F5C147B
(1790979224.731601) can0 02800569#7FD17F937FA900F0
(1790979224.735021) can0 017FFF01#7FFF7FFF00000000
(1790979224.735183) can0 02800161#7FFF801D7FFD00F0
(1790979224.735324) can0 017FFF02#7FFF7FFF00000000
(1790979224.735522) can0 02800263#7FFF7FF1801100F0
(1790979224.735658) can0 017FFF03#7FFF7FFF00000000
(1790979224.735874) can0 02800365#7FFF7FEE7FFD00E6
(1790979224.736011) can0 017FFF04#7FFF7FFF00000000
(1790979224.736233) can0 02800467#7FFF803A805E00F0
(1790979224.736364) can0 017FFF05#7FCC7FFF0F5C147B
(1790979224.736603) can0 02800569#7FCF7FB47FB900F0
(1790979224.740021) can0 017FFF01#7FFF7FFF00000000
(1790979224.740181) can0 02800161#7FFF8035800700F0
(1790979224.740322) can0 017FFF02#7FFF7FFF00000000
(1790979224.740525) can0 02800263#7FFE7FAE801400F0
(1790979224.740658) can0 017FFF03#7FFF7FFF00000000
(1790979224.740873) can0 02800365#7FFF7F77800300E6
(1790979224.741010) can0 017FFF04#7FFF7FFF00000000
(1790979224.741234) can0 02800467#7FFF7FB9800800F0
(1790979224.741366) can0 017FFF05#7FCC7FFF0F5C147B
(1790979224.741562) can0 02800569#7FCD7F777FB800F0
(1790979224.745021) can0 017FFF01#7FFF7FFF00000000
(1790979224.745182) can0 02800161#8000803B7FF800F0
(1790979224.745323) can0 017FFF02#7FFF7FFF00000000
(1790979224.745520) can0 02800263#7FFE80017FE500F0
(1790979224.745656) can0 017FFF03#7FFF7FFF00000000
(1790979224.745873) can0 02800365#7FFF7FCA800A00E6
(1790979224.746010) can0 017FFF04#7FFF7FFF00000000
(1790979224.746233) can0 02800467#7FFF7F997FCE00F0
(1790979224.746364) can0 017FFF05#7FCD7FFF0F5C147B
(1790979224.746561) can0 02800569#7FCC7F707FAF00F0
(1790979224.750019) can0 017FFF01#7FFF7FFF00000000
(1790979224.750188) can0 02800161#80007F88800600F0
(1790979224.750323) can0 017FFF02#7FFF7FFF00000000
(1790979224.750520) can0 02800263#7FFE7FA67FE800F0
(1790979224.750656) can0 017FFF03#7FFF7FFF00000000
(1790979224.750873) can0 02800365#7FFF802A7FF100E6
(1790979224.751010) can0 017FFF04#7FFF7FFF00000000
(1790979224.751235) can0 02800467#7FFF7FE87FEA00F0
(1790979224.751366) can0 017FFF05#7FCD7FFF0F5C147B
(1790979224.751563) can0 02800569#7FCB7FE87FA300F0
(1790979224.755018) can0 017FFF01#7FFF7FFF00000000
(1790979224.755187) can0 02800161#7FFF7F167FF200F0
(1790979224.755323) can0 017FFF02#7FFF7FFF00000000
(1790979224.755525) can0 02800263#7FFF810D800C00F0
(1790979224.755661) can0 017FFF03#7FFF7FFF00000000
(1790979224.755873) can0 02800365#7FFF7FDA7FFD00E6
(1790979224.756010) can0 017FFF04#7FFF7FFF00000000
(1790979224.756232) can0 02800467#7FFF8035800300F0
(1790979224.756364) can0 017FFF05#7FCE7FFF0F5C147B
(1790979224.756563) can0 02800569#7FCB7FEE7FA600F0
(1790979224.760017) can0 017FFF01#7FFF7FFF00000000
(1790979224.760188) can0 02800161#80008001800D00F0
(1790979224.760324) can0 017FFF02#7FFF7FFF00000000
(1790979224.760523) can0 02800263#7FFE806F7FFD00F0
(1790979224.760657) can0 017FFF03#7FFF7FFF00000000
(1790979224.760875) can0 02800365#7FFF801A800900E6
(1790979224.761012) can0 017FFF04#7FFF7FFF00000000
(1790979224.761235) can0 02800467#7FFF80207FF100F0
(1790979224.761367) can0 017FFF05#7FCF7FFF0F5C147B
(1790979224.761561) can0 02800569#7FCB7FF67FB500F0
(1790979224.765021) can0 017FFF01#7FFF7FFF00000000
(1790979224.765182) can0 02800161#80007FBC7FFF00F0
(1790979224.765324) can0 017FFF02#7FFF7FFF00000000
(1790979224.765523) can0 02800263#7FFF80557FF000F0
(1790979224.765659) can0 017FFF03#7FFF7FFF00000000
(1790979224.765874) can0 02800365#7FFF804B800C00E6
(1790979224.766011) can0 017FFF04#7FFF7FFF00000000
(1790979224.766235) can0 02800467#7FFF806E7FD400F0
(1790979224.766367) can0 017FFF05#7FCF7FFF0F5C147B
(1790979224.766561) can0 02800569#7FCB80347FF300F0
(1790979224.770023) can0 017FFF01#7FFF7FFF00000000
(1790979224.770181) can0 02800161#7FFF7F557FF900F0
(1790979224.770322) can0 017FFF02#7FFF7FFF00000000
(1790979224.770523) can0 02800263#7FFE8032800C00F0
(1790979224.770659) can0 017FFF03#7FFF7FFF00000000
(1790979224.770873) can0 02800365#7FFF80257FEE00E6
(1790979224.771010) can0 017FFF04#7FFF7FFF00000000
(1790979224.771236) can0 02800467#7FFF7FFC801F00F0
(1790979224.771367) can0 017FFF05#7FD07FFF0F5C147B
(1790979224.771562) can0 02800569#7FCB8041800A00F0
(1790979224.775019) can0 017FFF01#7FFF7FFF00000000
(1790979224.775187) can0 02800161#80007FEE7FF300F0
(1790979224.775323) can0 017FFF02#7FFF7FFF00000000
(1790979224.775523) can0 02800263#7FFE7FB3800C00F0
(1790979224.775659) can0 017FFF03#7FFF7FFF00000000
(1790979224.775875) can0 02800365#800080157FE800E6
(1790979224.776012) can0 017FFF04#7FFF7FFF00000000
(1790979224.776237) can0 02800467#7FFF8021801E00F0
(1790979224.776368) can0 017FFF05#7FD17FFF0F5C147B
(1790979224.776564) can0 02800569#7FCB803F7FFB00F0
(1790979224.780019) can0 017FFF01#7FFF7FFF00000000
(1790979224.780187) can0 02800161#7FFF7FBB800500F0
(1790979224.780322) can0 017FFF02#7FFF7FFF00000000
(1790979224.780525) can0 02800263#7FFF806B801000F0
(1790979224.780659) can0 017FFF03#7FFF7FFF00000000
(1790979224.780873) can0 02800365#7FFF7FB57FF300E6
(1790979224.781010) can0 017FFF04#7FFF7FFF00000000
(1790979224.781235) can0 02800467#7FFF7FFF801800F0
(1790979224.781366) can0 017FFF05#7FD17FFF0F5C147B
(1790979224.781563) can0 02800569#7FCB8027804400F0
(1790979224.785019) can0 017FFF01#7FFF7FFF00000000
(1790979224.785187) can0 02800161#7FFF7FCB7FFA00F0
(1790979224.785322) can0 017FFF02#7FFF7FFF00000000
(1790979224.785521) can0 02800263#7FFE7FFA800E00F0
(1790979224.785658) can0 017FFF03#7FFF7FFF00000000
(1790979224.785875) can0 02800365#8000807C800200E6
(1790979224.786012) can0 017FFF04#7FFF7FFF00000000
(1790979224.786233) can0 02800467#7FFF7FD9800300F0
(1790979224.786364) can0 017FFF05#7FD27FFF0F5C147B
(1790979224.786562) can0 02800569#7FCC801A805100F0
(1790979224.790020) can0 017FFF01#7FFF7FFF00000000
(1790979224.790188) can0 02800161#7FFF7FF1801600F0
(1790979224.790323) can0 017FFF02#7FFF7FFF00000000
(1790979224.790520) can0 02800263#7FFE7F90800300F0
(1790979224.790656) can0 017FFF03#7FFF7FFF00000000
(1790979224.790874) can0 02800365#7FFF8026801A00E6
(1790979224.791012) can0 017FFF04#7FFF7FFF00000000
(1790979224.791233) can0 02800467#7FFF8034800B00F0
(1790979224.791364) can0 017FFF05#7FD37FFF0F5C147B
(1790979224.791562) can0 02800569#7FCC801C806F00F0
(1790979224.795018) can0 017FFF01#7FFF7FFF00000000
(1790979224.795188) can0 02800161#7FFF80277FFF00F0
(1790979224.795324) can0 017FFF02#7FFF7FFF00000000
(1790979224.795521) can0 02800263#7FFE7F88800F00F0
(1790979224.795657) can0 017FFF03#7FFF7FFF00000000
(1790979224.795874) can0 02800365#7FFF801F802200E6
(1790979224.796012) can0 017FFF04#7FFF7FFF00000000
(1790979224.796233) can0 02800467#7FFF7FF5803700F0
(1790979224.796364) can0 017FFF05#7FD37FFF0F5C147B
(1790979224.796563) can0 02800569#7FCC7FF2807C00F0
(1790979224.800019) can0 017FFF01#7FFF7FFF00000000
(1790979224.800187) can0 02800161#80007FEE800100F0
(1790979224.800322) can0 017FFF02#7FFF7FFF00000000
(1790979224.800522) can0 02800263#7FFE7F9E800300F0
(1790979224.800655) can0 017FFF03#7FFF7FFF00000000
(1790979224.800873) can0 02800365#800080297FEC00E6
(1790979224.801011) can0 017FFF04#7FFF7FFF00000000
(1790979224.801237) can0 02800467#7FFF80087FE400F0
(1790979224.801368) can0 017FFF05#7FD47FFF0F5C147B
(1790979224.801560) can0 02800569#7FCD8024807600F0
(1790979224.805019) can0 017FFF01#7FFF7FFF00000000
(1790979224.805187) can0 02800161#800080017FF900F0
(1790979224.805323) can0 017FFF02#7FFF7FFF00000000
(1790979224.805521) can0 02800263#7FFE7F4A803000F0
(1790979224.805657) can0 017FFF03#7FFF7FFF00000000
(1790979224.805875) can0 02800365#7FFF7FB07FFF00E6
(1790979224.806012) can0 017FFF04#7FFF7FFF00000000
(1790979224.806234) can0 02800467#7FFF7FEF803900F0
(1790979224.806367) can0 017FFF05#7FD57FFF0F5C147B
(1790979224.806565) can0 02800569#7FCD8001809C00F0
(1790979224.810022) can0 017FFF01#7FFF7FFF00000000
(1790979224.810182) can0 02800161#8000801A7FFE00F0
(1790979224.810323) can0 017FFF02#7FFF7FFF00000000
(1790979224.810521) can0 02800263#7FFF8007800300F0
(1790979224.810657) can0 017FFF03#7FFF7FFF00000000
(1790979224.810873) can0 02800365#7FFF8014800500E6
(1790979224.811010) can0 017FFF04#7FFF7FFF00000000
(1790979224.811234) can0 02800467#7FFF7FFD804F00F0
(1790979224.811366) can0 017FFF05#7FD57FFF0F5C147B
(1790979224.811561) can0 02800569#7FCD7FD180B600F0
(1790979224.815021) can0 017FFF01#7FFF7FFF00000000
(1790979224.815181) can0 02800161#7FFF800E7FF900F0
(1790979224.815322) can0 017FFF02#7FFF7FFF00000000
(1790979224.815522) can0 02800263#7FFF80327FF800F0
(1790979224.815658) can0 017FFF03#7FFF7FFF00000000
(1790979224.815873) can0 02800365#80008009800B00E6
(1790979224.816010) can0 017FFF04#7FFF7FFF00000000
(1790979224.816234) can0 02800467#7FFE7FD3802400F0
(1790979224.816365) can0 017FFF05#7FD67FFF0F5C147B
(1790979224.816563) can0 02800569#7FCD7FFB80C200F0
(1790979224.820019) can0 017FFF01#7FFF7FFF00000000
(1790979224.820187) can0 02800161#80007FDA7FFF00F0
(1790979224.820323) can0 017FFF02#7FFF7FFF00000000
(1790979224.820523) can0 02800263#7FFE7FF4800900F0
(1790979224.820657) can0 017FFF03#7FFF7FFF00000000
(1790979224.820874) can0 02800365#80007FE4801900E6
(1790979224.821011) can0 017FFF04#7FFF7FFF00000000
(1790979224.821232) can0 02800467#7FFF8025803000F0
(1790979224.821363) can0 017FFF05#7FD77FFF0F5C147B
(1790979224.821562) can0 02800569#7FCD7FEF80E000F0
(1790979224.825019) can0 017FFF01#7FFF7FFF00000000
(1790979224.825187) can0 02800161#8000803A800000F0
(1790979224.825323) can0 017FFF02#7FFF7FFF00000000
(1790979224.825522) can0 02800263#7FFF807D800E00F0
(1790979224.825658) can0 017FFF03#7FFF7FFF00000000
(1790979224.825875) can0 02800365#800080107FFD00E6
(1790979224.826012) can0 017FFF04#7FFF7FFF00000000
(1790979224.826230) can0 02800467#7FFF80937FD100F0
(1790979224.826361) can0 017FFF05#7FD77FFF0F5C147B
(1790979224.826559) can0 02800569#7FCD7FFA80D700F0
(1790979224.830020) can0 017FFF01#7FFF7FFF00000000
(1790979224.830180) can0 02800161#7FFF7FF7800300F0
(1790979224.830322) can0 017FFF02#7FFF7FFF00000000
(1790979224.830521) can0 02800263#7FFE80017FF000F0
(1790979224.830657) can0 017FFF03#7FFF7FFF00000000
(1790979224.830875) can0 02800365#7FFF7FF5800400E6
(1790979224.831012) can0 017FFF04#7FFF7FFF00000000
(1790979224.831235) can0 02800467#7FFF802D7FBE00F0
(1790979224.831367) can0 017FFF05#7FD87FFF0F5C147B
(1790979224.831563) can0 02800569#7FCD7FE180DA00F0
(1790979224.835018) can0 017FFF01#7FFF7FFF00000000
(1790979224.835187) can0 02800161#7FFF80147FFF00F0
(1790979224.835323) can0 017FFF02#7FFF7FFF00000000
(1790979224.835520) can0 02800263#7FFF7FEF7FFE00F0
(1790979224.835657) can0 017FFF03#7FFF7FFF00000000
(1790979224.835872) can0 02800365#7FFF7FD8801A00E6
(1790979224.836009) can0 017FFF04#7FFF7FFF00000000
(1790979224.836234) can0 02800467#7FFF7FE9800500F0
(1790979224.836365) can0 017FFF05#7FD97FFF0F5C147B
(1790979224.836562) can0 02800569#7FCE804280DB00F0
(1790979224.840018) can0 017FFF01#7FFF7FFF00000000
(1790979224.840179) can0 02800161#7FFF7FDA800300F0
(1790979224.840321) can0 017FFF02#7FFF7FFF00000000
(1790979224.840518) can0 02800263#7FFE803D7FEB00F0
(1790979224.840653) can0 017FFF03#7FFF7FFF00000000
(1790979224.840872) can0 02800365#7FFF7FC7801100E6
(1790979224.841009) can0 017FFF04#7FFF7FFF00000000
(1790979224.841231) can0 02800467#7FFF80327FA100F0
(1790979224.841363) can0 017FFF05#7FD97FFF0F5C147B
(1790979224.841565) can0 02800569#7FCF803A80DC00F0
(1790979224.845017) can0 017FFF01#7FFF7FFF00000000
(1790979224.845186) can0 02800161#7FFF80397FFA00F0
(1790979224.845322) can0 017FFF02#7FFF7FFF00000000
(1790979224.845521) can0 02800263#7FFE7FB07FF500F0
(1790979224.845657) can0 017FFF03#7FFF7FFF00000000
(1790979224.845873) can0 02800365#7FFF7FD37FFA00E6
(1790979224.846010) can0 017FFF04#7FFF7FFF00000000
(1790979224.846235) can0 02800467#7FFF7FE5801C00F0
(1790979224.846366) can0 017FFF05#7FDA7FFF0F5C147B
(1790979224.846563) can0 02800569#7FCF7FEF80DE00F0
(1790979224.850018) can0 017FFF01#7FFF7FFF00000000
(1790979224.850187) can0 02800161#7FFF7F837FFD00F0
(1790979224.850324) can0 017FFF02#7FFF7FFF00000000
(1790979224.850520) can0 02800263#7FFE80987FEB00F0
(1790979224.850656) can0 017FFF03#7FFF7FFF00000000
(1790979224.850873) can0 02800365#8000802B7FF000E6
(1790979224.851010) can0 017FFF04#7FFF7FFF00000000
(1790979224.851237) can0 02800467#7FFF7FE4801E00F0
(1790979224.851369) can0 017FFF05#7FDB7FFF0F5C147B
(1790979224.851563) can0 02800569#7FCF8026810200F0
(1790979224.855018) can0 017FFF01#7FFF7FFF00000000
(1790979224.855186) can0 02800161#7FFF7F337FF100F0
(1790979224.855321) can0 017FFF02#7FFF7FFF00000000
(1790979224.855519) can0 02800263#7FFE80077FDF00F0
(1790979224.855656) can0 017FFF03#7FFF7FFF00000000
(1790979224.855873) can0 02800365#7FFF7FC27FF300E6
(1790979224.856010) can0 017FFF04#7FFF7FFF00000000
(1790979224.856233) can0 02800467#7FFF8034800700F0
(1790979224.856364) can0 017FFF05#7FDB7FFF0F5C147B
(1790979224.856557) can0 02800569#7FCF7FDE811700F0
(1790979224.860016) can0 017FFF01#7FFF7FFF00000000
(1790979224.860186) can0 02800161#7FFF7F387FF700F0
(1790979224.860322) can0 017FFF02#7FFF7FFF00000000
(1790979224.860524) can0 02800263#7FFE7F957FFE00F0
(1790979224.860657) can0 017FFF03#7FFF7FFF00000000
(1790979224.860875) can0 02800365#80008017800500E6
(1790979224.861012) can0 017FFF04#7FFF7FFF00000000
(1790979224.861232) can0 02800467#7FFF802C804000F0
(1790979224.861363) can0 017FFF05#7FDC7FFF0F5C147B
(1790979224.861561) can0 02800569#7FCF7FC1812A00F0
(1790979224.865017) can0 017FFF01#7FFF7FFF00000000
(1790979224.865185) can0 02800161#7FFF800C7FF700F0
(1790979224.865321) can0 017FFF02#7FFF7FFF00000000
(1790979224.865518) can0 02800263#7FFE7FBC7FEA00F0
(1790979224.865655) can0 017FFF03#7FFF7FFF00000000
(1790979224.865874) can0 02800365#7FFF7FC0800600E6
(1790979224.866011) can0 017FFF04#7FFF7FFF00000000
(1790979224.866231) can0 02800467#7FFF7FCF7FC200F0
(1790979224.866362) can0 017FFF05#7FDC7FFF0F5C147B
(1790979224.866561) can0 02800569#7FD07FF2812500F0
(1790979224.870018) can0 017FFF01#7FFF7FFF00000000
(1790979224.870186) can0 02800161#7FFF7F0F800E00F0
(1790979224.870322) can0 017FFF02#7FFF7FFF00000000
(1790979224.870518) can0 02800263#7FFE7FDC7FEF00F0
(1790979224.870655) can0 017FFF03#7FFF7FFF00000000
(1790979224.870873) can0 02800365#7FFF7FC8802A00E6
(1790979224.871010) can0 017FFF04#7FFF7FFF00000000
(1790979224.871233) can0 02800467#7FFF800C7FFD00F0
(1790979224.871364) can0 017FFF05#7FDD7FFF0F5C147B
(1790979224.871562) can0 02800569#7FD18021810F00F0
(1790979224.875019) can0 017FFF01#7FFF7FFF00000000
(1790979224.875187) can0 02800161#800080B07FF600F0
(1790979224.875323) can0 017FFF02#7FFF7FFF00000000
(1790979224.875520) can0 02800263#7FFE8063801100F0
(1790979224.875657) can0 017FFF03#7FFF7FFF00000000
(1790979224.875875) can0 02800365#7FFF801C7FEF00E6
(1790979224.876012) can0 017FFF04#7FFF7FFF00000000
(1790979224.876232) can0 02800467#7FFF800A800500F0
(1790979224.876363) can0 017FFF05#7FDE7FFF0F5C147B
(1790979224.876563) can0 02800569#7FD08010812000F0
(1790979224.880017) can0 017FFF01#7FFF7FFF00000000
(1790979224.880186) can0 02800161#7FFF7FF37FF600F0
(1790979224.880322) can0 017FFF02#7FFF7FFF00000000
(1790979224.880519) can0 02800263#7FFE80E9800600F0
(1790979224.880654) can0 017FFF03#7FFF7FFF00000000
(1790979224.880874) can0 02800365#7FFF7FE8800300E6
(1790979224.881012) can0 017FFF04#7FFF7FFF00000000
(1790979224.881233) can0 02800467#7FFF8001806000F0
(1790979224.881364) can0 017FFF05#7FDE7FFF0F5C147B
(1790979224.881561) can0 02800569#7FD18022813900F0
(1790979224.885017) can0 017FFF01#7FFF7FFF00000000
(1790979224.885179) can0 02800161#7FFF802D800100F0
(1790979224.885320) can0 017FFF02#7FFF7FFF00000000
(1790979224.885519) can0 02800263#7FFE7FBB800C00F0
(1790979224.885655) can0 017FFF03#7FFF7FFF00000000
(1790979224.885872) can0 02800365#7FFF7F967FF600E6
(1790979224.886010) can0 017FFF04#7FFF7FFF00000000
(1790979224.886234) can0 02800467#7FFF800C800D00F0
(1790979224.886367) can0 017FFF05#7FDF7FFF0F5C147B
(1790979224.886562) can0 02800569#7FD17FF7814800F0
(1790979224.890017) can0 017FFF01#7FFF7FFF00000000
(1790979224.890185) can0 02800161#7FFF7F7A7FFA00F0
(1790979224.890320) can0 017FFF02#7FFF7FFF00000000
(1790979224.890518) can0 02800263#7FFE80857FFD00F0
(1790979224.890654) can0 017FFF03#7FFF7FFF00000000
(1790979224.890875) can0 02800365#7FFF7FE1800500E6
(1790979224.891012) can0 017FFF04#7FFF7FFF00000000
(1790979224.891233) can0 02800467#7FFF7FC5801000F0
(1790979224.891367) can0 017FFF05#7FE07FFF0F5C147B
(1790979224.891561) can0 02800569#7FD28028812200F0
(1790979224.895018) can0 017FFF01#7FFF7FFF00000000
(1790979224.895186) can0 02800161#7FFF800D7FEE00F0
(1790979224.895321) can0 017FFF02#7FFF7FFF00000000
(1790979224.895521) can0 02800263#7FFE8045800400F0
(1790979224.895657) can0 017FFF03#7FFF7FFF00000000
(1790979224.895872) can0 02800365#80007FB8800100E6
(1790979224.896009) can0 017FFF04#7FFF7FFF00000000
(1790979224.896231) can0 02800467#7FFF7FFF802500F0
(1790979224.896365) can0 017FFF05#7FE07FFF0F5C147B
(1790979224.896562) can0 02800569#7FD28069816000F0
(1790979224.900017) can0 017FFF01#7FFF7FFF00000000
(1790979224.900187) can0 02800161#8000801E800000F0
(1790979224.900323) can0 017FFF02#7FFF7FFF00000000
(1790979224.900522) can0 02800263#7FFE8084801200F0
(1790979224.900655) can0 017FFF03#7FFF7FFF00000000
(1790979224.900873) can0 02800365#7FFF7F98800B00E6
(1790979224.901010) can0 017FFF04#7FFF7FFF00000000
(1790979224.901230) can0 02800467#7FFF7FC97FD300F0
(1790979224.901364) can0 017FFF05#7FE17FFF0F5C147B
(1790979224.901562) can0 02800569#7FD3803A813300F0
(1790979224.905018) can0 017FFF01#7FFF7FFF00000000
(1790979224.905179) can0 02800161#7FFF7FAA7FFB00F0
(1790979224.905320) can0 017FFF02#7FFF7FFF00000000
(1790979224.905518) can0 02800263#7FFE807F800500F0
(1790979224.905654) can0 017FFF03#7FFF7FFF00000000
(1790979224.905873) can0 02800365#7FFF80367FE000E6
(1790979224.906010) can0 017FFF04#7FFF7FFF00000000
(1790979224.906234) can0 02800467#7FFF7FF17FEF00F0
(1790979224.906366) can0 017FFF05#7FE27FFF0F5C147B
(1790979224.906560) can0 02800569#7FD38023812800F0
(1790979224.910017) can0 017FFF01#7FFF7FFF00000000
(1790979224.910186) can0 02800161#7FFF7FBD7FFD00F0
(1790979224.910322) can0 017FFF02#7FFF7FFF00000000
(1790979224.910519) can0 02800263#7FFE805A801600F0
(1790979224.910655) can0 017FFF03#7FFF7FFF00000000
(1790979224.910874) can0 02800365#7FFF7FFF7FFA00E6
(1790979224.911011) can0 017FFF04#7FFF7FFF00000000
(1790979224.911233) can0 02800467#7FFF7FE1801200F0
(1790979224.911366) can0 017FFF05#7FE27FFF0F5C147B
(1790979224.911560) can0 02800569#7FD580AC80EE00F0
(1790979224.915017) can0 017FFF01#7FFF7FFF00000000
(1790979224.915186) can0 02800161#800080C67FFF00F0
(1790979224.915322) can0 017FFF02#7FFF7FFF00000000
(1790979224.915520) can0 02800263#7FFE7FA67FF300F0
(1790979224.915656) can0 017FFF03#7FFF7FFF00000000
(1790979224.915875) can0 02800365#7FFF7FF17FF800E6
(1790979224.916012) can0 017FFF04#7FFF7FFF00000000
(1790979224.916233) can0 02800467#7FFF7FE87FED00F0
(1790979224.916365) can0 017FFF05#7FE37FFF0F5C147B
(1790979224.916565) can0 02800569#7FD58078810400F0
(1790979224.920017) can0 017FFF01#7FFF7FFF00000000
(1790979224.920185) can0 02800161#7FFF7FB77FFA00F0
(1790979224.920321) can0 017FFF02#7FFF7FFF00000000
(1790979224.920519) can0 02800263#7FFE80637FDF00F0
(1790979224.920654) can0 017FFF03#7FFF7FFF00000000
(1790979224.920874) can0 02800365#7FFF804F7FF000E6
(1790979224.921011) can0 017FFF04#7FFF7FFF00000000
(1790979224.921233) can0 02800467#7FFF80467FE100F0
(1790979224.921366) can0 017FFF05#7FE47FFF0F5C147B
(1790979224.921562) can0 02800569#7FD7807A80E400F0
(1790979224.925017) can0 017FFF01#7FFF7FFF00000000
(1790979224.925186) can0 02800161#7FFF8037800A00F0
(1790979224.925322) can0 017FFF02#7FFF7FFF00000000
(1790979224.925521) can0 02800263#7FFE8008801A00F0
(1790979224.925657) can0 017FFF03#7FFF7FFF00000000
(1790979224.925872) can0 02800365#80008086801100E6
(1790979224.926009) can0 017FFF04#7FFF7FFF00000000
(1790979224.926232) can0 02800467#7FFF7FF57FF900F0
(1790979224.926366) can0 017FFF05#7FE47FFF0F5C147B
(1790979224.926560) can0 02800569#7FD8805780E500F0
(1790979224.930018) can0 017FFF01#7FFF7FFF00000000
(1790979224.930188) can0 02800161#7FFF80057FFC00F0
(1790979224.930324) can0 017FFF02#7FFF7FFF00000000
(1790979224.930523) can0 02800263#7FFE7F867FFC00F0
(1790979224.930659) can0 017FFF03#7FFF7FFF00000000
(1790979224.930875) can0 02800365#80007FFB800400E6
(1790979224.931012) can0 017FFF04#7FFF7FFF00000000
(1790979224.931232) can0 02800467#7FFF80187FDE00F0
(1790979224.931363) can0 017FFF05#7FE57FFF0F5C147B
(1790979224.931561) can0 02800569#7FDA805C812200F0
(1790979224.935017) can0 017FFF01#7FFF7FFF00000000
(1790979224.935186) can0 02800161#7FFF8027800500F0
(1790979224.935321) can0 017FFF02#7FFF7FFF00000000
(1790979224.935517) can0 02800263#7FFE7FB27FF300F0
(1790979224.935653) can0 017FFF03#7FFF7FFF00000000
(1790979224.935872) can0 02800365#7FFF8031801200E6
(1790979224.936009) can0 017FFF04#7FFF7FFF00000000
(1790979224.936233) can0 02800467#7FFF7FCF800F00F0
(1790979224.936365) can0 017FFF05#7FE67FFF0F5C147B
(1790979224.936563) can0 02800569#7FDA804E812C00F0
(1790979224.940015) can0 017FFF01#7FFF7FFF00000000
(1790979224.940186) can0 02800161#80007FB87FF500F0
(1790979224.940322) can0 017FFF02#7FFF7FFF00000000
(1790979224.940524) can0 02800263#7FFE7F88800C00F0
(1790979224.940658) can0 017FFF03#7FFF7FFF00000000
(1790979224.940872) can0 02800365#7FFF7FC57FEB00E6
(1790979224.941009) can0 017FFF04#7FFF7FFF00000000
(1790979224.941232) can0 02800467#7FFF7FB87FE200F0
(1790979224.941364) can0 017FFF05#7FE67FFF0F5C147B
(1790979224.941563) can0 02800569#7FDA7FFB814400F0
(1790979224.945017) can0 017FFF01#7FFF7FFF00000000
(1790979224.945186) can0 02800161#7FFF802A7FFC00F0
(1790979224.945323) can0 017FFF02#7FFF7FFF00000000
(1790979224.945519) can0 02800263#7FFE7FCC800B00F0
(1790979224.945655) can0 017FFF03#7FFF7FFF00000000
(1790979224.945877) can0 02800365#80007FF07FFE00E6
(1790979224.946014) can0 017FFF04#7FFF7FFF00000000
(1790979224.946232) can0 02800467#7FFF7FCD7FC300F0
(1790979224.946365) can0 017FFF05#7FE77FFF0F5C147B
(1790979224.946559) can0 02800569#7FDB802A816F00F0
(1790979224.950018) can0 017FFF01#7FFF7FFF00000000
(1790979224.950178) can0 02800161#7FFF7F927FFB00F0
(1790979224.950320) can0 017FFF02#7FFF7FFF00000000
(1790979224.950518) can0 02800263#7FFE7F87803C00F0
(1790979224.950654) can0 017FFF03#7FFF7FFF00000000
(1790979224.950874) can0 02800365#7FFF80057FF100E6
(1790979224.951011) can0 017FFF04#7FFF7FFF00000000
(1790979224.951233) can0 02800467#7FFF7FFF7FEA00F0
(1790979224.951366) can0 017FFF05#7FE87FFF0F5C147B
(1790979224.951559) can0 02800569#7FDA7FCA818E00F0
(1790979224.955018) can0 017FFF01#7FFF7FFF00000000
(1790979224.955187) can0 02800161#7FFF807B7FFF00F0
(1790979224.955322) can0 017FFF02#7FFF7FFF00000000
(1790979224.955521) can0 02800263#7FFE7FB77FFF00F0
(1790979224.955657) can0 017FFF03#7FFF7FFF00000000
(1790979224.955873) can0 02800365#7FFF7FF3800E00E6
(1790979224.956010) can0 017FFF04#7FFF7FFF00000000
(1790979224.956231) can0 02800467#7FFF7FD7803600F0
(1790979224.956364) can0 017FFF05#7FE87FFF0F5C147B
(1790979224.956562) can0 02800569#7FDA7FD5814D00F0
(1790979224.960017) can0 017FFF01#7FFF7FFF00000000
(1790979224.960186) can0 02800161#7FFF7FC1800000F0
(1790979224.960322) can0 017FFF02#7FFF7FFF00000000
(1790979224.960522) can0 02800263#7FFE801A800500F0
(1790979224.960656) can0 017FFF03#7FFF7FFF00000000
(1790979224.960873) can0 02800365#7FFF802F7FEF00E6
(1790979224.961010) can0 017FFF04#7FFF7FFF00000000
(1790979224.961231) can0 02800467#7FFF7FE27FC900F0
(1790979224.961363) can0 017FFF05#7FE97FFF0F5C147B
(1790979224.961560) can0 02800569#7FDB8026818100F0
(1790979224.965018) can0 017FFF01#7FFF7FFF00000000
(1790979224.965186) can0 02800161#80007FE47FFF00F0
(1790979224.965322) can0 017FFF02#7FFF7FFF00000000
(1790979224.965519) can0 02800263#7FFE7FD9800E00F0
(1790979224.965656) can0 017FFF03#7FFF7FFF00000000
(1790979224.965873) can0 02800365#800080757FFE00E6
(1790979224.966010) can0 017FFF04#7FFF7FFF00000000
(1790979224.966235) can0 02800467#7FFF7FAF802400F0
(1790979224.966367) can0 017FFF05#7FE97FFF0F5C147B
(1790979224.966561) can0 02800569#7FDB7FF4818800F0
(1790979224.970018) can0 017FFF01#7FFF7FFF00000000
(1790979224.970178) can0 02800161#8000804E7FF700F0
(1790979224.970319) can0 017FFF02#7FFF7FFF00000000
(1790979224.970515) can0 02800263#7FFE7FB57FE600F0
(1790979224.970652) can0 017FFF03#7FFF7FFF00000000
(1790979224.970873) can0 02800365#7FFF80427FEE00E6
(1790979224.971010) can0 017FFF04#7FFF7FFF00000000
(1790979224.971233) can0 02800467#7FFF80167FDF00F0
(1790979224.971365) can0 017FFF05#7FEA7FFF0F5C147B
(1790979224.971560) can0 02800569#7FDA7FAE813200F0
(1790979224.975018) can0 017FFF01#7FFF7FFF00000000
(1790979224.975179) can0 02800161#7FFF8025801A00F0
(1790979224.975320) can0 017FFF02#7FFF7FFF00000000
(1790979224.975517) can0 02800263#7FFE80487FCF00F0
(1790979224.975653) can0 017FFF03#7FFF7FFF00000000
(1790979224.975871) can0 02800365#80007FDE800500E6
(1790979224.976009) can0 017FFF04#7FFF7FFF00000000
(1790979224.976232) can0 02800467#7FFF804C7FEA00F0
(1790979224.976364) can0 017FFF05#7FEB7FFF0F5C147B
(1790979224.976564) can0 02800569#7FDA7FD4815400F0
(1790979224.980018) can0 017FFF01#7FFF7FFF00000000
(1790979224.980186) can0 02800161#800080727FF800F0
(1790979224.980322) can0 017FFF02#7FFF7FFF00000000
(1790979224.980524) can0 02800263#7FFE7FCD7FE700F0
(1790979224.980658) can0 017FFF03#7FFF7FFF00000000
(1790979224.980873) can0 02800365#7FFF802F7FF700E6
(1790979224.981011) can0 017FFF04#7FFF7FFF00000000
(1790979224.981235) can0 02800467#7FFF80057FFF00F0
(1790979224.981367) can0 017FFF05#7FEB7FFF0F5C147B
(1790979224.981561) can0 02800569#7FDB802A817D00F0
(1790979224.985016) can0 017FFF01#7FFF7FFF00000000
(1790979224.985185) can0 02800161#800080287FFB00F0
(1790979224.985320) can0 017FFF02#7FFF7FFF00000000
(1790979224.985519) can0 02800263#7FFE7FED7FFF00F0
(1790979224.985655) can0 017FFF03#7FFF7FFF00000000
(1790979224.985872) can0 02800365#7FFF7FC87FE900E6
(1790979224.986010) can0 017FFF04#7FFF7FFF00000000
(1790979224.986236) can0 02800467#7FFF801F7FD400F0
(1790979224.986369) can0 017FFF05#7FEC7FFF0F5C147B
(1790979224.986560) can0 02800569#7FDB8037817700F0
(1790979224.990017) can0 017FFF01#7FFF7FFF00000000
(1790979224.990187) can0 02800161#80008015800400F0
(1790979224.990323) can0 017FFF02#7FFF7FFF00000000
(1790979224.990522) can0 02800263#7FFE80247FFC00F0
(1790979224.990658) can0 017FFF03#7FFF7FFF00000000
(1790979224.990874) can0 02800365#800080937FFC00E6
(1790979224.991012) can0 017FFF04#7FFF7FFF00000000
(1790979224.991232) can0 02800467#7FFF8028800B00F0
(1790979224.991365) can0 017FFF05#7FED7FFF0F5C147B
(1790979224.991562) can0 02800569#7FDB8008819200F0
(1790979224.995019) can0 017FFF01#7FFF7FFF00000000
(1790979224.995180) can0 02800161#7FFF7F89800200F0
(1790979224.995321) can0 017FFF02#7FFF7FFF00000000
(1790979224.995517) can0 02800263#7FFE7F97800700F0
(1790979224.995653) can0 017FFF03#7FFF7FFF00000000
(1790979224.995872) can0 02800365#8000801A800A00E6
(1790979224.996010) can0 017FFF04#7FFF7FFF00000000
(1790979224.996234) can0 02800467#7FFF8006803000F0
(1790979224.996367) can0 017FFF05#7FED7FFF0F5C147B
(1790979224.996559) can0 02800569#7FDC8055819D00F0
(1790979225.000017) can0 017FFF01#7FFF7FFF00000000
(1790979225.000185) can0 02800161#7FFF7F6B7FF900F0
(1790979225.000320) can0 017FFF02#7FFF7FFF00000000
(1790979225.000522) can0 02800263#7FFE7FC9800200F0
(1790979225.000655) can0 017FFF03#7FFF7FFF00000000
(1790979225.000874) can0 02800365#7FFF7FA07FF900E6
(1790979225.001012) can0 017FFF04#7FFF7FFF00000000
(1790979225.001232) can0 02800467#7FFF7F9D7FF300F0
(1790979225.001364) can0 017FFF05#7FEE7FFF0F5C147B
(1790979225.001559) can0 02800569#7FDB802781C200F0
(1790979225.005018) can0 017FFF01#7FFF7FFF00000000
(1790979225.005186) can0 02800161#8000804B7FF900F0
(1790979225.005321) can0 017FFF02#7FFF7FFF00000000
(1790979225.005520) can0 02800263#7FFE80107FFB00F0
(1790979225.005656) can0 017FFF03#7FFF7FFF00000000
(1790979225.005872) can0 02800365#7FFF7FD9800A00E6
(1790979225.006010) can0 017FFF04#7FFF7FFF00000000
(1790979225.006231) can0 02800467#7FFF7FD7803500F0
(1790979225.006364) can0 017FFF05#7FEF7FFF0F5C147B
(1790979225.006559) can0 02800569#7FDC7FD781A100F0
(1790979225.010019) can0 017FFF01#7FFF7FFF00000000
(1790979225.010179) can0 02800161#7FFF7F3B801000F0
(1790979225.010320) can0 017FFF02#7FFF7FFF00000000
(1790979225.010515) can0 02800263#7FFE80687FDA00F0
(1790979225.010651) can0 017FFF03#7FFF7FFF00000000
(1790979225.010873) can0 02800365#7FFF7FE07FF600E6
(1790979225.011011) can0 017FFF04#7FFF7FFF00000000
(1790979225.011233) can0 02800467#7FFF80667FD800F0
(1790979225.011366) can0 017FFF05#7FEF7FFF0F5C147B
(1790979225.011560) can0 02800569#7FDC803281B500F0
(1790979225.015018) can0 017FFF01#7FFF7FFF00000000
(1790979225.015179) can0 02800161#7FFF8065800E00F0
(1790979225.015320) can0 017FFF02#7FFF7FFF00000000
(1790979225.015517) can0 02800263#7FFE7FCC7FF300F0
(1790979225.015653) can0 017FFF03#7FFF7FFF00000000
(1790979225.015873) can0 02800365#7FFF7FDD7FE000E6
(1790979225.016011) can0 017FFF04#7FFF7FFF00000000
(1790979225.016229) can0 02800467#7FFE7FD97FD700F0
(1790979225.016360) can0 017FFF05#7FF07FFF0F5C147B
(1790979225.016558) can0 02800569#7FDD8019819900F0
(1790979225.020016) can0 017FFF01#7FFF7FFF00000000
(1790979225.020186) can0 02800161#7FFF7FF9801000F0
(1790979225.020322) can0 017FFF02#7FFF7FFF00000000
(1790979225.020524) can0 02800263#7FFE80C5800800F0
(1790979225.020658) can0 017FFF03#7FFF7FFF00000000
(1790979225.020874) can0 02800365#7FFF7FD67FF400E6
(1790979225.021011) can0 017FFF04#7FFF7FFF00000000
(1790979225.021231) can0 02800467#7FFF7FF77FCA00F0
(1790979225.021365) can0 017FFF05#7FF17FFF0F5C147B
(1790979225.021562) can0 02800569#7FDD806481C100F0
(1790979225.025018) can0 017FFF01#7FFF7FFF00000000
(1790979225.025186) can0 02800161#7FFF7F7C800100F0
(1790979225.025322) can0 017FFF02#7FFF7FFF00000000
(1790979225.025519) can0 02800263#7FFE7F697FF800F0
(1790979225.025655) can0 017FFF03#7FFF7FFF00000000
(1790979225.025872) can0 02800365#7FFF7FB27FF600E6
(1790979225.026009) can0 017FFF04#7FFF7FFF00000000
(1790979225.026230) can0 02800467#7FFF80197FC700F0
(1790979225.026364) can0 017FFF05#7FF17FFF0F5C147B
(1790979225.026561) can0 02800569#7FDE804181A500F0
(1790979225.030018) can0 017FFF01#7FFF7FFF00000000
(1790979225.030186) can0 02800161#80007FC2800C00F0
(1790979225.030322) can0 017FFF02#7FFF7FFF00000000
(1790979225.030521) can0 02800263#7FFE806A801F00F0
(1790979225.030658) can0 017FFF03#7FFF7FFF00000000
(1790979225.030871) can0 02800365#7FFF7FD3800600E6
(1790979225.031009) can0 017FFF04#7FFF7FFF00000000
(1790979225.031232) can0 02800467#7FFF80187FE600F0
(1790979225.031365) can0 017FFF05#7FF27FFF0F5C147B
(1790979225.031560) can0 02800569#7FDE805881EA00F0
(1790979225.035019) can0 017FFF01#7FFF7FFF00000000
(1790979225.035179) can0 02800161#7FFF7F91800600F0
(1790979225.035321) can0 017FFF02#7FFF7FFF00000000
(1790979225.035520) can0 02800263#7FFE7F9F800400F0
(1790979225.035657) can0 017FFF03#7FFF7FFF00000000
(1790979225.035874) can0 02800365#80008012800400E6
(1790979225.036012) can0 017FFF04#7FFF7FFF00000000
(1790979225.036231) can0 02800467#7FFF805A801900F0
(1790979225.036363) can0 017FFF05#7FF37FFF0F5C147B
(1790979225.036561) can0 02800569#7FDF7FFE81C200F0
(1790979225.040017) can0 017FFF01#7FFF7FFF00000000
(1790979225.040178) can0 02800161#7FFF7FD27FFE00F0
(1790979225.040319) can0 017FFF02#7FFF7FFF00000000
(1790979225.040516) can0 02800263#7FFE7FC8801700F0
(1790979225.040652) can0 017FFF03#7FFF7FFF00000000
(1790979225.040872) can0 02800365#7FFF80067FFD00E6
(1790979225.041009) can0 017FFF04#7FFF7FFF00000000
(1790979225.041232) can0 02800467#7FFF80047FE300F0
(1790979225.041364) can0 017FFF05#7FF37FFF0F5C147B
(1790979225.041564) can0 02800569#7FE0803881DC00F0
(1790979225.045018) can0 017FFF01#7FFF7FFF00000000
(1790979225.045179) can0 02800161#7FFF809E800100F0
(1790979225.045320) can0 017FFF02#7FFF7FFF00000000
(1790979225.045520) can0 02800263#7FFE7FE1800000F0
(1790979225.045656) can0 017FFF03#7FFF7FFF00000000
(1790979225.045871) can0 02800365#80008021800900E6
(1790979225.046008) can0 017FFF04#7FFF7FFF00000000
(1790979225.046230) can0 02800467#7FFF802E800600F0
(1790979225.046362) can0 017FFF05#7FF47FFF0F5C147B
(1790979225.046565) can0 02800569#7FE07FEF81FF00F0
(1790979225.050018) can0 017FFF01#7FFF7FFF00000000
(1790979225.050179) can0 02800161#7FFF8057800500F0
(1790979225.050320) can0 017FFF02#7FFF7FFF00000000
(1790979225.050517) can0 02800263#7FFE7FCD800300F0
(1790979225.050653) can0 017FFF03#7FFF7FFF00000000
(1790979225.050872) can0 02800365#7FFF7FEA7FFE00E6
(1790979225.051010) can0 017FFF04#7FFF7FFF00000000
(1790979225.051233) can0 02800467#7FFF7FD0803400F0
(1790979225.051365) can0 017FFF05#7FF57FFF0F5C147B
(1790979225.051565) can0 02800569#7FE18028820100F0
(1790979225.055017) can0 017FFF01#7FFF7FFF00000000
(1790979225.055185) can0 02800161#800080117FF700F0
(1790979225.055320) can0 017FFF02#7FFF7FFF00000000
(1790979225.055517) can0 02800263#7FFE8033800200F0
(1790979225.055653) can0 017FFF03#7FFF7FFF00000000
(1790979225.055871) can0 02800365#7FFF7FCB7FFD00E6
(1790979225.056008) can0 017FFF04#7FFF7FFF00000000
(1790979225.056229) can0 02800467#7FFF8056803100F0
(1790979225.056362) can0 017FFF05#7FF57FFF0F5C147B
(1790979225.056566) can0 02800569#7FE1803F81E400F0
(1790979225.060018) can0 017FFF01#7FFF7FFF00000000
(1790979225.060186) can0 02800161#7FFF7FD9800100F0
(1790979225.060321) can0 017FFF02#7FFF7FFF00000000
(1790979225.060522) can0 02800263#7FFE801A800000F0
(1790979225.060655) can0 017FFF03#7FFF7FFF00000000
(1790979225.060871) can0 02800365#7FFF7F747FF900E6
(1790979225.061008) can0 017FFF04#7FFF7FFF00000000
(1790979225.061228) can0 02800467#7FFE7FAA7FEA00F0
(1790979225.061361) can0 017FFF05#7FF67FFF0F5C147B
(1790979225.061560) can0 02800569#7FE1802A81DA00F0
(1790979225.065018) can0 017FFF01#7FFF7FFF00000000
(1790979225.065187) can0 02800161#7FFF7FE97FFB00F0
(1790979225.065323) can0 017FFF02#7FFF7FFF00000000
(1790979225.065521) can0 02800263#7FFE7F057FFE00F0
(1790979225.065657) can0 017FFF03#7FFF7FFF00000000
(1790979225.065872) can0 02800365#7FFF80167FED00E6
(1790979225.066009) can0 017FFF04#7FFF7FFF00000000
(1790979225.066228) can0 02800467#7FFF802F7FD300F0
(1790979225.066361) can0 017FFF05#7FF77FFF0F5C147B
(1790979225.066560) can0 02800569#7FE27FDB822800F0
(1790979225.070017) can0 017FFF01#7FFF7FFF00000000
(1790979225.070186) can0 02800161#7FFF7FC47FFC00F0
(1790979225.070322) can0 017FFF02#7FFF7FFF00000000
(1790979225.070519) can0 02800263#7FFE8011800100F0
(1790979225.070655) can0 017FFF03#7FFF7FFF00000000
(1790979225.070873) can0 02800365#7FFF7FE0800E00E6
(1790979225.071010) can0 017FFF04#7FFF7FFF00000000
(1790979225.071230) can0 02800467#7FFF7FFB7FE900F0
(1790979225.071363) can0 017FFF05#7FF77FFF0F5C147B
(1790979225.071561) can0 02800569#7FE28016823900F0
(1790979225.075018) can0 017FFF01#7FFF7FFF00000000
(1790979225.075177) can0 02800161#7FFF8093800600F0
(1790979225.075319) can0 017FFF02#7FFF7FFF00000000
(1790979225.075516) can0 02800263#7FFE7F797FFE00F0
(1790979225.075652) can0 017FFF03#7FFF7FFF00000000
(1790979225.075874) can0 02800365#7FFF7FC07FFC00E6
(1790979225.076011) can0 017FFF04#7FFF7FFF00000000
(1790979225.076232) can0 02800467#7FFF803A7FEA00F0
(1790979225.076365) can0 017FFF05#7FF87FFF0F5C147B
(1790979225.076560) can0 02800569#7FE27FA3822D00F0
(1790979225.080017) can0 017FFF01#7FFF7FFF00000000
(1790979225.080185) can0 02800161#800080077FFE00F0
(1790979225.080321) can0 017FFF02#7FFF7FFF00000000
(1790979225.080519) can0 02800263#7FFE804E800000F0
(1790979225.080655) can0 017FFF03#7FFF7FFF00000000
(1790979225.080871) can0 02800365#7FFF7FB3800500E6
(1790979225.081008) can0 017FFF04#7FFF7FFF00000000
(1790979225.081230) can0 02800467#7FFF7FDA800D00F0
(1790979225.081363) can0 017FFF05#7FF87FFF0F5C147B
(1790979225.081562) can0 02800569#7FE27FF9824800F0
(1790979225.085017) can0 017FFF01#7FFF7FFF00000000
(1790979225.085185) can0 02800161#7FFF7FAF800B00F0
(1790979225.085320) can0 017FFF02#7FFF7FFF00000000
(1790979225.085516) can0 02800263#7FFE7FCE801600F0
(1790979225.085652) can0 017FFF03#7FFF7FFF00000000
(1790979225.085872) can0 02800365#800080667FF400E6
(1790979225.086009) can0 017FFF04#7FFF7FFF00000000
(1790979225.086230) can0 02800467#7FFF7FDA7FFB00F0
(1790979225.086363) can0 017FFF05#7FF97FFF0F5C147B
(1790979225.086561) can0 02800569#7FE28006823A00F0
(1790979225.090019) can0 017FFF01#7FFF7FFF00000000
(1790979225.090187) can0 02800161#80007FE7800100F0
(1790979225.090322) can0 017FFF02#7FFF7FFF00000000
(1790979225.090520) can0 02800263#7FFE7FFC800000F0
(1790979225.090656) can0 017FFF03#7FFF7FFF00000000
(1790979225.090872) can0 02800365#7FFF7FE7800F00E6
(1790979225.091009) can0 017FFF04#7FFF7FFF00000000
(1790979225.091229) can0 02800467#7FFF80517FEB00F0
(1790979225.091363) can0 017FFF05#7FFA7FFF0F5C147B
(1790979225.091562) can0 02800569#7FE28041823F00F0
(1790979225.095018) can0 017FFF01#7FFF7FFF00000000
(1790979225.095186) can0 02800161#7FFF7FAA7FFA00F0
(1790979225.095321) can0 017FFF02#7FFF7FFF00000000
(1790979225.095519) can0 02800263#7FFE803C7FDC00F0
(1790979225.095655) can0 017FFF03#7FFF7FFF00000000
(1790979225.095872) can0 02800365#7FFF7FC9800000E6
(1790979225.096009) can0 017FFF04#7FFF7FFF00000000
(1790979225.096231) can0 02800467#7FFF7FF7801B00F0
(1790979225.096365) can0 017FFF05#7FFA7FFF0F5C147B
(1790979225.096562) can0 02800569#7FE37FE7821F00F0
(1790979225.100017) can0 017FFF01#7FFF7FFF00000000
(1790979225.100178) can0 02800161#8000809A7FFA00F0
(1790979225.100320) can0 017FFF02#7FFF7FFF00000000
(1790979225.100518) can0 02800263#7FFE7FDA7FF800F0
(1790979225.100654) can0 017FFF03#7FFF7FFF00000000
(1790979225.100873) can0 02800365#7FFF8025800000E6
(1790979225.101010) can0 017FFF04#7FFF7FFF00000000
(1790979225.101230) can0 02800467#7FFF7FB27FE700F0
(1790979225.101362) can0 017FFF05#7FFB7FFF0F5C147B
(1790979225.101560) can0 02800569#7FE37FD5824300F0
