(1790978060.173761) can0 1200FD01#0A70000000000000
(1790978060.173905) can0 020001FD#7FFF7EDA7FFF00E6
(1790978060.174045) can0 017FFF01#7FFF7FFF00000000
(1790978060.174205) can0 020001FD#7FFF7F957FFF00E6
(1790978060.174345) can0 0400FD01#0000000000000000
(1790978060.174504) can0 020001FD#7FFF80C67FFF00E6
(1790978060.174643) can0 1200FD02#0A70000000000000
(1790978060.174826) can0 020002FD#7FFF80677FFF00F0
(1790978060.174963) can0 017FFF02#7FFF7FFF00000000
(1790978060.175120) can0 020002FD#800080757FFF00F0
(1790978060.175261) can0 0400FD02#0000000000000000
(1790978060.175421) can0 020002FD#800080B27FFF00F0
(1790978060.175559) can0 1200FD03#0A70000000000000
(1790978060.175715) can0 020003FD#7FFE7FD57FFF00DC
(1790978060.175856) can0 017FFF03#7FFF7FFF00000000
(1790978060.176012) can0 020003FD#7FFF7FF47FFF00DC
(1790978060.176154) can0 0400FD03#0000000000000000
(1790978060.176309) can0 020003FD#7FFF80657FFF00DC
(1790978060.176449) can0 1200FD04#0A70000000000000
(1790978060.176609) can0 020004FD#7FFF7FF87FFF00F0
(1790978060.176752) can0 017FFF04#7FFF7FFF00000000
(1790978060.176909) can0 020004FD#7FFF7FF07FFF00F0
(1790978060.177054) can0 0400FD04#0000000000000000
(1790978060.177209) can0 020004FD#7FFF80257FFF00F0
(1790978060.177347) can0 1200FD05#0A70000000000000
(1790978060.177530) can0 020005FD#7FFF80237FFF00F0
(1790978060.177667) can0 017FFF05#7FFF7FFF00000000
(1790978060.177827) can0 020005FD#7FFF80137FFF00F0
(1790978060.177968) can0 0400FD05#0000000000000000
(1790978060.178127) can0 020005FD#7FFF802A7FFF00F0
(1790978060.178265) can0 1800FD01#0102030405060000
(1790978060.178421) can0 020001FD#7FFF80937FFF00E6
(1790978060.178560) can0 1800FD02#0102030405060000
(1790978060.178727) can0 020002FD#7FFF80477FFF00F0
(1790978060.178860) can0 1800FD03#0102030405060000
(1790978060.179016) can0 020003FD#7FFF80057FFF00DC
(1790978060.179155) can0 1800FD04#0102030405060000
(1790978060.179312) can0 020004FD#7FFF800B7FFF00F0
(1790978060.179450) can0 1800FD05#0102030405060000
(1790978060.179636) can0 020005FD#7FFF7FF07FFF00F0
(1790978060.179770) can0 04008001#00C4000000000000
(1790978060.179951) can0 02000180#00C4560003012A07
(1790978060.181248) can0 00008101#0000000000000000
(1790978060.181402) can0 000001FE#457B30020C323817
(1790978060.182303) can0 11008201#0570000000000000
(1790978060.182463) can0 11000182#0570000000000000
(1790978060.183363) can0 11008301#1970000000000000
(1790978060.183518) can0 11000183#19700000E4B83238
(1790978060.184420) can0 11008401#1B70000000000000
(1790978060.184605) can0 11000184#1B70000000000000
(1790978060.185485) can0 11008501#2870000000000000
(1790978060.185656) can0 11000185#2870000058020000
(1790978060.186541) can0 11008601#2970000000000000
(1790978060.186710) can0 11000186#2970000000000000
(1790978060.187600) can0 11008701#2B70000000000000
(1790978060.187758) can0 11000187#2B70000000000000
(1790978060.188660) can0 04008802#00C4000000000000
(1790978060.188822) can0 02000288#00C4560003012A07
(1790978060.189723) can0 00008902#0000000000000000
(1790978060.189876) can0 000002FE#785630020C343701
(1790978060.190776) can0 11008A02#0570000000000000
(1790978060.190936) can0 1100028A#0570000000000000
(1790978060.191835) can0 11008B02#1970000000000000
(1790978060.191989) can0 1100028B#19700000390E0639
(1790978060.192896) can0 11008C02#1B70000000000000
(1790978060.193076) can0 1100028C#1B70000000000000
(1790978060.193955) can0 11008D02#2870000000000000
(1790978060.194122) can0 1100028D#2870000058020000
(1790978060.195012) can0 11008E02#2970000000000000
(1790978060.195174) can0 1100028E#2970000000000000
(1790978060.196070) can0 11008F02#2B70000000000000
(1790978060.196231) can0 1100028F#2B70000000000000
(1790978060.197132) can0 04009003#00C4000000000000
(1790978060.197300) can0 02000390#00C4560002032207
(1790978060.198194) can0 00009103#0000000000000000
(1790978060.198345) can0 000003FE#9D6A3B859C023019
(1790978060.199247) can0 11009203#0570000000000000
(1790978060.199406) can0 11000392#0570000000000000
(1790978060.200306) can0 11009303#1970000000000000
(1790978060.200458) can0 11000393#197000006BAD1BB9
(1790978060.201367) can0 11009403#1B70000000000000
(1790978060.201545) can0 11000394#1B70000058E9D8BC
(1790978060.202424) can0 11009503#2870000000000000
(1790978060.202599) can0 11000395#2870000058020000
(1790978060.203484) can0 11009603#2970000000000000
(1790978060.203651) can0 11000396#2970000000000000
(1790978060.204543) can0 11009703#2B70000000000000
(1790978060.204702) can0 11000397#2B70000000000000
(1790978060.205604) can0 04009804#00C4000000000000
(1790978060.205760) can0 02000498#00C4560002032207
(1790978060.206665) can0 00009904#0000000000000000
(1790978060.206817) can0 000004FE#8A063B8F2450B00D
(1790978060.207720) can0 11009A04#0570000000000000
(1790978060.207879) can0 1100049A#0570000000000000
(1790978060.208780) can0 11009B04#1970000000000000
(1790978060.208957) can0 1100049B#19700000DF7B4FB8
(1790978060.209838) can0 11009C04#1B70000000000000
(1790978060.210006) can0 1100049C#1B70000026C332BD
(1790978060.210895) can0 11009D04#2870000000000000
(1790978060.211059) can0 1100049D#2870000058020000
(1790978060.211955) can0 11009E04#2970000000000000
(1790978060.212113) can0 1100049E#2970000000000000
(1790978060.213015) can0 11009F04#2B70000000000000
(1790978060.213174) can0 1100049F#2B70000000000000
(1790978060.214075) can0 0400A005#00C4000000000000
(1790978060.214234) can0 020005A0#00C4560000032007
(1790978060.215134) can0 0000A105#0000000000000000
(1790978060.215288) can0 000005FE#622C30020C343701
(1790978060.216188) can0 1100A205#0570000000000000
(1790978060.216346) can0 110005A2#0570000000000000
(1790978060.217250) can0 1100A305#1970000000000000
(1790978060.217425) can0 110005A3#19700000CDCC20B8
(1790978060.218307) can0 1100A405#1B70000000000000
(1790978060.218476) can0 110005A4#1B700000B97405BC
(1790978060.219365) can0 1100A505#2870000000000000
(1790978060.219529) can0 110005A5#2870000058020000
(1790978060.220424) can0 1100A605#2970000000000000
(1790978060.220583) can0 110005A6#2970000000000000
(1790978060.221487) can0 1100A705#2B70000000000000
(1790978060.221643) can0 110005A7#2B70000000000000
(1790978060.222564) can0 1200FD01#0A70000000000000
(1790978060.222719) can0 020001FD#7FFF7FBB7FFF00E6
(1790978060.222861) can0 017FFF01#7FFF7FFF00000000
(1790978060.223016) can0 020001FD#7FFF80257FFF00E6
(1790978060.223157) can0 0400FD01#0000000000000000
(1790978060.223312) can0 020001FD#8000809D7FFF00E6
(1790978060.223451) can0 1200FD02#0A70000000000000
(1790978060.223627) can0 020002FD#7FFF7FAB7FFF00F0
(1790978060.223763) can0 017FFF02#7FFF7FFF00000000
(1790978060.223931) can0 020002FD#7FFF7FF07FFF00F0
(1790978060.224064) can0 0400FD02#0000000000000000
(1790978060.224221) can0 020002FD#8000805F7FFF00F0
(1790978060.224360) can0 1200FD03#0A70000000000000
(1790978060.224515) can0 020003FD#7FFF7FDE7FFF00DC
(1790978060.224657) can0 017FFF03#7FFF7FFF00000000
(1790978060.224813) can0 020003FD#7FFE7FEA7FFF00DC
(1790978060.224956) can0 0400FD03#0000000000000000
(1790978060.225113) can0 020003FD#7FFF7FBE7FFF00DC
(1790978060.225252) can0 1200FD04#0A70000000000000
(1790978060.225409) can0 020004FD#7FFF80457FFF00F0
(1790978060.225551) can0 017FFF04#7FFF7FFF00000000
(1790978060.225706) can0 020004FD#7FFF80327FFF00F0
(1790978060.225850) can0 0400FD04#0000000000000000
(1790978060.226008) can0 020004FD#7FFF7FA57FFF00F0
(1790978060.226147) can0 1200FD05#0A70000000000000
(1790978060.226331) can0 020005FD#7FFF7FA57FFF00F0
(1790978060.226469) can0 017FFF05#7FFF7FFF00000000
(1790978060.226628) can0 020005FD#7FFF7FB07FFF00F0
(1790978060.226769) can0 0400FD05#0000000000000000
(1790978060.226928) can0 020005FD#7FFF80067FFF00F0
(1790978060.227064) can0 1200FD01#2870000058020000
(1790978060.227219) can0 020001FD#7FFF7F527FFF00E6
(1790978060.227358) can0 1100B001#2870000000000000
(1790978060.227516) can0 110001B0#2870000058020000
(1790978060.227868) can0 1200FD02#2870000058020000
(1790978060.228024) can0 020002FD#7FFF7FCC7FFF00F0
(1790978060.228163) can0 1100B102#2870000000000000
(1790978060.228322) can0 110002B1#2870000058020000
(1790978060.228931) can0 1200FD03#2870000058020000
(1790978060.229103) can0 020003FD#7FFF7FE87FFF00DC
(1790978060.229236) can0 1100B203#2870000000000000
(1790978060.229400) can0 110003B2#2870000058020000
(1790978060.229993) can0 1200FD04#2870000058020000
(1790978060.230163) can0 020004FD#7FFF80227FFF00F0
(1790978060.230296) can0 1100B304#2870000000000000
(1790978060.230460) can0 110004B3#2870000058020000
(1790978060.231055) can0 1200FD05#2870000058020000
(1790978060.231231) can0 020005FD#7FFF804E7FFF00F0
(1790978060.231363) can0 1100B405#2870000000000000
(1790978060.231529) can0 110005B4#2870000058020000
(1790978060.232119) can0 0600D001#0100000000000000
(1790978060.232506) can0 020001D0#7FFF7FB67FFF00E6
(1790978060.233178) can0 1100E001#1970000000000000
(1790978060.233354) can0 110001E0#19700000AB0A0639
(1790978060.234239) can0 0600D102#0100000000000000
(1790978060.234424) can0 020002D1#7FFF7FF07FFF00F0
(1790978060.235296) can0 1100E102#1970000000000000
(1790978060.235474) can0 110002E1#1970000000000000
(1790978060.236357) can0 0600D203#0100000000000000
(1790978060.236523) can0 020003D2#7FFF80007FFF00DC
(1790978060.237419) can0 1100E203#1970000000000000
(1790978060.237598) can0 110003E2#19700000DF7B4FB8
(1790978060.238481) can0 0600D304#0100000000000000
(1790978060.238662) can0 020004D3#7FFF7FE57FFF00F0
(1790978060.239537) can0 1100E304#1970000000000000
(1790978060.239709) can0 110004E3#19700000EFBD4FB8
(1790978060.240596) can0 0600D405#0100000000000000
(1790978060.240974) can0 020005D4#7FFF7ED27FFF00F0
(1790978060.241656) can0 1100E405#1970000000000000
(1790978060.241826) can0 110005E4#197000009AD9A038
(1790978060.242717) can0 1100C001#2870000000000000
(1790978060.242875) can0 110001C0#2870000058020000
(1790978060.243774) can0 1100C102#2870000000000000
(1790978060.243931) can0 110002C1#2870000058020000
(1790978060.244834) can0 1100C203#2870000000000000
(1790978060.245000) can0 110003C2#2870000058020000
(1790978060.245893) can0 1100C304#2870000000000000
(1790978060.246059) can0 110004C3#2870000058020000
(1790978060.246951) can0 1100C405#2870000000000000
(1790978060.247129) can0 110005C4#2870000058020000
(1790978060.248658) can0 1200FD01#0A70000000000000
(1790978060.248812) can0 020001FD#7FFF80597FFF00E6
(1790978060.248953) can0 017FFF01#7FFF7FFF00000000
(1790978060.249109) can0 020001FD#7FFF7FDE7FFF00E6
(1790978060.249249) can0 0400FD01#0000000000000000
(1790978060.249404) can0 020001FD#7FFF7FBC7FFF00E6
(1790978060.249542) can0 1200FD02#0A70000000000000
(1790978060.249727) can0 020002FD#7FFF7F977FFF00F0
(1790978060.249863) can0 017FFF02#7FFF7FFF00000000
(1790978060.250020) can0 020002FD#7FFF80407FFF00F0
(1790978060.250161) can0 0400FD02#0000000000000000
(1790978060.250320) can0 020002FD#7FFF804D7FFF00F0
(1790978060.250459) can0 1200FD03#0A70000000000000
(1790978060.250615) can0 020003FD#7FFF7FD57FFF00DC
(1790978060.250756) can0 017FFF03#7FFF7FFF00000000
(1790978060.250911) can0 020003FD#7FFF7F727FFF00DC
(1790978060.251053) can0 0400FD03#0000000000000000
(1790978060.251210) can0 020003FD#7FFF80017FFF00DC
(1790978060.251349) can0 1200FD04#0A70000000000000
(1790978060.251507) can0 020004FD#7FFF7FBB7FFF00F0
(1790978060.251650) can0 017FFF04#7FFF7FFF00000000
(1790978060.251810) can0 020004FD#7FFF7FFE7FFF00F0
(1790978060.251954) can0 0400FD04#0000000000000000
(1790978060.252109) can0 020004FD#7FFF80277FFF00F0
(1790978060.252247) can0 1200FD05#0A70000000000000
(1790978060.252431) can0 020005FD#7FFF80197FFF00F0
(1790978060.252568) can0 017FFF05#7FFF7FFF00000000
(1790978060.252726) can0 020005FD#7FFF7FDE7FFF00F0
(1790978060.252867) can0 0400FD05#0000000000000000
(1790978060.253031) can0 020005FD#7FFF7FD87FFF00F0
(1790978060.277429) can0 11004001#1970000000000000
(1790978060.277609) can0 11000140#1970000000000000
(1790978060.278486) can0 11004101#2870000000000000
(1790978060.278656) can0 11000141#2870000058020000
(1790978060.279542) can0 11004202#1970000000000000
(1790978060.279717) can0 11000242#197000001DC7B2B8
(1790978060.280601) can0 11004302#2870000000000000
(1790978060.280772) can0 11000243#2870000058020000
(1790978060.281661) can0 11004403#1970000000000000
(1790978060.281815) can0 11000344#19700000E79CCF38
(1790978060.282717) can0 11004503#2870000000000000
(1790978060.282896) can0 11000345#2870000058020000
(1790978060.283778) can0 11004604#1970000000000000
(1790978060.283959) can0 11000446#1970000000000000
(1790978060.284837) can0 11004704#2870000000000000
(1790978060.285009) can0 11000447#2870000058020000
(1790978060.285894) can0 11004805#1970000000000000
(1790978060.286072) can0 11000548#1970000067E62038
(1790978060.286953) can0 11004905#2870000000000000
(1790978060.287128) can0 11000549#2870000058020000
(1790978060.288297) can0 0300FD01#0000000000000000
(1790978060.288558) can0 1200FD01#0570000000000000
(1790978060.288817) can0 0300FD02#0000000000000000
(1790978060.289074) can0 1200FD02#0570000000000000
(1790978060.289334) can0 0300FD03#0000000000000000
(1790978060.289592) can0 1200FD03#0570000000000000
(1790978060.289740) can0 028001FD#7FFF80717FD900E6
(1790978060.289881) can0 0300FD04#0000000000000000
(1790978060.290029) can0 028001FD#7FFF80737FD300E6
(1790978060.290168) can0 1200FD04#0570000000000000
(1790978060.290317) can0 028002FD#7FFF7FFB804300F0
(1790978060.290458) can0 0300FD05#0000000000000000
(1790978060.290715) can0 1200FD05#0570000000000000
(1790978060.290863) can0 028003FD#7FFF80147FCE00DC
(1790978060.291004) can0 017FFF01#7FFF7FFF00000000
(1790978060.291172) can0 028001FD#7FFF80737FC700E6
(1790978060.291307) can0 017FFF02#7FFF7FFF00000000
(1790978060.291455) can0 028003FD#7FFF802C7FD400DC
(1790978060.291596) can0 017FFF03#7FFF7FFF00000000
(1790978060.291744) can0 028002FD#7FFF8024804F00F0
(1790978060.291886) can0 017FFF04#7FFF7FFF00000000
(1790978060.292035) can0 028002FD#7FFF8133804A00F0
(1790978060.292178) can0 017FFF05#7FFF7FFF00000000
(1790978060.292325) can0 028003FD#7FFF7FC77FD500DC
(1790978060.292474) can0 028004FD#7FFF7FE8802400F0
(1790978060.292610) can0 028004FD#7FFF804C804200F0
(1790978060.292755) can0 028005FD#7FFF80277F9E00F0
(1790978060.292889) can0 11006001#1970000000000000
(1790978060.293037) can0 028005FD#7FFF80047FC300F0
(1790978060.293178) can0 017FFF01#7FFF7FFF00000000
(1790978060.293325) can0 028005FD#7FFF7FD57FD600F0
(1790978060.293467) can0 017FFF02#7FFF7FFF00000000
(1790978060.293614) can0 02800160#7FFF7F987FB400E6
(1790978060.293756) can0 017FFF03#7FFF7FFF00000000
(1790978060.293907) can0 028002FD#7FFF8065803C00F0
(1790978060.294049) can0 017FFF04#7FFF7FFF00000000
(1790978060.294198) can0 028003FD#7FFF7FB07FCE00DC
(1790978060.294340) can0 017FFF05#7FFF7FFF00000000
(1790978060.294492) can0 028004FD#7FFF801C803400F0
(1790978060.294633) can0 017FFF01#7FFF7FFF00000000
(1790978060.294781) can0 028004FD#7FFF7FF2802B00F0
(1790978060.294923) can0 017FFF02#7FFF7FFF00000000
(1790978060.295069) can0 02800160#7FFF7FB47FAF00E6
(1790978060.295211) can0 017FFF03#7FFF7FFF00000000
(1790978060.295358) can0 028002FD#7FFF8002802F00F0
(1790978060.295501) can0 017FFF04#7FFF7FFF00000000
(1790978060.295649) can0 028003FD#7FFF802D7FCC00DC
(1790978060.295791) can0 017FFF05#7FFF7FFF00000000
(1790978060.295944) can0 028004FD#7FFF8092806500F0
(1790978060.296089) can0 028005FD#7FFF80297FDC00F0
(1790978060.296233) can0 028005FD#7FFF7FF07FCE00F0
(1790978060.296368) can0 11000160#19700000E4B8B2B8
(1790978060.296873) can0 11006101#2870000000000000
(1790978060.297066) can0 11000161#2870000058020000
(1790978060.297203) can0 017FFF01#7FFF7FFF00000000
(1790978060.297371) can0 02800161#7FFF80717FB300E6
(1790978060.297507) can0 017FFF02#7FFF7FFF00000000
(1790978060.297689) can0 028002FD#7FFF804C803F00F0
(1790978060.297825) can0 017FFF03#7FFF7FFF00000000
(1790978060.298062) can0 028003FD#7FFF800F7FD900DC
(1790978060.298199) can0 017FFF04#7FFF7FFF00000000
(1790978060.298422) can0 028004FD#7FFF7FC5801600F0
(1790978060.298559) can0 017FFF05#7FFF7FFF00000000
(1790978060.298791) can0 028005FD#7FFF80227FE800F0
(1790978060.298924) can0 11006202#1970000000000000
(1790978060.299077) can0 11000262#19700000ABAA3238
(1790978060.299219) can0 017FFF01#7FFF7FFF00000000
(1790978060.299416) can0 02800161#7FFF80987FC200E6
(1790978060.299552) can0 017FFF02#7FFF7FFF00000000
(1790978060.299738) can0 02800262#7FFF807C803700F0
(1790978060.299874) can0 017FFF03#7FFF7FFF00000000
(1790978060.300114) can0 028003FD#7FFF801B7FFB00DC
(1790978060.300251) can0 017FFF04#7FFF7FFF00000000
(1790978060.300473) can0 028004FD#7FFF8007802D00F0
(1790978060.300610) can0 017FFF05#7FFF7FFF00000000
(1790978060.300839) can0 028005FD#7FFF80187FDD00F0
(1790978060.300974) can0 11006302#2870000000000000
(1790978060.301130) can0 11000263#2870000058020000
(1790978060.301271) can0 017FFF01#7FFF7FFF00000000
(1790978060.301467) can0 02800161#7FFF7FD67FD600E6
(1790978060.301603) can0 017FFF02#7FFF7FFF00000000
(1790978060.301787) can0 02800263#7FFF8085802800F0
(1790978060.301923) can0 017FFF03#7FFF7FFF00000000
(1790978060.302163) can0 028003FD#7FFF80067FF100DC
(1790978060.302301) can0 017FFF04#7FFF7FFF00000000
(1790978060.302521) can0 028004FD#7FFF802C802200F0
(1790978060.302658) can0 017FFF05#7FFF7FFF00000000
(1790978060.302888) can0 028005FD#7FFF7FC87FDD00F0
(1790978060.303022) can0 11006403#1970000000000000
(1790978060.303215) can0 11000364#19700000E79CCF38
(1790978060.303351) can0 017FFF01#7FFF7FFF00000000
(1790978060.303521) can0 02800161#7FFF7F747FE600E6
(1790978060.303657) can0 017FFF02#7FFF7FFF00000000
(1790978060.303840) can0 02800263#7FFF7EE6801400F0
(1790978060.303976) can0 017FFF03#7FFF7FFF00000000
(1790978060.304211) can0 02800364#7FFF80377FF500DC
(1790978060.304349) can0 017FFF04#7FFF7FFF00000000
(1790978060.304573) can0 028004FD#7FFF8018804900F0
(1790978060.304710) can0 017FFF05#7FFF7FFF00000000
(1790978060.304940) can0 028005FD#7FFF803A7FED00F0
(1790978060.305072) can0 11006503#2870000000000000
(1790978060.305267) can0 11000365#2870000058020000
(1790978060.305403) can0 017FFF01#7FFF7FFF00000000
(1790978060.305571) can0 02800161#7FFF806F7FD800E6
(1790978060.305707) can0 017FFF02#7FFF7FFF00000000
(1790978060.305887) can0 02800263#7FFF7F87800E00F0
(1790978060.306024) can0 017FFF03#7FFF7FFF00000000
(1790978060.306260) can0 02800365#7FFF80567FF700DC
(1790978060.306398) can0 017FFF04#7FFF7FFF00000000
(1790978060.306626) can0 028004FD#7FFF7FF7800400F0
(1790978060.306763) can0 017FFF05#7FFF7FFF00000000
(1790978060.306991) can0 028005FD#7FFF7FBE7FE200F0
(1790978060.307125) can0 11006604#1970000000000000
(1790978060.307326) can0 11000466#1970000000000000
(1790978060.307462) can0 017FFF01#7FFF7FFF00000000
(1790978060.307616) can0 02800161#7FFF7F547FD600E6
(1790978060.307757) can0 017FFF02#7FFF7FFF00000000
(1790978060.307939) can0 02800263#7FFF8046800000F0
(1790978060.308075) can0 017FFF03#7FFF7FFF00000000
(1790978060.308313) can0 02800365#7FFF7FC2800000DC
(1790978060.308451) can0 017FFF04#7FFF7FFF00000000
(1790978060.308672) can0 02800466#7FFF8030801300F0
(1790978060.308809) can0 017FFF05#7FFF7FFF00000000
(1790978060.309042) can0 028005FD#7FFF7FF67FF000F0
(1790978060.309176) can0 11006704#2870000000000000
(1790978060.309375) can0 11000467#2870000058020000
(1790978060.309511) can0 017FFF01#7FFF7FFF00000000
(1790978060.309666) can0 02800161#7FFF801B7FD900E6
(1790978060.309808) can0 017FFF02#7FFF7FFF00000000
(1790978060.309992) can0 02800263#7FFF7FFA801C00F0
(1790978060.310128) can0 017FFF03#7FFF7FFF00000000
(1790978060.310362) can0 02800365#7FFF80097FEB00DC
(1790978060.310499) can0 017FFF04#7FFF7FFF00000000
(1790978060.310722) can0 02800467#7FFF807F7FED00F0
(1790978060.310859) can0 017FFF05#7FFF7FFF00000000
(1790978060.311092) can0 028005FD#7FFF7FF77FF600F0
(1790978060.311224) can0 11006805#1970000000000000
(1790978060.311393) can0 11000568#197000009AD9A038
(1790978060.311530) can0 017FFF01#7FFF7FFF00000000
(1790978060.311722) can0 02800161#8000802C7FE200E6
(1790978060.311858) can0 017FFF02#7FFF7FFF00000000
(1790978060.312036) can0 02800263#7FFE7FBA7FF600F0
(1790978060.312172) can0 017FFF03#7FFF7FFF00000000
(1790978060.312413) can0 02800365#7FFF8004801300DC
(1790978060.312551) can0 017FFF04#7FFF7FFF00000000
(1790978060.312770) can0 02800467#7FFE80517FD300F0
(1790978060.312907) can0 017FFF05#7FFF7FFF00000000
(1790978060.313100) can0 02800568#7FFF8016800500F0
(1790978060.313234) can0 11006905#2870000000000000
(1790978060.313390) can0 11000569#2870000058020000
(1790978060.313532) can0 017FFF01#7FFF7FFF00000000
(1790978060.313723) can0 02800161#800080087FE500E6
(1790978060.313859) can0 017FFF02#7FFF7FFF00000000
(1790978060.314037) can0 02800263#7FFF7F38802100F0
(1790978060.314173) can0 017FFF03#7FFF7FFF00000000
(1790978060.314411) can0 02800365#800080397FED00DC
(1790978060.314548) can0 017FFF04#7FFF7FFF00000000
(1790978060.314772) can0 02800467#7FFF7FEB802000F0
(1790978060.314910) can0 017FFF05#7FFF7FFF00000000
(1790978060.315140) can0 02800569#7FFF7FE8802700F0
(1790978060.315276) can0 017FFF01#7FFF7FFF00000000
(1790978060.315473) can0 02800161#7FFF804B7FEC00E6
(1790978060.315609) can0 017FFF02#7FFF7FFF00000000
(1790978060.315788) can0 02800263#7FFF8052800800F0
(1790978060.315924) can0 017FFF03#7FFF7FFF00000000
(1790978060.316165) can0 02800365#7FFF7FE77FF800DC
(1790978060.316302) can0 017FFF04#7FFF7FFF00000000
(1790978060.316522) can0 02800467#7FFF7FF3803300F0
(1790978060.316653) can0 017FFF05#7FFF7FFF051F147B
(1790978060.316849) can0 02800569#80008014800100F0
(1790978060.319393) can0 017FFF01#7FFF7FFF00000000
(1790978060.319570) can0 02800161#8000803A7FE900E6
(1790978060.319707) can0 017FFF02#7FFF7FFF00000000
(1790978060.319889) can0 02800263#7FFF8008801100F0
(1790978060.320025) can0 017FFF03#7FFF7FFF00000000
(1790978060.320261) can0 02800365#7FFF7FB7800900DC
(1790978060.320398) can0 017FFF04#7FFF7FFF00000000
(1790978060.320624) can0 02800467#7FFF7FFF7FF000F0
(1790978060.320756) can0 017FFF05#7FFE7FFF051F147B
(1790978060.320951) can0 02800569#7FFF7FF77FFF00F0
(1790978060.324390) can0 017FFF01#7FFF7FFF00000000
(1790978060.324569) can0 02800161#7FFF7F957FDE00E6
(1790978060.324705) can0 017FFF02#7FFF7FFF00000000
(1790978060.324889) can0 02800263#7FFF7F5B801100F0
(1790978060.325025) can0 017FFF03#7FFF7FFF00000000
(1790978060.325263) can0 02800365#7FFF7FF17FF900DC
(1790978060.325400) can0 017FFF04#7FFF7FFF00000000
(1790978060.325619) can0 02800467#7FFF804E7FDD00F0
(1790978060.325751) can0 017FFF05#7FFE7FFF051F147B
(1790978060.325992) can0 02800569#7FFF80187FE100F0
(1790978060.329389) can0 017FFF01#7FFF7FFF00000000
(1790978060.329570) can0 02800161#800080CF7FFD00E6
(1790978060.329706) can0 017FFF02#7FFF7FFF00000000
(1790978060.329888) can0 02800263#7FFF7FC7800700F0
(1790978060.330024) can0 017FFF03#7FFF7FFF00000000
(1790978060.330261) can0 02800365#7FFF80267FFE00DC
(1790978060.330398) can0 017FFF04#7FFF7FFF00000000
(1790978060.330621) can0 02800467#7FFF80097FD000F0
(1790978060.330752) can0 017FFF05#7FFD7FFF051F147B
(1790978060.330991) can0 02800569#7FFF7FDF7FE400F0
(1790978060.334390) can0 017FFF01#7FFF7FFF00000000
(1790978060.334569) can0 02800161#80007FD1800100E6
(1790978060.334706) can0 017FFF02#7FFF7FFF00000000
(1790978060.334892) can0 02800263#7FFE7F26801E00F0
(1790978060.335028) can0 017FFF03#7FFF7FFF00000000
(1790978060.335262) can0 02800365#7FFF804E7FEE00DC
(1790978060.335399) can0 017FFF04#7FFF7FFF00000000
(1790978060.335622) can0 02800467#7FFF7FCD801200F0
(1790978060.335755) can0 017FFF05#7FFC7FFF051F147B
(1790978060.335990) can0 02800569#7FFF7FF97FF600F0
(1790978060.339389) can0 017FFF01#7FFF7FFF00000000
(1790978060.339569) can0 02800161#80008095800E00E6
(1790978060.339706) can0 017FFF02#7FFF7FFF00000000
(1790978060.339886) can0 02800263#7FFF80727FF100F0
(1790978060.340023) can0 017FFF03#7FFF7FFF00000000
(1790978060.340261) can0 02800365#7FFF7FB1802500DC
(1790978060.340398) can0 017FFF04#7FFF7FFF00000000
(1790978060.340620) can0 02800467#7FFE7FDA800300F0
(1790978060.340753) can0 017FFF05#7FFC7FFF051F147B
(1790978060.340991) can0 02800569#7FFF800E7FFF00F0
(1790978060.344390) can0 017FFF01#7FFF7FFF00000000
(1790978060.344571) can0 02800161#7FFF80077FF600E6
(1790978060.344706) can0 017FFF02#7FFF7FFF00000000
(1790978060.344887) can0 02800263#7FFF80677FFB00F0
(1790978060.345024) can0 017FFF03#7FFF7FFF00000000
(1790978060.345264) can0 02800365#7FFF7FE2801000DC
(1790978060.345401) can0 017FFF04#7FFF7FFF00000000
(1790978060.345622) can0 02800467#7FFF801E7FD100F0
(1790978060.345755) can0 017FFF05#7FFB7FFF051F147B
(1790978060.345991) can0 02800569#7FFF80337FE400F0
(1790978060.349393) can0 017FFF01#7FFF7FFF00000000
(1790978060.349570) can0 02800161#80007F887FFA00E6
(1790978060.349707) can0 017FFF02#7FFF7FFF00000000
(1790978060.349889) can0 02800263#7FFF8006800100F0
(1790978060.350026) can0 017FFF03#7FFF7FFF00000000
(1790978060.350262) can0 02800365#7FFF7FD3800900DC
(1790978060.350399) can0 017FFF04#7FFF7FFF00000000
(1790978060.350620) can0 02800467#7FFE7FE97FFA00F0
(1790978060.350752) can0 017FFF05#7FFA7FFF051F147B
(1790978060.350989) can0 02800569#7FFF7FE47FDA00F0
(1790978060.354392) can0 017FFF01#7FFF7FFF00000000
(1790978060.354569) can0 02800161#800080F3800F00E6
(1790978060.354705) can0 017FFF02#7FFF7FFF00000000
(1790978060.354889) can0 02800263#7FFE7FB9801400F0
(1790978060.355026) can0 017FFF03#7FFF7FFF00000000
(1790978060.355260) can0 02800365#7FFF80497FDD00DC
(1790978060.355398) can0 017FFF04#7FFF7FFF00000000
(1790978060.355627) can0 02800467#7FFF801C801E00F0
(1790978060.355759) can0 017FFF05#7FFA7FFF051F147B
(1790978060.355991) can0 02800569#8000802E7FD400F0
(1790978060.359390) can0 017FFF01#7FFF7FFF00000000
(1790978060.359569) can0 02800161#800080767FFE00E6
(1790978060.359705) can0 017FFF02#7FFF7FFF00000000
(1790978060.359890) can0 02800263#7FFE80DC800C00F0
(1790978060.360027) can0 017FFF03#7FFF7FFF00000000
(1790978060.360261) can0 02800365#7FFF7FD6803100DC
(1790978060.360398) can0 017FFF04#7FFF7FFF00000000
(1790978060.360626) can0 02800467#7FFF7FEF800000F0
(1790978060.360758) can0 017FFF05#7FF97FFF051F147B
(1790978060.360991) can0 02800569#7FFF80137FA400F0
(1790978060.364390) can0 017FFF01#7FFF7FFF00000000
(1790978060.364572) can0 02800161#80007FB77FF000E6
(1790978060.364707) can0 017FFF02#7FFF7FFF00000000
(1790978060.364889) can0 02800263#7FFE7F7E7FF400F0
(1790978060.365026) can0 017FFF03#7FFF7FFF00000000
(1790978060.365261) can0 02800365#7FFF7FD17FFF00DC
(1790978060.365399) can0 017FFF04#7FFF7FFF00000000
(1790978060.365622) can0 02800467#7FFF7FDF801900F0
(1790978060.365753) can0 017FFF05#7FF87FFF051F147B
(1790978060.365987) can0 02800569#7FFF7FC27FC900F0
(1790978060.369393) can0 017FFF01#7FFF7FFF00000000
(1790978060.369570) can0 02800161#800080187FF200E6
(1790978060.369706) can0 017FFF02#7FFF7FFF00000000
(1790978060.369888) can0 02800263#7FFE7F1B800600F0
(1790978060.370025) can0 017FFF03#7FFF7FFF00000000
(1790978060.370263) can0 02800365#7FFF80197FFA00DC
(1790978060.370400) can0 017FFF04#7FFF7FFF00000000
(1790978060.370620) can0 02800467#7FFF7FA17FEF00F0
(1790978060.370751) can0 017FFF05#7FF87FFF051F147B
(1790978060.370992) can0 02800569#7FFF7FF77FA900F0
(1790978060.374392) can0 017FFF01#7FFF7FFF00000000
(1790978060.374570) can0 02800161#7FFF7F607FF700E6
(1790978060.374706) can0 017FFF02#7FFF7FFF00000000
(1790978060.374887) can0 02800263#7FFE7F997FEE00F0
(1790978060.375024) can0 017FFF03#7FFF7FFF00000000
(1790978060.375263) can0 02800365#7FFF7FF3800800DC
(1790978060.375401) can0 017FFF04#7FFF7FFF00000000
(1790978060.375621) can0 02800467#7FFF7FBD803000F0
(1790978060.375753) can0 017FFF05#7FF77FFF051F147B
(1790978060.375991) can0 02800569#7FFF80007FC800F0
(1790978060.379391) can0 017FFF01#7FFF7FFF00000000
(1790978060.379569) can0 02800161#80007FDB7FF700E6
(1790978060.379705) can0 017FFF02#7FFF7FFF00000000
(1790978060.379890) can0 02800263#7FFF801A7FDC00F0
(1790978060.380027) can0 017FFF03#7FFF7FFF00000000
(1790978060.380261) can0 02800365#7FFF7F687FFA00DC
(1790978060.380398) can0 017FFF04#7FFF7FFF00000000
(1790978060.380622) can0 02800467#7FFF7FE77FE600F0
(1790978060.380754) can0 017FFF05#7FF77FFF051F147B
(1790978060.380992) can0 02800569#7FFF7FE77FE100F0
(1790978060.384392) can0 017FFF01#7FFF7FFF00000000
(1790978060.384570) can0 02800161#800080367FFB00E6
(1790978060.384705) can0 017FFF02#7FFF7FFF00000000
(1790978060.384888) can0 02800263#7FFF80857FFE00F0
(1790978060.385024) can0 017FFF03#7FFF7FFF00000000
(1790978060.385261) can0 02800365#7FFF7FF57FFB00DC
(1790978060.385399) can0 017FFF04#7FFF7FFF00000000
(1790978060.385622) can0 02800467#7FFF8026800B00F0
(1790978060.385754) can0 017FFF05#7FF67FFF051F147B
(1790978060.385989) can0 02800569#7FFF7FD87FB300F0
(1790978060.389392) can0 017FFF01#7FFF7FFF00000000
(1790978060.389572) can0 02800161#8000801F800100E6
(1790978060.389708) can0 017FFF02#7FFF7FFF00000000
(1790978060.389889) can0 02800263#7FFE7FB57FE400F0
(1790978060.390025) can0 017FFF03#7FFF7FFF00000000
(1790978060.390263) can0 02800365#7FFF80207FE400DC
(1790978060.390401) can0 017FFF04#7FFF7FFF00000000
(1790978060.390618) can0 02800467#7FFE7FC37FC300F0
(1790978060.390749) can0 017FFF05#7FF57FFF051F147B
(1790978060.390990) can0 02800569#7FFF80147FAA00F0
(1790978060.394392) can0 017FFF01#7FFF7FFF00000000
(1790978060.394570) can0 02800161#80008072801C00E6
(1790978060.394706) can0 017FFF02#7FFF7FFF00000000
(1790978060.394886) can0 02800263#7FFE80AC800000F0
(1790978060.395022) can0 017FFF03#7FFF7FFF00000000
(1790978060.395260) can0 02800365#8000805B800900DC
(1790978060.395398) can0 017FFF04#7FFF7FFF00000000
(1790978060.395621) can0 02800467#7FFF7FB47FC700F0
(1790978060.395752) can0 017FFF05#7FF57FFF051F147B
(1790978060.395988) can0 02800569#7FFF7FC27FB500F0
(1790978060.399393) can0 017FFF01#7FFF7FFF00000000
(1790978060.399570) can0 02800161#800080337FE500E6
(1790978060.399706) can0 017FFF02#7FFF7FFF00000000
(1790978060.399886) can0 02800263#7FFE80987FFB00F0
(1790978060.400022) can0 017FFF03#7FFF7FFF00000000
(1790978060.400261) can0 02800365#7FFF8036800800DC
(1790978060.400399) can0 017FFF04#7FFF7FFF00000000
(1790978060.400623) can0 02800467#7FFF8008800A00F0
(1790978060.400754) can0 017FFF05#7FF47FFF051F147B
(1790978060.400988) can0 02800569#7FFF80337F9D00F0
(1790978060.404392) can0 017FFF01#7FFF7FFF00000000
(1790978060.404571) can0 02800161#80007FA7800C00E6
(1790978060.404706) can0 017FFF02#7FFF7FFF00000000
(1790978060.404888) can0 02800263#7FFF7FEF7FE700F0
(1790978060.405024) can0 017FFF03#7FFF7FFF00000000
(1790978060.405263) can0 02800365#7FFF800B800700DC
(1790978060.405400) can0 017FFF04#7FFF7FFF00000000
(1790978060.405621) can0 02800467#7FFF800D7FC200F0
(1790978060.405753) can0 017FFF05#7FF37FFF051F147B
(1790978060.405988) can0 02800569#7FFF7FE77F9A00F0
(1790978060.409390) can0 017FFF01#7FFF7FFF00000000
(1790978060.409570) can0 02800161#800080AB800700E6
(1790978060.409706) can0 017FFF02#7FFF7FFF00000000
(1790978060.409888) can0 02800263#7FFE7FBE7FF900F0
(1790978060.410024) can0 017FFF03#7FFF7FFF00000000
(1790978060.410261) can0 02800365#7FFF7FC5800300DC
(1790978060.410398) can0 017FFF04#7FFF7FFF00000000
(1790978060.410623) can0 02800467#7FFF7FE5803400F0
(1790978060.410755) can0 017FFF05#7FF37FFF051F147B
(1790978060.410986) can0 02800569#7FFF7FDB7F8900F0
(1790978060.414392) can0 017FFF01#7FFF7FFF00000000
(1790978060.414570) can0 02800161#80008093801600E6
(1790978060.414706) can0 017FFF02#7FFF7FFF00000000
(1790978060.414887) can0 02800263#7FFF8058800600F0
(1790978060.415023) can0 017FFF03#7FFF7FFF00000000
(1790978060.415261) can0 02800365#7FFF80147FFD00DC
(1790978060.415398) can0 017FFF04#7FFF7FFF00000000
(1790978060.415620) can0 02800467#7FFF7FC8800800F0
(1790978060.415752) can0 017FFF05#7FF27FFF051F147B
(1790978060.415990) can0 02800569#7FFF7FF17FA000F0
(1790978060.419391) can0 017FFF01#7FFF7FFF00000000
(1790978060.419572) can0 02800161#80008013800100E6
(1790978060.419708) can0 017FFF02#7FFF7FFF00000000
(1790978060.419886) can0 02800263#7FFE7F7E7FDE00F0
(1790978060.420022) can0 017FFF03#7FFF7FFF00000000
(1790978060.420262) can0 02800365#7FFF7FE7801900DC
(1790978060.420399) can0 017FFF04#7FFF7FFF00000000
(1790978060.420620) can0 02800467#7FFE7FF47FF700F0
(1790978060.420751) can0 017FFF05#7FF17FFF051F147B
(1790978060.420989) can0 02800569#7FFF7FF57F9F00F0
(1790978060.424391) can0 017FFF01#7FFF7FFF00000000
(1790978060.424571) can0 02800161#80007FFE800C00E6
(1790978060.424707) can0 017FFF02#7FFF7FFF00000000
(1790978060.424887) can0 02800263#7FFE80027FF700F0
(1790978060.425023) can0 017FFF03#7FFF7FFF00000000
(1790978060.425261) can0 02800365#7FFF800D801300DC
(1790978060.425398) can0 017FFF04#7FFF7FFF00000000
(1790978060.425620) can0 02800467#7FFF7FFB7FF600F0
(1790978060.425752) can0 017FFF05#7FF17FFF051F147B
(1790978060.425990) can0 02800569#7FFF7FE07F7C00F0
(1790978060.429392) can0 017FFF01#7FFF7FFF00000000
(1790978060.429574) can0 02800161#80007FE1800C00E6
(1790978060.429710) can0 017FFF02#7FFF7FFF00000000
(1790978060.429887) can0 02800263#7FFE7FAF800F00F0
(1790978060.430023) can0 017FFF03#7FFF7FFF00000000
(1790978060.430262) can0 02800365#8000807D800A00DC
(1790978060.430399) can0 017FFF04#7FFF7FFF00000000
(1790978060.430620) can0 02800467#7FFF80317FEA00F0
(1790978060.430753) can0 017FFF05#7FF07FFF051F147B
(1790978060.430990) can0 02800569#7FFF7FEE7F7400F0
(1790978060.434392) can0 017FFF01#7FFF7FFF00000000
(1790978060.434571) can0 02800161#800080687FE900E6
(1790978060.434707) can0 017FFF02#7FFF7FFF00000000
(1790978060.434886) can0 02800263#7FFE7FA7800000F0
(1790978060.435022) can0 017FFF03#7FFF7FFF00000000
(1790978060.435261) can0 02800365#800080077FF100DC
(1790978060.435398) can0 017FFF04#7FFF7FFF00000000
(1790978060.435622) can0 02800467#7FFE7FEF7FFC00F0
(1790978060.435754) can0 017FFF05#7FEF7FFF051F147B
(1790978060.435989) can0 02800569#7FFF80157F9000F0
(1790978060.439391) can0 017FFF01#7FFF7FFF00000000
(1790978060.439569) can0 02800161#80007F657FF900E6
(1790978060.439706) can0 017FFF02#7FFF7FFF00000000
(1790978060.439885) can0 02800263#7FFE7EB67FDD00F0
(1790978060.440021) can0 017FFF03#7FFF7FFF00000000
(1790978060.440261) can0 02800365#7FFF7FE8802C00DC
(1790978060.440398) can0 017FFF04#7FFF7FFF00000000
(1790978060.440622) can0 02800467#7FFF7FE27FFB00F0
(1790978060.440754) can0 017FFF05#7FEF7FFF051F147B
(1790978060.440988) can0 02800569#7FFF7FA57F8800F0
(1790978060.444390) can0 017FFF01#7FFF7FFF00000000
(1790978060.444569) can0 02800161#800080C8801700E6
(1790978060.444705) can0 017FFF02#7FFF7FFF00000000
(1790978060.444885) can0 02800263#7FFE7FA47FF900F0
(1790978060.445022) can0 017FFF03#7FFF7FFF00000000
(1790978060.445262) can0 02800365#7FFF800F803300DC
(1790978060.445399) can0 017FFF04#7FFF7FFF00000000
(1790978060.445621) can0 02800467#7FFF80207FE200F0
(1790978060.445752) can0 017FFF05#7FEE7FFF051F147B
(1790978060.445987) can0 02800569#7FFF800F7F7100F0
(1790978060.449391) can0 017FFF01#7FFF7FFF00000000
(1790978060.449569) can0 02800161#80008019800300E6
(1790978060.449705) can0 017FFF02#7FFF7FFF00000000
(1790978060.449890) can0 02800263#7FFF8083800C00F0
(1790978060.450027) can0 017FFF03#7FFF7FFF00000000
(1790978060.450261) can0 02800365#7FFF7FDF7FE700DC
(1790978060.450398) can0 017FFF04#7FFF7FFF00000000
(1790978060.450618) can0 02800467#7FFE7FD67FDA00F0
(1790978060.450750) can0 017FFF05#7FED7FFF051F147B
(1790978060.450987) can0 02800569#7FFE7FFE7F6A00F0
(1790978060.454392) can0 017FFF01#7FFF7FFF00000000
(1790978060.454570) can0 02800161#800080F57FFE00E6
(1790978060.454707) can0 017FFF02#7FFF7FFF00000000
(1790978060.454888) can0 02800263#7FFE7FFB7FF400F0
(1790978060.455025) can0 017FFF03#7FFF7FFF00000000
(1790978060.455260) can0 02800365#7FFF7FAD800300DC
(1790978060.455397) can0 017FFF04#7FFF7FFF00000000
(1790978060.455620) can0 02800467#7FFE7FFE7FF900F0
(1790978060.455752) can0 017FFF05#7FED7FFF051F147B
(1790978060.455988) can0 02800569#7FFF80167F6D00F0
(1790978060.459392) can0 017FFF01#7FFF7FFF00000000
(1790978060.459569) can0 02800161#8000800E800600E6
(1790978060.459706) can0 017FFF02#7FFF7FFF00000000
(1790978060.459884) can0 02800263#7FFE8007802700F0
(1790978060.460021) can0 017FFF03#7FFF7FFF00000000
(1790978060.460260) can0 02800365#7FFF8056801300DC
(1790978060.460397) can0 017FFF04#7FFF7FFF00000000
(1790978060.460619) can0 02800467#7FFF8033800300F0
(1790978060.460752) can0 017FFF05#7FEC7FFF051F147B
(1790978060.460986) can0 02800569#7FFE7FD57F6A00F0
(1790978060.464390) can0 017FFF01#7FFF7FFF00000000
(1790978060.464568) can0 02800161#8000804E800600E6
(1790978060.464704) can0 017FFF02#7FFF7FFF00000000
(1790978060.464885) can0 02800263#7FFF7F7A7FF200F0
(1790978060.465022) can0 017FFF03#7FFF7FFF00000000
(1790978060.465259) can0 02800365#7FFF7FA8801900DC
(1790978060.465397) can0 017FFF04#7FFF7FFF00000000
(1790978060.465621) can0 02800467#7FFF80077FFE00F0
(1790978060.465755) can0 017FFF05#7FEB7FFF051F147B
(1790978060.465987) can0 02800569#7FFF800F7F4200F0
(1790978060.469391) can0 017FFF01#7FFF7FFF00000000
(1790978060.469571) can0 02800161#80007FE3800800E6
(1790978060.469707) can0 017FFF02#7FFF7FFF00000000
(1790978060.469886) can0 02800263#7FFE7F60800900F0
(1790978060.470022) can0 017FFF03#7FFF7FFF00000000
(1790978060.470259) can0 02800365#7FFF7FB87FF100DC
(1790978060.470397) can0 017FFF04#7FFF7FFF00000000
(1790978060.470621) can0 02800467#7FFF7FEB7FCC00F0
(1790978060.470756) can0 017FFF05#7FEB7FFF051F147B
(1790978060.470985) can0 02800569#7FFE7FD97F5200F0
(1790978060.474391) can0 017FFF01#7FFF7FFF00000000
(1790978060.474569) can0 02800161#80007FB67FF700E6
(1790978060.474705) can0 017FFF02#7FFF7FFF00000000
(1790978060.474886) can0 02800263#7FFE800A7FED00F0
(1790978060.475022) can0 017FFF03#7FFF7FFF00000000
(1790978060.475259) can0 02800365#7FFF7F75801500DC
(1790978060.475397) can0 017FFF04#7FFF7FFF00000000
(1790978060.475621) can0 02800467#7FFF7FCE7FE200F0
(1790978060.475753) can0 017FFF05#7FEA7FFF051F147B
(1790978060.475987) can0 02800569#7FFF7FCB7F5600F0
(1790978060.479391) can0 017FFF01#7FFF7FFF00000000
(1790978060.479570) can0 02800161#80007F997FFF00E6
(1790978060.479706) can0 017FFF02#7FFF7FFF00000000
(1790978060.479887) can0 02800263#7FFF80997FCC00F0
(1790978060.480023) can0 017FFF03#7FFF7FFF00000000
(1790978060.480261) can0 02800365#7FFF800C800700DC
(1790978060.480399) can0 017FFF04#7FFF7FFF00000000
(1790978060.480620) can0 02800467#7FFF8024800B00F0
(1790978060.480751) can0 017FFF05#7FE97FFF051F147B
(1790978060.480986) can0 02800569#7FFE80137F6900F0
(1790978060.484392) can0 017FFF01#7FFF7FFF00000000
(1790978060.484569) can0 02800161#7FFF7F3E800A00E6
(1790978060.484705) can0 017FFF02#7FFF7FFF00000000
(1790978060.484885) can0 02800263#7FFF80BB7FFB00F0
(1790978060.485021) can0 017FFF03#7FFF7FFF00000000
(1790978060.485261) can0 02800365#7FFF7FFF801300DC
(1790978060.485398) can0 017FFF04#7FFF7FFF00000000
(1790978060.485619) can0 02800467#7FFF80457FF200F0
(1790978060.485750) can0 017FFF05#7FE97FFF051F147B
(1790978060.485985) can0 02800569#7FFE7FC77F5600F0
(1790978060.489391) can0 017FFF01#7FFF7FFF00000000
(1790978060.489568) can0 02800161#800080257FF300E6
(1790978060.489704) can0 017FFF02#7FFF7FFF00000000
(1790978060.489886) can0 02800263#7FFF80697FED00F0
(1790978060.490022) can0 017FFF03#7FFF7FFF00000000
(1790978060.490259) can0 02800365#7FFF7FAE7FFB00DC
(1790978060.490396) can0 017FFF04#7FFF7FFF00000000
(1790978060.490620) can0 02800467#7FFF8062800700F0
(1790978060.490753) can0 017FFF05#7FE87FFF051F147B
(1790978060.490987) can0 02800569#7FFE7FE57F4100F0
(1790978060.494391) can0 017FFF01#7FFF7FFF00000000
(1790978060.494570) can0 02800161#800080167FE200E6
(1790978060.494706) can0 017FFF02#7FFF7FFF00000000
(1790978060.494888) can0 02800263#7FFF8043800400F0
(1790978060.495024) can0 017FFF03#7FFF7FFF00000000
(1790978060.495259) can0 02800365#7FFF7FD27FEA00DC
(1790978060.495396) can0 017FFF04#7FFF7FFF00000000
(1790978060.495621) can0 02800467#7FFE7FE5800400F0
(1790978060.495753) can0 017FFF05#7FE87FFF051F147B
(1790978060.495985) can0 02800569#7FFE7FA77F4E00F0
(1790978060.499392) can0 017FFF01#7FFF7FFF00000000
(1790978060.499569) can0 02800161#8000802C800600E6
(1790978060.499705) can0 017FFF02#7FFF7FFF00000000
(1790978060.499884) can0 02800263#7FFE7FCB7FF900F0
(1790978060.500020) can0 017FFF03#7FFF7FFF00000000
(1790978060.500261) can0 02800365#7FFF80007FED00DC
(1790978060.500398) can0 017FFF04#7FFF7FFF00000000
(1790978060.500620) can0 02800467#7FFF8009800200F0
(1790978060.500752) can0 017FFF05#7FE77FFF051F147B
(1790978060.500984) can0 02800569#7FFE7FAD7F3700F0
(1790978060.504391) can0 017FFF01#7FFF7FFF00000000
(1790978060.504569) can0 02800161#80007F357FFE00E6
(1790978060.504705) can0 017FFF02#7FFF7FFF00000000
(1790978060.504887) can0 02800263#7FFF801C800E00F0
(1790978060.505023) can0 017FFF03#7FFF7FFF00000000
(1790978060.505260) can0 02800365#80008023800E00DC
(1790978060.505397) can0 017FFF04#7FFF7FFF00000000
(1790978060.505623) can0 02800467#7FFF7FED7FE400F0
(1790978060.505755) can0 017FFF05#7FE67FFF051F147B
(1790978060.505985) can0 02800569#7FFE80327F3700F0
(1790978060.509392) can0 017FFF01#7FFF7FFF00000000
(1790978060.509568) can0 02800161#8000804F7FFC00E6
(1790978060.509705) can0 017FFF02#7FFF7FFF00000000
(1790978060.509888) can0 02800263#7FFF7FCE800400F0
(1790978060.510024) can0 017FFF03#7FFF7FFF00000000
(1790978060.510260) can0 02800365#7FFF7FC5801900DC
(1790978060.510397) can0 017FFF04#7FFF7FFF00000000
(1790978060.510619) can0 02800467#7FFF801D7FCD00F0
(1790978060.510751) can0 017FFF05#7FE67FFF051F147B
(1790978060.510990) can0 02800569#7FFE80067F3E00F0
(1790978060.514392) can0 017FFF01#7FFF7FFF00000000
(1790978060.514568) can0 02800161#80007F64800D00E6
(1790978060.514705) can0 017FFF02#7FFF7FFF00000000
(1790978060.514888) can0 02800263#7FFF7FFD800800F0
(1790978060.515024) can0 017FFF03#7FFF7FFF00000000
(1790978060.515260) can0 02800365#7FFF802D7FEE00DC
(1790978060.515397) can0 017FFF04#7FFF7FFF00000000
(1790978060.515619) can0 02800467#7FFE7FF77FFB00F0
(1790978060.515751) can0 017FFF05#7FE57FFF051F147B
(1790978060.515985) can0 02800569#7FFE7FF37F2700F0
(1790978060.519391) can0 017FFF01#7FFF7FFF00000000
(1790978060.519568) can0 02800161#80007FA3800500E6
(1790978060.519704) can0 017FFF02#7FFF7FFF00000000
(1790978060.519886) can0 02800263#7FFE7FFA7FF900F0
(1790978060.520022) can0 017FFF03#7FFF7FFF00000000
(1790978060.520260) can0 02800365#7FFF7FAC800600DC
(1790978060.520397) can0 017FFF04#7FFF7FFF00000000
(1790978060.520620) can0 02800467#7FFF803F7FB200F0
(1790978060.520752) can0 017FFF05#7FE47FFF051F147B
(1790978060.520986) can0 02800569#7FFE7FF27F3900F0
(1790978060.524390) can0 017FFF01#7FFF7FFF00000000
(1790978060.524570) can0 02800161#8000804A800A00E6
(1790978060.524706) can0 017FFF02#7FFF7FFF00000000
(1790978060.524885) can0 02800263#7FFE7FD97FF500F0
(1790978060.525022) can0 017FFF03#7FFF7FFF00000000
(1790978060.525260) can0 02800365#7FFF7FCB7FD800DC
(1790978060.525397) can0 017FFF04#7FFF7FFF00000000
(1790978060.525618) can0 02800467#7FFF7F6F7FD300F0
(1790978060.525749) can0 017FFF05#7FE47FFF051F147B
(1790978060.525985) can0 02800569#7FFE7FE77F0D00F0
(1790978060.529390) can0 017FFF01#7FFF7FFF00000000
(1790978060.529568) can0 02800161#80007FC7800800E6
(1790978060.529704) can0 017FFF02#7FFF7FFF00000000
(1790978060.529883) can0 02800263#7FFE7F657FEE00F0
(1790978060.530020) can0 017FFF03#7FFF7FFF00000000
(1790978060.530262) can0 02800365#7FFF7FEF800400DC
(1790978060.530399) can0 017FFF04#7FFF7FFF00000000
(1790978060.530619) can0 02800467#7FFF801A7FF200F0
(1790978060.530750) can0 017FFF05#7FE37FFF051F147B
(1790978060.530985) can0 02800569#7FFE80237F0900F0
(1790978060.534391) can0 017FFF01#7FFF7FFF00000000
(1790978060.534567) can0 02800161#8000809D800E00E6
(1790978060.534704) can0 017FFF02#7FFF7FFF00000000
(1790978060.534887) can0 02800263#7FFE80397FFC00F0
(1790978060.535024) can0 017FFF03#7FFF7FFF00000000
(1790978060.535260) can0 02800365#7FFF7FC7800500DC
(1790978060.535398) can0 017FFF04#7FFF7FFF00000000
(1790978060.535621) can0 02800467#7FFF80177FF700F0
(1790978060.535753) can0 017FFF05#7FE27FFF051F147B
(1790978060.535988) can0 02800569#7FFD7FDC7F2900F0
(1790978060.539392) can0 017FFF01#7FFF7FFF00000000
(1790978060.539568) can0 02800161#7FFF7F4A800700E6
(1790978060.539704) can0 017FFF02#7FFF7FFF00000000
(1790978060.539883) can0 02800263#7FFE7FC37FF700F0
(1790978060.540020) can0 017FFF03#7FFF7FFF00000000
(1790978060.540259) can0 02800365#7FFF8014800500DC
(1790978060.540397) can0 017FFF04#7FFF7FFF00000000
(1790978060.540620) can0 02800467#7FFF7FD87FED00F0
(1790978060.540752) can0 017FFF05#7FE27FFF051F147B
(1790978060.540988) can0 02800569#7FFE7FE27F0800F0
(1790978060.544391) can0 017FFF01#7FFF7FFF00000000
(1790978060.544569) can0 02800161#8000806D7FEF00E6
(1790978060.544704) can0 017FFF02#7FFF7FFF00000000
(1790978060.544885) can0 02800263#7FFF80347FFB00F0
(1790978060.545022) can0 017FFF03#7FFF7FFF00000000
(1790978060.545259) can0 02800365#7FFF806D7FF300DC
(1790978060.545397) can0 017FFF04#7FFF7FFF00000000
(1790978060.545619) can0 02800467#7FFF7FB97FF100F0
(1790978060.545752) can0 017FFF05#7FE17FFF051F147B
(1790978060.545988) can0 02800569#7FFD7FFF7F1700F0
(1790978060.549392) can0 017FFF01#7FFF7FFF00000000
(1790978060.549569) can0 02800161#80008004800000E6
(1790978060.549705) can0 017FFF02#7FFF7FFF00000000
(1790978060.549885) can0 02800263#7FFF80C57FEF00F0
(1790978060.550021) can0 017FFF03#7FFF7FFF00000000
(1790978060.550262) can0 02800365#7FFF7FFE800800DC
(1790978060.550400) can0 017FFF04#7FFF7FFF00000000
(1790978060.550619) can0 02800467#7FFF8033806400F0
(1790978060.550752) can0 017FFF05#7FE07FFF051F147B
(1790978060.550985) can0 02800569#7FFD80297F2100F0
(1790978060.554392) can0 017FFF01#7FFF7FFF00000000
(1790978060.554568) can0 02800161#8000803F7FF900E6
(1790978060.554704) can0 017FFF02#7FFF7FFF00000000
(1790978060.554887) can0 02800263#7FFE8010801C00F0
(1790978060.555023) can0 017FFF03#7FFF7FFF00000000
(1790978060.555260) can0 02800365#7FFF7FE67FE200DC
(1790978060.555397) can0 017FFF04#7FFF7FFF00000000
(1790978060.555619) can0 02800467#7FFF80667FC700F0
(1790978060.555752) can0 017FFF05#7FE07FFF051F147B
(1790978060.555986) can0 02800569#7FFD7FDB7F0100F0
(1790978060.559391) can0 017FFF01#7FFF7FFF00000000
(1790978060.559567) can0 02800161#800080237FF900E6
(1790978060.559703) can0 017FFF02#7FFF7FFF00000000
(1790978060.559884) can0 02800263#7FFE7FD47FF500F0
(1790978060.560020) can0 017FFF03#7FFF7FFF00000000
(1790978060.560260) can0 02800365#7FFF7FF0800500DC
(1790978060.560398) can0 017FFF04#7FFF7FFF00000000
(1790978060.560618) can0 02800467#7FFF8089800F00F0
(1790978060.560749) can0 017FFF05#7FDF7FFF051F147B
(1790978060.560987) can0 02800569#7FFE80177F0500F0
(1790978060.564392) can0 017FFF01#7FFF7FFF00000000
(1790978060.564568) can0 02800161#80007FDC800200E6
(1790978060.564703) can0 017FFF02#7FFF7FFF00000000
(1790978060.564885) can0 02800263#7FFE80307FD300F0
(1790978060.565021) can0 017FFF03#7FFF7FFF00000000
(1790978060.565261) can0 02800365#7FFF7FED7FE900DC
(1790978060.565398) can0 017FFF04#7FFF7FFF00000000
(1790978060.565619) can0 02800467#7FFF805F7FD100F0
(1790978060.565751) can0 017FFF05#7FDE7FFF051F147B
(1790978060.565984) can0 02800569#7FFD7FDD7EE100F0
(1790978060.569389) can0 017FFF01#7FFF7FFF00000000
(1790978060.569568) can0 02800161#800080447FF400E6
(1790978060.569704) can0 017FFF02#7FFF7FFF00000000
(1790978060.569884) can0 02800263#7FFE7F99800300F0
(1790978060.570020) can0 017FFF03#7FFF7FFF00000000
(1790978060.570261) can0 02800365#7FFF8032800C00DC
(1790978060.570398) can0 017FFF04#7FFF7FFF00000000
(1790978060.570622) can0 02800467#7FFF800F803600F0
(1790978060.570754) can0 017FFF05#7FDE7FFF051F147B
(1790978060.570987) can0 02800569#7FFD80057EF400F0
(1790978060.574409) can0 017FFF01#7FFF7FFF00000000
(1790978060.574564) can0 02800161#7FFF7FB9800600E6
(1790978060.574705) can0 017FFF02#7FFF7FFF00000000
(1790978060.574886) can0 02800263#7FFF807F800500F0
(1790978060.575022) can0 017FFF03#7FFF7FFF00000000
(1790978060.575260) can0 02800365#7FFF7FDA7FF900DC
(1790978060.575397) can0 017FFF04#7FFF7FFF00000000
(1790978060.575620) can0 02800467#7FFF80797FFD00F0
(1790978060.575751) can0 017FFF05#7FDD7FFF051F147B
(1790978060.575986) can0 02800569#7FFD7FAD7EE400F0
(1790978060.579400) can0 017FFF01#7FFF7FFF00000000
(1790978060.579569) can0 02800161#80008033801100E6
(1790978060.579704) can0 017FFF02#7FFF7FFF00000000
(1790978060.579885) can0 02800263#7FFF80217FF700F0
(1790978060.580021) can0 017FFF03#7FFF7FFF00000000
(1790978060.580260) can0 02800365#7FFF7FE37FF500DC
(1790978060.580397) can0 017FFF04#7FFF7FFF00000000
(1790978060.580621) can0 02800467#7FFF801B7FF500F0
(1790978060.580752) can0 017FFF05#7FDC7FFF051F147B
(1790978060.580986) can0 02800569#7FFD80067EE000F0
(1790978060.584400) can0 017FFF01#7FFF7FFF00000000
(1790978060.584563) can0 02800161#80007FB3800A00E6
(1790978060.584704) can0 017FFF02#7FFF7FFF00000000
(1790978060.584887) can0 02800263#7FFF80B2800800F0
(1790978060.585023) can0 017FFF03#7FFF7FFF00000000
(1790978060.585260) can0 02800365#7FFF7FFE7FFE00DC
(1790978060.585397) can0 017FFF04#7FFF7FFF00000000
(1790978060.585616) can0 02800467#7FFF7FDA805D00F0
(1790978060.585747) can0 017FFF05#7FDC7FFF051F147B
(1790978060.585985) can0 02800569#7FFD7FD77EED00F0
(1790978060.589400) can0 017FFF01#7FFF7FFF00000000
(1790978060.589569) can0 02800161#7FFF7F317FF000E6
(1790978060.589704) can0 017FFF02#7FFF7FFF00000000
(1790978060.589884) can0 02800263#7FFE7F67801B00F0
(1790978060.590020) can0 017FFF03#7FFF7FFF00000000
(1790978060.590260) can0 02800365#7FFF7FAF7FE100DC
(1790978060.590397) can0 017FFF04#7FFF7FFF00000000
(1790978060.590621) can0 02800467#7FFF7FEA800D00F0
(1790978060.590752) can0 017FFF05#7FDB7FFF051F147B
(1790978060.590984) can0 02800569#7FFD802B7EEF00F0
(1790978060.594398) can0 017FFF01#7FFF7FFF00000000
(1790978060.594570) can0 02800161#8000800C7FF000E6
(1790978060.594707) can0 017FFF02#7FFF7FFF00000000
(1790978060.594883) can0 02800263#7FFE80B7801600F0
(1790978060.595019) can0 017FFF03#7FFF7FFF00000000
(1790978060.595260) can0 02800365#7FFF7FEA800F00DC
(1790978060.595397) can0 017FFF04#7FFF7FFF00000000
(1790978060.595620) can0 02800467#7FFF7FF87FDD00F0
(1790978060.595751) can0 017FFF05#7FDA7FFF051F147B
(1790978060.595987) can0 02800569#7FFD804A7EBC00F0
(1790978060.599402) can0 017FFF01#7FFF7FFF00000000
(1790978060.599563) can0 02800161#80008096800400E6
(1790978060.599704) can0 017FFF02#7FFF7FFF00000000
(1790978060.599887) can0 02800263#7FFF7FF77FE800F0
(1790978060.600023) can0 017FFF03#7FFF7FFF00000000
(1790978060.600259) can0 02800365#7FFF80267FED00DC
(1790978060.600396) can0 017FFF04#7FFF7FFF00000000
(1790978060.600622) can0 02800467#7FFF802A7FBC00F0
(1790978060.600754) can0 017FFF05#7FDA7FFF051F147B
(1790978060.600985) can0 02800569#7FFD7FE37EA500F0
(1790978060.604396) can0 017FFF01#7FFF7FFF00000000
(1790978060.604570) can0 02800161#80008005800E00E6
(1790978060.604706) can0 017FFF02#7FFF7FFF00000000
(1790978060.604884) can0 02800263#7FFE7F99800600F0
(1790978060.605021) can0 017FFF03#7FFF7FFF00000000
(1790978060.605261) can0 02800365#7FFF7FEF7FE000DC
(1790978060.605398) can0 017FFF04#7FFF7FFF00000000
(1790978060.605618) can0 02800467#7FFE80087FF500F0
(1790978060.605749) can0 017FFF05#7FD97FFF051F147B
(1790978060.605984) can0 02800569#7FFD802A7EC300F0
(1790978060.609397) can0 017FFF01#7FFF7FFF00000000
(1790978060.609568) can0 02800161#80007F4D801200E6
(1790978060.609704) can0 017FFF02#7FFF7FFF00000000
(1790978060.609884) can0 02800263#7FFE7F4C7FEA00F0
(1790978060.610020) can0 017FFF03#7FFF7FFF00000000
(1790978060.610259) can0 02800365#7FFF80257FF900DC
(1790978060.610396) can0 017FFF04#7FFF7FFF00000000
(1790978060.610621) can0 02800467#7FFF7FCC7FE400F0
(1790978060.610752) can0 017FFF05#7FD97FFF051F147B
(1790978060.610985) can0 02800569#7FFD7FD67ECB00F0
(1790978060.614397) can0 017FFF01#7FFF7FFF00000000
(1790978060.614566) can0 02800161#7FFF7FC5800200E6
(1790978060.614703) can0 017FFF02#7FFF7FFF00000000
(1790978060.614883) can0 02800263#7FFE7F7F7FF500F0
(1790978060.615020) can0 017FFF03#7FFF7FFF00000000
(1790978060.615261) can0 02800365#7FFF80187FEC00DC
(1790978060.615398) can0 017FFF04#7FFF7FFF00000000
(1790978060.615619) can0 02800467#7FFF7FE57FFE00F0
(1790978060.615750) can0 017FFF05#7FD87FFF051F147B
(1790978060.615985) can0 02800569#7FFD7FE17ED300F0
(1790978060.619393) can0 017FFF01#7FFF7FFF00000000
(1790978060.619567) can0 02800161#80007FF37FEF00E6
(1790978060.619704) can0 017FFF02#7FFF7FFF00000000
(1790978060.619882) can0 02800263#7FFE7FA47FF100F0
(1790978060.620019) can0 017FFF03#7FFF7FFF00000000
(1790978060.620261) can0 02800365#7FFF80037FF800DC
(1790978060.620398) can0 017FFF04#7FFF7FFF00000000
(1790978060.620622) can0 02800467#7FFE7FB1803400F0
(1790978060.620753) can0 017FFF05#7FD77FFF051F147B
(1790978060.620988) can0 02800569#7FFC7FBF7EC400F0
(1790978060.624403) can0 017FFF01#7FFF7FFF00000000
(1790978060.624562) can0 02800161#800080547FFE00E6
(1790978060.624702) can0 017FFF02#7FFF7FFF00000000
(1790978060.624884) can0 02800263#7FFE80487FF300F0
(1790978060.625020) can0 017FFF03#7FFF7FFF00000000
(1790978060.625258) can0 02800365#7FFF7FDE7FE900DC
(1790978060.625396) can0 017FFF04#7FFF7FFF00000000
(1790978060.625617) can0 02800467#7FFF80297FEE00F0
(1790978060.625748) can0 017FFF05#7FD77FFF051F147B
(1790978060.625986) can0 02800569#7FFD80177EC700F0
(1790978060.629398) can0 017FFF01#7FFF7FFF00000000
(1790978060.629567) can0 02800161#800080477FF500E6
(1790978060.629704) can0 017FFF02#7FFF7FFF00000000
(1790978060.629883) can0 02800263#7FFE7F84800300F0
(1790978060.630020) can0 017FFF03#7FFF7FFF00000000
(1790978060.630262) can0 02800365#7FFF80077FFC00DC
(1790978060.630400) can0 017FFF04#7FFF7FFF00000000
(1790978060.630619) can0 02800467#7FFF7FEE7FD600F0
(1790978060.630750) can0 017FFF05#7FD67FFF051F147B
(1790978060.630985) can0 02800569#7FFC7FDA7ECD00F0
(1790978060.634394) can0 017FFF01#7FFF7FFF00000000
(1790978060.634566) can0 02800161#80007EEB7FE600E6
(1790978060.634702) can0 017FFF02#7FFF7FFF00000000
(1790978060.634886) can0 02800263#7FFE7FFE800800F0
(1790978060.635022) can0 017FFF03#7FFF7FFF00000000
(1790978060.635258) can0 02800365#80007FF9802500DC
(1790978060.635396) can0 017FFF04#7FFF7FFF00000000
(1790978060.635619) can0 02800467#7FFF8010800100F0
(1790978060.635750) can0 017FFF05#7FD57FFF051F147B
(1790978060.635988) can0 02800569#7FFC80017EB400F0
(1790978060.639395) can0 017FFF01#7FFF7FFF00000000
(1790978060.639568) can0 02800161#80007F837FFD00E6
(1790978060.639704) can0 017FFF02#7FFF7FFF00000000
(1790978060.639885) can0 02800263#7FFF807F7FFB00F0
(1790978060.640021) can0 017FFF03#7FFF7FFF00000000
(1790978060.640260) can0 02800365#7FFF800A800100DC
(1790978060.640398) can0 017FFF04#7FFF7FFF00000000
(1790978060.640619) can0 02800467#7FFF7FFD7FF100F0
(1790978060.640750) can0 017FFF05#7FD57FFF051F147B
(1790978060.640986) can0 02800569#7FFC80127EA500F0
(1790978060.644398) can0 017FFF01#7FFF7FFF00000000
(1790978060.644562) can0 02800161#80007F7C7FFB00E6
(1790978060.644703) can0 017FFF02#7FFF7FFF00000000
(1790978060.644882) can0 02800263#7FFE7F487FD800F0
(1790978060.645018) can0 017FFF03#7FFF7FFF00000000
(1790978060.645259) can0 02800365#7FFF8031800400DC
(1790978060.645397) can0 017FFF04#7FFF7FFF00000000
(1790978060.645618) can0 02800467#7FFF8061801B00F0
(1790978060.645750) can0 017FFF05#7FD47FFF051F147B
(1790978060.645985) can0 02800569#7FFC7FD97E8900F0
(1790978060.649400) can0 017FFF01#7FFF7FFF00000000
(1790978060.649561) can0 02800161#80007FC37FFB00E6
(1790978060.649702) can0 017FFF02#7FFF7FFF00000000
(1790978060.649883) can0 02800263#7FFE7FCD801800F0
(1790978060.650019) can0 017FFF03#7FFF7FFF00000000
(1790978060.650257) can0 02800365#7FFF803A7FDE00DC
(1790978060.650394) can0 017FFF04#7FFF7FFF00000000
(1790978060.650616) can0 02800467#7FFF7FFD7FCB00F0
(1790978060.650748) can0 017FFF05#7FD37FFF051F147B
(1790978060.650987) can0 02800569#7FFC80467EA100F0
(1790978060.654397) can0 017FFF01#7FFF7FFF00000000
(1790978060.654566) can0 02800161#80007F33800500E6
(1790978060.654702) can0 017FFF02#7FFF7FFF00000000
(1790978060.654883) can0 02800263#7FFE7F35800900F0
(1790978060.655019) can0 017FFF03#7FFF7FFF00000000
(1790978060.655259) can0 02800365#7FFF7FE37FF600DC
(1790978060.655396) can0 017FFF04#7FFF7FFF00000000
(1790978060.655620) can0 02800467#7FFF802C7FFC00F0
(1790978060.655751) can0 017FFF05#7FD37FFF051F147B
(1790978060.655984) can0 02800569#7FFC7FC07EA100F0
(1790978060.659396) can0 017FFF01#7FFF7FFF00000000
(1790978060.659567) can0 02800161#7FFF7F5F800700E6
(1790978060.659703) can0 017FFF02#7FFF7FFF00000000
(1790978060.659885) can0 02800263#7FFE8055800400F0
(1790978060.660021) can0 017FFF03#7FFF7FFF00000000
(1790978060.660258) can0 02800365#7FFF7FCD800F00DC
(1790978060.660395) can0 017FFF04#7FFF7FFF00000000
(1790978060.660621) can0 02800467#7FFF7FF87FE000F0
(1790978060.660745) can0 017FFF05#7FD27FFF051F147B
(1790978060.660986) can0 02800569#7FFC7FED7E8500F0
(1790978060.664397) can0 017FFF01#7FFF7FFF00000000
(1790978060.664567) can0 02800161#80007FF7801600E6
(1790978060.664703) can0 017FFF02#7FFF7FFF00000000
(1790978060.664883) can0 02800263#7FFE7FDE7FED00F0
(1790978060.665019) can0 017FFF03#7FFF7FFF00000000
(1790978060.665258) can0 02800365#7FFF8024800900DC
(1790978060.665395) can0 017FFF04#7FFF7FFF00000000
(1790978060.665617) can0 02800467#7FFF7FD0802500F0
(1790978060.665748) can0 017FFF05#7FD17FFF051F147B
(1790978060.665985) can0 02800569#7FFC7FE87E7800F0
(1790978060.669398) can0 017FFF01#7FFF7FFF00000000
(1790978060.669568) can0 02800161#80007FF27FFA00E6
(1790978060.669704) can0 017FFF02#7FFF7FFF00000000
(1790978060.669884) can0 02800263#7FFE7FB27FFA00F0
(1790978060.670020) can0 017FFF03#7FFF7FFF00000000
(1790978060.670260) can0 02800365#7FFF80487FEC00DC
(1790978060.670397) can0 017FFF04#7FFF7FFF00000000
(1790978060.670622) can0 02800467#7FFF7FE5801400F0
(1790978060.670753) can0 017FFF05#7FD17FFF051F147B
(1790978060.670984) can0 02800569#7FFC7FAD7E8D00F0
(1790978060.674402) can0 017FFF01#7FFF7FFF00000000
(1790978060.674561) can0 02800161#80008024801500E6
(1790978060.674703) can0 017FFF02#7FFF7FFF00000000
(1790978060.674883) can0 02800263#7FFE7FE2802800F0
(1790978060.675019) can0 017FFF03#7FFF7FFF00000000
(1790978060.675259) can0 02800365#7FFF7FBF800F00DC
(1790978060.675396) can0 017FFF04#7FFF7FFF00000000
(1790978060.675617) can0 02800467#7FFF8006805600F0
(1790978060.675749) can0 017FFF05#7FD07FFF051F147B
(1790978060.675984) can0 02800569#7FFB7FF37E8700F0
(1790978060.679399) can0 017FFF01#7FFF7FFF00000000
(1790978060.679560) can0 02800161#80007FB57FE600E6
(1790978060.679702) can0 017FFF02#7FFF7FFF00000000
(1790978060.679885) can0 02800263#7FFE800B801500F0
(1790978060.680021) can0 017FFF03#7FFF7FFF00000000
(1790978060.680259) can0 02800365#7FFF7FE67FF200DC
(1790978060.680396) can0 017FFF04#7FFF7FFF00000000
(1790978060.680621) can0 02800467#7FFF7FD3801400F0
(1790978060.680752) can0 017FFF05#7FCF7FFF051F147B
(1790978060.680986) can0 02800569#7FFB7FDA7E5400F0
(1790978060.684394) can0 017FFF01#7FFF7FFF00000000
(1790978060.684568) can0 02800161#80007F6E7FF400E6
(1790978060.684703) can0 017FFF02#7FFF7FFF00000000
(1790978060.684882) can0 02800263#7FFE7FC1800300F0
(1790978060.685019) can0 017FFF03#7FFF7FFF00000000
(1790978060.685259) can0 02800365#80007FFB7FEF00DC
(1790978060.685396) can0 017FFF04#7FFF7FFF00000000
(1790978060.685618) can0 02800467#7FFE7FDA7FED00F0
(1790978060.685749) can0 017FFF05#7FCF7FFF051F147B
(1790978060.685985) can0 02800569#7FFC7FD97E9300F0
(1790978060.689401) can0 017FFF01#7FFF7FFF00000000
(1790978060.689570) can0 02800161#80008074800800E6
(1790978060.689705) can0 017FFF02#7FFF7FFF00000000
(1790978060.689882) can0 02800263#7FFF80757FF500F0
(1790978060.690018) can0 017FFF03#7FFF7FFF00000000
(1790978060.690260) can0 02800365#7FFF7FE6801400DC
(1790978060.690397) can0 017FFF04#7FFF7FFF00000000
(1790978060.690621) can0 02800467#7FFF805C7FF400F0
(1790978060.690752) can0 017FFF05#7FCE7FFF051F147B
(1790978060.690985) can0 02800569#7FFB800F7E7000F0
(1790978060.694400) can0 017FFF01#7FFF7FFF00000000
(1790978060.694561) can0 02800161#80007EFC800A00E6
(1790978060.694703) can0 017FFF02#7FFF7FFF00000000
(1790978060.694883) can0 02800263#7FFE7F99801800F0
(1790978060.695019) can0 017FFF03#7FFF7FFF00000000
(1790978060.695262) can0 02800365#7FFF7FC07FFA00DC
(1790978060.695399) can0 017FFF04#7FFF7FFF00000000
(1790978060.695621) can0 02800467#7FFF7FE67FFC00F0
(1790978060.695752) can0 017FFF05#7FCD7FFF051F147B
(1790978060.695985) can0 02800569#7FFC801C7E5B00F0
(1790978060.699400) can0 017FFF01#7FFF7FFF00000000
(1790978060.699560) can0 02800161#80007F9D800100E6
(1790978060.699702) can0 017FFF02#7FFF7FFF00000000
(1790978060.699882) can0 02800263#7FFE7F947FFD00F0
(1790978060.700018) can0 017FFF03#7FFF7FFF00000000
(1790978060.700258) can0 02800365#7FFF7FD77FFB00DC
(1790978060.700395) can0 017FFF04#7FFF7FFF00000000
(1790978060.700618) can0 02800467#7FFF805D801800F0
(1790978060.700749) can0 017FFF05#7FCD7FFF051F147B
(1790978060.700985) can0 02800569#7FFB7FF47E7100F0
(1790978060.704400) can0 017FFF01#7FFF7FFF00000000
(1790978060.704563) can0 02800161#8000800D800000E6
(1790978060.704704) can0 017FFF02#7FFF7FFF00000000
(1790978060.704883) can0 02800263#7FFE7FF0800100F0
(1790978060.705019) can0 017FFF03#7FFF7FFF00000000
(1790978060.705259) can0 02800365#7FFF80557FFE00DC
(1790978060.705396) can0 017FFF04#7FFF7FFF00000000
(1790978060.705616) can0 02800467#7FFF7FC8802D00F0
(1790978060.705747) can0 017FFF05#7FCC7FFF051F147B
(1790978060.705983) can0 02800569#7FFC801C7E5500F0
(1790978060.709398) can0 017FFF01#7FFF7FFF00000000
(1790978060.709566) can0 02800161#80007FA1800800E6
(1790978060.709703) can0 017FFF02#7FFF7FFF00000000
(1790978060.709881) can0 02800263#7FFE80387FF000F0
(1790978060.710018) can0 017FFF03#7FFF7FFF00000000
(1790978060.710259) can0 02800365#7FFF8048801800DC
(1790978060.710396) can0 017FFF04#7FFF7FFF00000000
(1790978060.710619) can0 02800467#7FFF805B802800F0
(1790978060.710750) can0 017FFF05#7FCB7FFF051F147B
(1790978060.710985) can0 02800569#7FFB7FD97E6500F0
(1790978060.714397) can0 017FFF01#7FFF7FFF00000000
(1790978060.714566) can0 02800161#80008019800900E6
(1790978060.714703) can0 017FFF02#7FFF7FFF00000000
(1790978060.714881) can0 02800263#7FFE80537FE800F0
(1790978060.715018) can0 017FFF03#7FFF7FFF00000000
(1790978060.715260) can0 02800365#7FFF8005800700DC
(1790978060.715397) can0 017FFF04#7FFF7FFF00000000
(1790978060.715619) can0 02800467#7FFF8005800200F0
(1790978060.715750) can0 017FFF05#7FCB7FFF051F147B
(1790978060.715983) can0 02800569#7FFC80377E5000F0
(1790978060.719400) can0 017FFF01#7FFF7FFF00000000
(1790978060.719560) can0 02800161#80007F577FFA00E6
(1790978060.719702) can0 017FFF02#7FFF7FFF00000000
(1790978060.719883) can0 02800263#7FFF80847FFF00F0
(1790978060.720020) can0 017FFF03#7FFF7FFF00000000
(1790978060.720260) can0 02800365#7FFF7FEF801600DC
(1790978060.720397) can0 017FFF04#7FFF7FFF00000000
(1790978060.720618) can0 02800467#7FFF7F937FDA00F0
(1790978060.720749) can0 017FFF05#7FCC7FFF051F147B
(1790978060.720984) can0 02800569#7FFB80267E2900F0
(1790978060.724402) can0 017FFF01#7FFF7FFF00000000
(1790978060.724562) can0 02800161#7FFF7F1B800A00E6
(1790978060.724703) can0 017FFF02#7FFF7FFF00000000
(1790978060.724881) can0 02800263#7FFE809A7FF300F0
(1790978060.725017) can0 017FFF03#7FFF7FFF00000000
(1790978060.725260) can0 02800365#7FFF7FE17FF700DC
(1790978060.725398) can0 017FFF04#7FFF7FFF00000000
(1790978060.725617) can0 02800467#7FFF7FF9802200F0
(1790978060.725748) can0 017FFF05#7FCC7FFF051F147B
(1790978060.725987) can0 02800569#7FFC7FF47E8400F0
(1790978060.729401) can0 017FFF01#7FFF7FFF00000000
(1790978060.729561) can0 02800161#800080927FF200E6
(1790978060.729702) can0 017FFF02#7FFF7FFF00000000
(1790978060.729881) can0 02800263#7FFE7FCF800F00F0
(1790978060.730017) can0 017FFF03#7FFF7FFF00000000
(1790978060.730259) can0 02800365#7FFF7FEC800700DC
(1790978060.730397) can0 017FFF04#7FFF7FFF00000000
(1790978060.730620) can0 02800467#7FFF7FAD801800F0
(1790978060.730751) can0 017FFF05#7FCD7FFF051F147B
(1790978060.730985) can0 02800569#7FFB7FDA7E8200F0
(1790978060.734398) can0 017FFF01#7FFF7FFF00000000
(1790978060.734567) can0 02800161#800081B47FE800E6
(1790978060.734703) can0 017FFF02#7FFF7FFF00000000
(1790978060.734884) can0 02800263#7FFF80077FDC00F0
(1790978060.735020) can0 017FFF03#7FFF7FFF00000000
(1790978060.735258) can0 02800365#7FFF7FC77FF200DC
(1790978060.735396) can0 017FFF04#7FFF7FFF00000000
(1790978060.735619) can0 02800467#7FFF8022800A00F0
(1790978060.735750) can0 017FFF05#7FCD7FFF051F147B
(1790978060.735987) can0 02800569#7FFB80207E6400F0
(1790978060.739397) can0 017FFF01#7FFF7FFF00000000
(1790978060.739566) can0 02800161#800080567FF700E6
(1790978060.739702) can0 017FFF02#7FFF7FFF00000000
(1790978060.739882) can0 02800263#7FFE805F801100F0
(1790978060.740018) can0 017FFF03#7FFF7FFF00000000
(1790978060.740260) can0 02800365#7FFF80107FEE00DC
(1790978060.740398) can0 017FFF04#7FFF7FFF00000000
(1790978060.740621) can0 02800467#7FFF8009801800F0
(1790978060.740752) can0 017FFF05#7FCE7FFF051F147B
(1790978060.740984) can0 02800569#7FFB805D7E7200F0
(1790978060.744400) can0 017FFF01#7FFF7FFF00000000
(1790978060.744561) can0 02800161#80007FAD801A00E6
(1790978060.744702) can0 017FFF02#7FFF7FFF00000000
(1790978060.744880) can0 02800263#7FFE7FDB7FF300F0
(1790978060.745017) can0 017FFF03#7FFF7FFF00000000
(1790978060.745259) can0 02800365#7FFF7FC2800800DC
(1790978060.745396) can0 017FFF04#7FFF7FFF00000000
(1790978060.745619) can0 02800467#7FFF7FFD802400F0
(1790978060.745751) can0 017FFF05#7FCF7FFF051F147B
(1790978060.745987) can0 02800569#7FFB80257E3E00F0
(1790978060.749400) can0 017FFF01#7FFF7FFF00000000
(1790978060.749562) can0 02800161#80008132800400E6
(1790978060.749703) can0 017FFF02#7FFF7FFF00000000
(1790978060.749881) can0 02800263#7FFE8008802800F0
(1790978060.750017) can0 017FFF03#7FFF7FFF00000000
(1790978060.750260) can0 02800365#7FFF800A7FF800DC
(1790978060.750397) can0 017FFF04#7FFF7FFF00000000
(1790978060.750621) can0 02800467#7FFE7FE8800400F0
(1790978060.750753) can0 017FFF05#7FCF7FFF051F147B
(1790978060.750984) can0 02800569#7FFB7FFE7E4E00F0
(1790978060.754398) can0 017FFF01#7FFF7FFF00000000
(1790978060.754567) can0 02800161#7FFF7FF5800300E6
(1790978060.754703) can0 017FFF02#7FFF7FFF00000000
(1790978060.754881) can0 02800263#7FFE805B7FE200F0
(1790978060.755017) can0 017FFF03#7FFF7FFF00000000
(1790978060.755258) can0 02800365#7FFF7FCA801C00DC
(1790978060.755395) can0 017FFF04#7FFF7FFF00000000
(1790978060.755618) can0 02800467#7FFF7FF67FF700F0
(1790978060.755751) can0 017FFF05#7FD07FFF051F147B
(1790978060.755985) can0 02800569#7FFC7FFB7E7200F0
(1790978060.759395) can0 017FFF01#7FFF7FFF00000000
(1790978060.759565) can0 02800161#8000802F7FF200E6
(1790978060.759701) can0 017FFF02#7FFF7FFF00000000
(1790978060.759882) can0 02800263#7FFE7F79800E00F0
(1790978060.760018) can0 017FFF03#7FFF7FFF00000000
(1790978060.760259) can0 02800365#7FFF801F800B00DC
(1790978060.760396) can0 017FFF04#7FFF7FFF00000000
(1790978060.760619) can0 02800467#7FFF8011803000F0
(1790978060.760743) can0 017FFF05#7FD17FFF051F147B
(1790978060.760984) can0 02800569#7FFB7FED7E5E00F0
(1790978060.764396) can0 017FFF01#7FFF7FFF00000000
(1790978060.764565) can0 02800161#80008033800300E6
(1790978060.764701) can0 017FFF02#7FFF7FFF00000000
(1790978060.764884) can0 02800263#7FFE8019801400F0
(1790978060.765020) can0 017FFF03#7FFF7FFF00000000
(1790978060.765259) can0 02800365#7FFF7FDD7FFE00DC
(1790978060.765396) can0 017FFF04#7FFF7FFF00000000
(1790978060.765618) can0 02800467#7FFF80337FFF00F0
(1790978060.765749) can0 017FFF05#7FD17FFF051F147B
(1790978060.765985) can0 02800569#7FFB7FF37EB700F0
(1790978060.769400) can0 017FFF01#7FFF7FFF00000000
(1790978060.769560) can0 02800161#80008026800100E6
(1790978060.769702) can0 017FFF02#7FFF7FFF00000000
(1790978060.769882) can0 02800263#7FFE804D7FF400F0
(1790978060.770019) can0 017FFF03#7FFF7FFF00000000
(1790978060.770258) can0 02800365#7FFF80257FEE00DC
(1790978060.770395) can0 017FFF04#7FFF7FFF00000000
(1790978060.770617) can0 02800467#7FFF8052800E00F0
(1790978060.770748) can0 017FFF05#7FD27FFF051F147B
(1790978060.770982) can0 02800569#7FFB80217E7600F0
(1790978060.774405) can0 017FFF01#7FFF7FFF00000000
(1790978060.774559) can0 02800161#80007FAE7FFB00E6
(1790978060.774701) can0 017FFF02#7FFF7FFF00000000
(1790978060.774884) can0 02800263#7FFF801B7FF200F0
(1790978060.775020) can0 017FFF03#7FFF7FFF00000000
(1790978060.775262) can0 02800365#7FFF7FE0800200DC
(1790978060.775399) can0 017FFF04#7FFF7FFF00000000
(1790978060.775617) can0 02800467#7FFF80457FF700F0
(1790978060.775748) can0 017FFF05#7FD37FFF051F147B
(1790978060.775986) can0 02800569#7FFB80017EBD00F0
(1790978060.779398) can0 017FFF01#7FFF7FFF00000000
(1790978060.779567) can0 02800161#800080AA800400E6
(1790978060.779702) can0 017FFF02#7FFF7FFF00000000
(1790978060.779880) can0 02800263#7FFE80AD7FD100F0
(1790978060.780017) can0 017FFF03#7FFF7FFF00000000
(1790978060.780261) can0 02800365#80007FF0800000DC
(1790978060.780398) can0 017FFF04#7FFF7FFF00000000
(1790978060.780618) can0 02800467#7FFF80187FF900F0
(1790978060.780749) can0 017FFF05#7FD37FFF051F147B
(1790978060.780986) can0 02800569#7FFB800B7E8F00F0
(1790978060.784397) can0 017FFF01#7FFF7FFF00000000
(1790978060.784568) can0 02800161#80007F807FF800E6
(1790978060.784703) can0 017FFF02#7FFF7FFF00000000
(1790978060.784884) can0 02800263#7FFE807E7FF800F0
(1790978060.785021) can0 017FFF03#7FFF7FFF00000000
(1790978060.785260) can0 02800365#7FFF8009800C00DC
(1790978060.785397) can0 017FFF04#7FFF7FFF00000000
(1790978060.785615) can0 02800467#7FFE7F94801500F0
(1790978060.785746) can0 017FFF05#7FD47FFF051F147B
(1790978060.785985) can0 02800569#7FFB7FD17E9800F0
(1790978060.789399) can0 017FFF01#7FFF7FFF00000000
(1790978060.789567) can0 02800161#80007FEB801C00E6
(1790978060.789703) can0 017FFF02#7FFF7FFF00000000
(1790978060.789880) can0 02800263#7FFE7F8B7FDF00F0
(1790978060.790017) can0 017FFF03#7FFF7FFF00000000
(1790978060.790258) can0 02800365#7FFF804F7FF300DC
(1790978060.790395) can0 017FFF04#7FFF7FFF00000000
(1790978060.790617) can0 02800467#7FFF8027800500F0
(1790978060.790748) can0 017FFF05#7FD57FFF051F147B
(1790978060.790983) can0 02800569#7FFB7FBC7E9A00F0
(1790978060.794396) can0 017FFF01#7FFF7FFF00000000
(1790978060.794565) can0 02800161#80007F7E800700E6
(1790978060.794701) can0 017FFF02#7FFF7FFF00000000
(1790978060.794880) can0 02800263#7FFE7FF67FDA00F0
(1790978060.795016) can0 017FFF03#7FFF7FFF00000000
(1790978060.795259) can0 02800365#7FFF7FDE800400DC
(1790978060.795396) can0 017FFF04#7FFF7FFF00000000
(1790978060.795617) can0 02800467#7FFF7FD4801300F0
(1790978060.795748) can0 017FFF05#7FD57FFF051F147B
(1790978060.795984) can0 02800569#7FFB80007E8E00F0
(1790978060.799393) can0 017FFF01#7FFF7FFF00000000
(1790978060.799565) can0 02800161#80007FDF7FF100E6
(1790978060.799701) can0 017FFF02#7FFF7FFF00000000
(1790978060.799882) can0 02800263#7FFF80187FF300F0
(1790978060.800019) can0 017FFF03#7FFF7FFF00000000
(1790978060.800259) can0 02800365#7FFF7FE07FD600DC
(1790978060.800397) can0 017FFF04#7FFF7FFF00000000
(1790978060.800618) can0 02800467#7FFF7FF57FF900F0
(1790978060.800749) can0 017FFF05#7FD67FFF051F147B
(1790978060.800983) can0 02800569#7FFB80297E9F00F0
(1790978060.804391) can0 017FFF01#7FFF7FFF00000000
(1790978060.804566) can0 02800161#8000803C800E00E6
(1790978060.804702) can0 017FFF02#7FFF7FFF00000000
(1790978060.804882) can0 02800263#7FFE7FFF7FFA00F0
(1790978060.805018) can0 017FFF03#7FFF7FFF00000000
(1790978060.805259) can0 02800365#7FFF7FFD7FF400DC
(1790978060.805397) can0 017FFF04#7FFF7FFF00000000
(1790978060.805618) can0 02800467#7FFF7FAD802C00F0
(1790978060.805750) can0 017FFF05#7FD77FFF051F147B
(1790978060.805983) can0 02800569#7FFB7FDE7EA600F0
(1790978060.809397) can0 017FFF01#7FFF7FFF00000000
(1790978060.809565) can0 02800161#80007FCB801900E6
(1790978060.809700) can0 017FFF02#7FFF7FFF00000000
(1790978060.809880) can0 02800263#7FFE803D7FF300F0
(1790978060.810016) can0 017FFF03#7FFF7FFF00000000
(1790978060.810258) can0 02800365#7FFF801A800100DC
(1790978060.810396) can0 017FFF04#7FFF7FFF00000000
(1790978060.810617) can0 02800467#7FFF7FF87FE100F0
(1790978060.810749) can0 017FFF05#7FD77FFF051F147B
(1790978060.810984) can0 02800569#7FFC7FE57EC700F0
(1790978060.814397) can0 017FFF01#7FFF7FFF00000000
(1790978060.814568) can0 02800161#80008014800400E6
(1790978060.814704) can0 017FFF02#7FFF7FFF00000000
(1790978060.814882) can0 02800263#7FFE7F64800C00F0
(1790978060.815018) can0 017FFF03#7FFF7FFF00000000
(1790978060.815260) can0 02800365#7FFF801F7FDC00DC
(1790978060.815397) can0 017FFF04#7FFF7FFF00000000
(1790978060.815618) can0 02800467#7FFF7FE9804400F0
(1790978060.815750) can0 017FFF05#7FD87FFF051F147B
(1790978060.815988) can0 02800569#7FFB7FE17ED400F0
(1790978060.819398) can0 017FFF01#7FFF7FFF00000000
(1790978060.819566) can0 02800161#80008083800300E6
(1790978060.819702) can0 017FFF02#7FFF7FFF00000000
(1790978060.819882) can0 02800263#7FFE7FCB801400F0
(1790978060.820018) can0 017FFF03#7FFF7FFF00000000
(1790978060.820258) can0 02800365#7FFF7FEC800F00DC
(1790978060.820395) can0 017FFF04#7FFF7FFF00000000
(1790978060.820615) can0 02800467#7FFF8036802E00F0
(1790978060.820746) can0 017FFF05#7FD97FFF051F147B
(1790978060.820982) can0 02800569#7FFB7FA67EB700F0
(1790978060.824402) can0 017FFF01#7FFF7FFF00000000
(1790978060.824561) can0 02800161#80007FEE800400E6
(1790978060.824702) can0 017FFF02#7FFF7FFF00000000
(1790978060.824883) can0 02800263#7FFE7F53800400F0
(1790978060.825019) can0 017FFF03#7FFF7FFF00000000
(1790978060.825257) can0 02800365#7FFF80257FEE00DC
(1790978060.825394) can0 017FFF04#7FFF7FFF00000000
(1790978060.825616) can0 02800467#7FFF7FF37FFD00F0
(1790978060.825748) can0 017FFF05#7FD97FFF051F147B
(1790978060.825984) can0 02800569#7FFB7FFE7EB300F0
(1790978060.829398) can0 017FFF01#7FFF7FFF00000000
(1790978060.829567) can0 02800161#800080FD7FE400E6
(1790978060.829703) can0 017FFF02#7FFF7FFF00000000
(1790978060.829881) can0 02800263#7FFE7FD47FFA00F0
(1790978060.830017) can0 017FFF03#7FFF7FFF00000000
(1790978060.830257) can0 02800365#7FFF8026801B00DC
(1790978060.830394) can0 017FFF04#7FFF7FFF00000000
(1790978060.830616) can0 02800467#7FFF803E800500F0
(1790978060.830748) can0 017FFF05#7FDA7FFF051F147B
(1790978060.830983) can0 02800569#7FFB80157EB500F0
(1790978060.834393) can0 017FFF01#7FFF7FFF00000000
(1790978060.834564) can0 02800161#80007FCB801600E6
(1790978060.834700) can0 017FFF02#7FFF7FFF00000000
(1790978060.834882) can0 02800263#7FFE7FE5801000F0
(1790978060.835018) can0 017FFF03#7FFF7FFF00000000
(1790978060.835258) can0 02800365#7FFF801A7FF200DC
(1790978060.835395) can0 017FFF04#7FFF7FFF00000000
(1790978060.835616) can0 02800467#7FFE800B803800F0
(1790978060.835748) can0 017FFF05#7FDB7FFF051F147B
(1790978060.835982) can0 02800569#7FFC80227EA900F0
(1790978060.839396) can0 017FFF01#7FFF7FFF00000000
(1790978060.839565) can0 02800161#8000807B7FF700E6
(1790978060.839701) can0 017FFF02#7FFF7FFF00000000
(1790978060.839883) can0 02800263#7FFE7F927FFC00F0
(1790978060.840019) can0 017FFF03#7FFF7FFF00000000
(1790978060.840259) can0 02800365#7FFF8013800100DC
(1790978060.840396) can0 017FFF04#7FFF7FFF00000000
(1790978060.840616) can0 02800467#7FFF7FAC7FFF00F0
(1790978060.840748) can0 017FFF05#7FDB7FFF051F147B
(1790978060.840984) can0 02800569#7FFC7FF27EB800F0
(1790978060.844392) can0 017FFF01#7FFF7FFF00000000
(1790978060.844565) can0 02800161#80007FD37FF300E6
(1790978060.844700) can0 017FFF02#7FFF7FFF00000000
(1790978060.844880) can0 02800263#7FFE7F6D800200F0
(1790978060.845016) can0 017FFF03#7FFF7FFF00000000
(1790978060.845260) can0 02800365#7FFF7FE0800D00DC
(1790978060.845397) can0 017FFF04#7FFF7FFF00000000
(1790978060.845617) can0 02800467#7FFE7FEF802D00F0
(1790978060.845748) can0 017FFF05#7FDC7FFF051F147B
(1790978060.845981) can0 02800569#7FFB7FC47EEA00F0
(1790978060.849393) can0 017FFF01#7FFF7FFF00000000
(1790978060.849564) can0 02800161#80007FD17FF100E6
(1790978060.849700) can0 017FFF02#7FFF7FFF00000000
(1790978060.849882) can0 02800263#7FFE7FD5800400F0
(1790978060.850018) can0 017FFF03#7FFF7FFF00000000
(1790978060.850258) can0 02800365#7FFF7FD67FF800DC
(1790978060.850395) can0 017FFF04#7FFF7FFF00000000
(1790978060.850616) can0 02800467#7FFF80157FF600F0
(1790978060.850747) can0 017FFF05#7FDC7FFF051F147B
(1790978060.850983) can0 02800569#7FFB80127ED700F0
(1790978060.854392) can0 017FFF01#7FFF7FFF00000000
(1790978060.854566) can0 02800161#80007F7B7FE000E6
(1790978060.854702) can0 017FFF02#7FFF7FFF00000000
(1790978060.854883) can0 02800263#7FFF7FC6800400F0
(1790978060.855019) can0 017FFF03#7FFF7FFF00000000
(1790978060.855258) can0 02800365#7FFF803A7FFD00DC
(1790978060.855395) can0 017FFF04#7FFF7FFF00000000
(1790978060.855618) can0 02800467#7FFF7FED7FE900F0
(1790978060.855749) can0 017FFF05#7FDD7FFF051F147B
(1790978060.855983) can0 02800569#7FFB7FCD7EDB00F0
(1790978060.859391) can0 017FFF01#7FFF7FFF00000000
(1790978060.859565) can0 02800161#800080577FF000E6
(1790978060.859701) can0 017FFF02#7FFF7FFF00000000
(1790978060.859881) can0 02800263#7FFE7FC17FF000F0
(1790978060.860017) can0 017FFF03#7FFF7FFF00000000
(1790978060.860258) can0 02800365#7FFF7FC27FED00DC
(1790978060.860395) can0 017FFF04#7FFF7FFF00000000
(1790978060.860615) can0 02800467#7FFE7FD9802500F0
(1790978060.860739) can0 017FFF05#7FDE7FFF051F147B
(1790978060.860982) can0 02800569#7FFB7FD27EC600F0
(1790978060.864394) can0 017FFF01#7FFF7FFF00000000
(1790978060.864566) can0 02800161#80007F117FFD00E6
(1790978060.864701) can0 017FFF02#7FFF7FFF00000000
(1790978060.864881) can0 02800263#7FFE7F637FEF00F0
(1790978060.865017) can0 017FFF03#7FFF7FFF00000000
(1790978060.865259) can0 02800365#7FFF7F947FF800DC
(1790978060.865396) can0 017FFF04#7FFF7FFF00000000
(1790978060.865616) can0 02800467#7FFF7F767FEA00F0
(1790978060.865748) can0 017FFF05#7FDE7FFF051F147B
(1790978060.865987) can0 02800569#7FFB7FF07EBE00F0
(1790978060.869398) can0 017FFF01#7FFF7FFF00000000
(1790978060.869558) can0 02800161#80007FCE7FF700E6
(1790978060.869700) can0 017FFF02#7FFF7FFF00000000
(1790978060.869879) can0 02800263#7FFE7F4C7FF300F0
(1790978060.870015) can0 017FFF03#7FFF7FFF00000000
(1790978060.870258) can0 02800365#7FFF802A7FE100DC
(1790978060.870395) can0 017FFF04#7FFF7FFF00000000
(1790978060.870614) can0 02800467#7FFF805E7FCF00F0
(1790978060.870746) can0 017FFF05#7FDF7FFF051F147B
(1790978060.870981) can0 02800569#7FFC80467ED300F0
(1790978060.874401) can0 017FFF01#7FFF7FFF00000000
(1790978060.874560) can0 02800161#800080AD7FFE00E6
(1790978060.874701) can0 017FFF02#7FFF7FFF00000000
(1790978060.874880) can0 02800263#7FFE7F36800E00F0
(1790978060.875016) can0 017FFF03#7FFF7FFF00000000
(1790978060.875258) can0 02800365#7FFF8007800500DC
(1790978060.875395) can0 017FFF04#7FFF7FFF00000000
(1790978060.875615) can0 02800467#7FFF7FE97FCD00F0
(1790978060.875747) can0 017FFF05#7FE07FFF051F147B
(1790978060.875983) can0 02800569#7FFC7FFA7EFE00F0
(1790978060.879396) can0 017FFF01#7FFF7FFF00000000
(1790978060.879564) can0 02800161#800080B9800700E6
(1790978060.879699) can0 017FFF02#7FFF7FFF00000000
(1790978060.879879) can0 02800263#7FFE7F7A7FEF00F0
(1790978060.880016) can0 017FFF03#7FFF7FFF00000000
(1790978060.880257) can0 02800365#8000805B7FF600DC
(1790978060.880394) can0 017FFF04#7FFF7FFF00000000
(1790978060.880617) can0 02800467#7FFF8015803800F0
(1790978060.880749) can0 017FFF05#7FE07FFF051F147B
(1790978060.880985) can0 02800569#7FFC7FEF7EF800F0
(1790978060.884395) can0 017FFF01#7FFF7FFF00000000
(1790978060.884564) can0 02800161#800080797FF500E6
(1790978060.884699) can0 017FFF02#7FFF7FFF00000000
(1790978060.884880) can0 02800263#7FFE800B800300F0
(1790978060.885017) can0 017FFF03#7FFF7FFF00000000
(1790978060.885259) can0 02800365#7FFF7FD87FF100DC
(1790978060.885396) can0 017FFF04#7FFF7FFF00000000
(1790978060.885619) can0 02800467#7FFF8005800400F0
(1790978060.885752) can0 017FFF05#7FE17FFF051F147B
(1790978060.885983) can0 02800569#7FFC80147EDA00F0
(1790978060.889399) can0 017FFF01#7FFF7FFF00000000
(1790978060.889558) can0 02800161#80007F767FDE00E6
(1790978060.889699) can0 017FFF02#7FFF7FFF00000000
(1790978060.889878) can0 02800263#7FFE804A800A00F0
(1790978060.890014) can0 017FFF03#7FFF7FFF00000000
(1790978060.890259) can0 02800365#7FFF7FC77FFC00DC
(1790978060.890397) can0 017FFF04#7FFF7FFF00000000
(1790978060.890616) can0 02800467#7FFF8027800700F0
(1790978060.890748) can0 017FFF05#7FE27FFF051F147B
(1790978060.890983) can0 02800569#7FFC802A7EE800F0
(1790978060.894399) can0 017FFF01#7FFF7FFF00000000
(1790978060.894559) can0 02800161#80007FCD800900E6
(1790978060.894700) can0 017FFF02#7FFF7FFF00000000
(1790978060.894881) can0 02800263#7FFE80267FE000F0
(1790978060.895018) can0 017FFF03#7FFF7FFF00000000
(1790978060.895257) can0 02800365#7FFF7FFC800E00DC
(1790978060.895395) can0 017FFF04#7FFF7FFF00000000
(1790978060.895616) can0 02800467#7FFF7FF8801900F0
(1790978060.895748) can0 017FFF05#7FE27FFF051F147B
(1790978060.895983) can0 02800569#7FFC7FEF7EF100F0
(1790978060.899394) can0 017FFF01#7FFF7FFF00000000
(1790978060.899564) can0 02800161#80007EF8800500E6
(1790978060.899700) can0 017FFF02#7FFF7FFF00000000
(1790978060.899879) can0 02800263#7FFE805A800D00F0
(1790978060.900015) can0 017FFF03#7FFF7FFF00000000
(1790978060.900259) can0 02800365#7FFF801A800D00DC
(1790978060.900396) can0 017FFF04#7FFF7FFF00000000
(1790978060.900615) can0 02800467#7FFF7FC87FD200F0
(1790978060.900746) can0 017FFF05#7FE37FFF051F147B
(1790978060.900982) can0 02800569#7FFC7F917F1600F0
(1790978060.904391) can0 017FFF01#7FFF7FFF00000000
(1790978060.904566) can0 02800161#800080057FF400E6
(1790978060.904701) can0 017FFF02#7FFF7FFF00000000
(1790978060.904879) can0 02800263#7FFE7FCE800D00F0
(1790978060.905016) can0 017FFF03#7FFF7FFF00000000
(1790978060.905256) can0 02800365#7FFF803D801100DC
(1790978060.905394) can0 017FFF04#7FFF7FFF00000000
(1790978060.905616) can0 02800467#7FFF7FC0800D00F0
(1790978060.905747) can0 017FFF05#7FE47FFF051F147B
(1790978060.905982) can0 02800569#7FFC7FF57F1A00F0
(1790978060.909395) can0 017FFF01#7FFF7FFF00000000
(1790978060.909564) can0 02800161#80007FED800B00E6
(1790978060.909700) can0 017FFF02#7FFF7FFF00000000
(1790978060.909878) can0 02800263#7FFE7F95800900F0
(1790978060.910015) can0 017FFF03#7FFF7FFF00000000
(1790978060.910256) can0 02800365#7FFF7FB47FFB00DC
(1790978060.910394) can0 017FFF04#7FFF7FFF00000000
(1790978060.910616) can0 02800467#7FFF801F804200F0
(1790978060.910748) can0 017FFF05#7FE47FFF051F147B
(1790978060.910983) can0 02800569#7FFC7FEE7F2200F0
(1790978060.914395) can0 017FFF01#7FFF7FFF00000000
(1790978060.914564) can0 02800161#800080137FFB00E6
(1790978060.914700) can0 017FFF02#7FFF7FFF00000000
(1790978060.914882) can0 02800263#7FFE8060800400F0
(1790978060.915019) can0 017FFF03#7FFF7FFF00000000
(1790978060.915257) can0 02800365#80008040801500DC
(1790978060.915394) can0 017FFF04#7FFF7FFF00000000
(1790978060.915618) can0 02800467#7FFF8000802A00F0
(1790978060.915750) can0 017FFF05#7FE57FFF051F147B
(1790978060.915982) can0 02800569#7FFC7FCD7F1800F0
(1790978060.919399) can0 017FFF01#7FFF7FFF00000000
(1790978060.919558) can0 02800161#80007F68800200E6
(1790978060.919699) can0 017FFF02#7FFF7FFF00000000
(1790978060.919878) can0 02800263#7FFE810B7FCF00F0
(1790978060.920014) can0 017FFF03#7FFF7FFF00000000
(1790978060.920258) can0 02800365#8000801B7FE900DC
(1790978060.920396) can0 017FFF04#7FFF7FFF00000000
(1790978060.920618) can0 02800467#7FFF7FD97FD800F0
(1790978060.920750) can0 017FFF05#7FE67FFF051F147B
(1790978060.920985) can0 02800569#7FFC80207F0C00F0
(1790978060.924403) can0 017FFF01#7FFF7FFF00000000
(1790978060.924562) can0 02800161#80007FFF7FF000E6
(1790978060.924703) can0 017FFF02#7FFF7FFF00000000
(1790978060.924879) can0 02800263#7FFE8079800300F0
(1790978060.925015) can0 017FFF03#7FFF7FFF00000000
(1790978060.925258) can0 02800365#7FFF8015800900DC
(1790978060.925396) can0 017FFF04#7FFF7FFF00000000
(1790978060.925616) can0 02800467#7FFF801F7FAF00F0
(1790978060.925749) can0 017FFF05#7FE67FFF051F147B
(1790978060.925984) can0 02800569#7FFC7FE17F1F00F0
(1790978060.929396) can0 017FFF01#7FFF7FFF00000000
(1790978060.929565) can0 02800161#8000804F800000E6
(1790978060.929701) can0 017FFF02#7FFF7FFF00000000
(1790978060.929879) can0 02800263#7FFE80117FF700F0
(1790978060.930015) can0 017FFF03#7FFF7FFF00000000
(1790978060.930258) can0 02800365#7FFF80047FE400DC
(1790978060.930395) can0 017FFF04#7FFF7FFF00000000
(1790978060.930614) can0 02800467#7FFE802B801300F0
(1790978060.930746) can0 017FFF05#7FE77FFF051F147B
(1790978060.930982) can0 02800569#7FFC80147F3600F0
(1790978060.934397) can0 017FFF01#7FFF7FFF00000000
(1790978060.934558) can0 02800161#80007FB17FF500E6
(1790978060.934699) can0 017FFF02#7FFF7FFF00000000
(1790978060.934883) can0 02800263#7FFE80107FDF00F0
(1790978060.935019) can0 017FFF03#7FFF7FFF00000000
(1790978060.935259) can0 02800365#7FFF7FE07FFE00DC
(1790978060.935396) can0 017FFF04#7FFF7FFF00000000
(1790978060.935615) can0 02800467#7FFE7FEE801A00F0
(1790978060.935747) can0 017FFF05#7FE87FFF051F147B
(1790978060.935982) can0 02800569#7FFC803F7F2700F0
(1790978060.939393) can0 017FFF01#7FFF7FFF00000000
(1790978060.939565) can0 02800161#80007F5F800200E6
(1790978060.939701) can0 017FFF02#7FFF7FFF00000000
(1790978060.939880) can0 02800263#7FFE7FF87FF300F0
(1790978060.940016) can0 017FFF03#7FFF7FFF00000000
(1790978060.940256) can0 02800365#7FFF803D800A00DC
(1790978060.940393) can0 017FFF04#7FFF7FFF00000000
(1790978060.940621) can0 02800467#7FFF80117FF400F0
(1790978060.940753) can0 017FFF05#7FE87FFF051F147B
(1790978060.940982) can0 02800569#7FFC7FF17F3700F0
(1790978060.944396) can0 017FFF01#7FFF7FFF00000000
(1790978060.944565) can0 02800161#800080297FFC00E6
(1790978060.944700) can0 017FFF02#7FFF7FFF00000000
(1790978060.944881) can0 02800263#7FFE800C7FE900F0
(1790978060.945017) can0 017FFF03#7FFF7FFF00000000
(1790978060.945259) can0 02800365#7FFF7FDA801E00DC
(1790978060.945396) can0 017FFF04#7FFF7FFF00000000
(1790978060.945616) can0 02800467#7FFF7FDE801800F0
(1790978060.945747) can0 017FFF05#7FE97FFF051F147B
(1790978060.945982) can0 02800569#7FFC80027F3F00F0
(1790978060.949394) can0 017FFF01#7FFF7FFF00000000
(1790978060.949564) can0 02800161#800080147FF900E6
(1790978060.949700) can0 017FFF02#7FFF7FFF00000000
(1790978060.949880) can0 02800263#7FFE80A57FFA00F0
(1790978060.950016) can0 017FFF03#7FFF7FFF00000000
(1790978060.950259) can0 02800365#80007FE27FED00DC
(1790978060.950396) can0 017FFF04#7FFF7FFF00000000
(1790978060.950616) can0 02800467#7FFF7FFA800200F0
(1790978060.950747) can0 017FFF05#7FE97FFF051F147B
(1790978060.950983) can0 02800569#7FFC80157F3000F0
(1790978060.954395) can0 017FFF01#7FFF7FFF00000000
(1790978060.954563) can0 02800161#80007F4B800400E6
(1790978060.954700) can0 017FFF02#7FFF7FFF00000000
(1790978060.954883) can0 02800263#7FFE7FFE801400F0
(1790978060.955019) can0 017FFF03#7FFF7FFF00000000
(1790978060.955258) can0 02800365#7FFF7FAE7FF300DC
(1790978060.955395) can0 017FFF04#7FFF7FFF00000000
(1790978060.955615) can0 02800467#7FFF8013801100F0
(1790978060.955747) can0 017FFF05#7FEA7FFF051F147B
(1790978060.955980) can0 02800569#7FFC7FDD7F1900F0
(1790978060.959398) can0 017FFF01#7FFF7FFF00000000
(1790978060.959557) can0 02800161#8000808B7FF900E6
(1790978060.959699) can0 017FFF02#7FFF7FFF00000000
(1790978060.959880) can0 02800263#7FFE7F1F800000F0
(1790978060.960016) can0 017FFF03#7FFF7FFF00000000
(1790978060.960260) can0 02800365#7FFF7FE07FEC00DC
(1790978060.960397) can0 017FFF04#7FFF7FFF00000000
(1790978060.960617) can0 02800467#7FFF7FA5800400F0
(1790978060.960751) can0 017FFF05#7FEB7FFF051F147B
(1790978060.960982) can0 02800569#7FFC80137F5E00F0
(1790978060.964394) can0 017FFF01#7FFF7FFF00000000
(1790978060.964566) can0 02800161#80007FFC800C00E6
(1790978060.964702) can0 017FFF02#7FFF7FFF00000000
(1790978060.964880) can0 02800263#7FFE806A800C00F0
(1790978060.965017) can0 017FFF03#7FFF7FFF00000000
(1790978060.965258) can0 02800365#7FFF7FB3800800DC
(1790978060.965395) can0 017FFF04#7FFF7FFF00000000
(1790978060.965614) can0 02800467#7FFE7FB6801900F0
(1790978060.965748) can0 017FFF05#7FEB7FFF051F147B
(1790978060.965982) can0 02800569#7FFC800D7F5D00F0
(1790978060.969392) can0 017FFF01#7FFF7FFF00000000
(1790978060.969563) can0 02800161#80007FE7800300E6
(1790978060.969700) can0 017FFF02#7FFF7FFF00000000
(1790978060.969879) can0 02800263#7FFE7FA7801B00F0
(1790978060.970015) can0 017FFF03#7FFF7FFF00000000
(1790978060.970256) can0 02800365#800080337FF300DC
(1790978060.970393) can0 017FFF04#7FFF7FFF00000000
(1790978060.970617) can0 02800467#7FFF800F800800F0
(1790978060.970750) can0 017FFF05#7FEC7FFF051F147B
(1790978060.970983) can0 02800569#7FFC80047F4800F0
(1790978060.974401) can0 017FFF01#7FFF7FFF00000000
(1790978060.974559) can0 02800161#80007F577FFF00E6
(1790978060.974701) can0 017FFF02#7FFF7FFF00000000
(1790978060.974880) can0 02800263#7FFE8054800C00F0
(1790978060.975017) can0 017FFF03#7FFF7FFF00000000
(1790978060.975257) can0 02800365#7FFF7FE97FF700DC
(1790978060.975394) can0 017FFF04#7FFF7FFF00000000
(1790978060.975616) can0 02800467#7FFF7FAF7FFF00F0
(1790978060.975748) can0 017FFF05#7FED7FFF051F147B
(1790978060.975986) can0 02800569#7FFC801E7F6400F0
(1790978060.979395) can0 017FFF01#7FFF7FFF00000000
(1790978060.979555) can0 02800161#80007F92802100E6
(1790978060.979696) can0 017FFF02#7FFF7FFF00000000
(1790978060.979880) can0 02800263#7FFE7FF6800F00F0
(1790978060.980016) can0 017FFF03#7FFF7FFF00000000
(1790978060.980258) can0 02800365#7FFF8037801000DC
(1790978060.980395) can0 017FFF04#7FFF7FFF00000000
(1790978060.980615) can0 02800467#7FFF80367FED00F0
(1790978060.980747) can0 017FFF05#7FED7FFF051F147B
(1790978060.980983) can0 02800569#7FFC80017F5000F0
(1790978060.984395) can0 017FFF01#7FFF7FFF00000000
(1790978060.984558) can0 02800161#80007F97801900E6
(1790978060.984698) can0 017FFF02#7FFF7FFF00000000
(1790978060.984880) can0 02800263#7FFE7FC07FFF00F0
(1790978060.985016) can0 017FFF03#7FFF7FFF00000000
(1790978060.985256) can0 02800365#7FFF7FDC7FEF00DC
(1790978060.985393) can0 017FFF04#7FFF7FFF00000000
(1790978060.985615) can0 02800467#7FFF8042801800F0
(1790978060.985746) can0 017FFF05#7FEE7FFF051F147B
(1790978060.985983) can0 02800569#7FFC7FEB7F6B00F0
(1790978060.989399) can0 017FFF01#7FFF7FFF00000000
(1790978060.989557) can0 02800161#80007F2C800B00E6
(1790978060.989699) can0 017FFF02#7FFF7FFF00000000
(1790978060.989878) can0 02800263#7FFF8136802700F0
(1790978060.990014) can0 017FFF03#7FFF7FFF00000000
(1790978060.990260) can0 02800365#80007FF07FF800DC
(1790978060.990397) can0 017FFF04#7FFF7FFF00000000
(1790978060.990615) can0 02800467#7FFE7FEC7FEA00F0
(1790978060.990747) can0 017FFF05#7FEF7FFF051F147B
(1790978060.990983) can0 02800569#7FFC7FF97F8100F0
(1790978060.994394) can0 017FFF01#7FFF7FFF00000000
(1790978060.994563) can0 02800161#80007F2C800200E6
(1790978060.994698) can0 017FFF02#7FFF7FFF00000000
(1790978060.994880) can0 02800263#7FFE802E7FE100F0
(1790978060.995016) can0 017FFF03#7FFF7FFF00000000
(1790978060.995256) can0 02800365#7FFF7FB5800200DC
(1790978060.995393) can0 017FFF04#7FFF7FFF00000000
(1790978060.995618) can0 02800467#7FFF8025801C00F0
(1790978060.995750) can0 017FFF05#7FEF7FFF051F147B
(1790978060.995985) can0 02800569#7FFC80117F8000F0
(1790978060.999396) can0 017FFF01#7FFF7FFF00000000
(1790978060.999564) can0 02800161#80007FEF7FF400E6
(1790978060.999700) can0 017FFF02#7FFF7FFF00000000
(1790978060.999877) can0 02800263#7FFE7F0E7FF300F0
(1790978061.000014) can0 017FFF03#7FFF7FFF00000000
(1790978061.000258) can0 02800365#7FFF7FF77FF800DC
(1790978061.000395) can0 017FFF04#7FFF7FFF00000000
(1790978061.000620) can0 02800467#7FFF800F7FFC00F0
(1790978061.000752) can0 017FFF05#7FF07FFF051F147B
(1790978061.000983) can0 02800569#7FFC7FF77F9700F0
(1790978061.004395) can0 017FFF01#7FFF7FFF00000000
(1790978061.004564) can0 02800161#800080167FE400E6
(1790978061.004700) can0 017FFF02#7FFF7FFF00000000
(1790978061.004880) can0 02800263#7FFE7F0C800800F0
(1790978061.005016) can0 017FFF03#7FFF7FFF00000000
(1790978061.005258) can0 02800365#7FFF7FCF7FEC00DC
(1790978061.005395) can0 017FFF04#7FFF7FFF00000000
(1790978061.005616) can0 02800467#7FFF7FB9800A00F0
(1790978061.005747) can0 017FFF05#7FF17FFF051F147B
(1790978061.005982) can0 02800569#7FFD801D7F6200F0
(1790978061.009398) can0 017FFF01#7FFF7FFF00000000
(1790978061.009557) can0 02800161#8000803D800100E6
(1790978061.009699) can0 017FFF02#7FFF7FFF00000000
(1790978061.009880) can0 02800263#7FFE8008800200F0
(1790978061.010016) can0 017FFF03#7FFF7FFF00000000
(1790978061.010258) can0 02800365#7FFF7FE47FFC00DC
(1790978061.010395) can0 017FFF04#7FFF7FFF00000000
(1790978061.010619) can0 02800467#7FFF7FFD801C00F0
(1790978061.010750) can0 017FFF05#7FF17FFF051F147B
(1790978061.010981) can0 02800569#7FFD800E7F5900F0
(1790978061.014398) can0 017FFF01#7FFF7FFF00000000
(1790978061.014555) can0 02800161#80017FC7800D00E6
(1790978061.014696) can0 017FFF02#7FFF7FFF00000000
(1790978061.014877) can0 02800263#7FFE7F9B7FF500F0
(1790978061.015013) can0 017FFF03#7FFF7FFF00000000
(1790978061.015257) can0 02800365#7FFF7F957FF600DC
(1790978061.015395) can0 017FFF04#7FFF7FFF00000000
(1790978061.015617) can0 02800467#7FFF80037FE900F0
(1790978061.015748) can0 017FFF05#7FF27FFF051F147B
(1790978061.015984) can0 02800569#7FFD7FEB7F7C00F0
(1790978061.019397) can0 017FFF01#7FFF7FFF00000000
(1790978061.019556) can0 02800161#80007FAE800B00E6
(1790978061.019697) can0 017FFF02#7FFF7FFF00000000
(1790978061.019877) can0 02800263#7FFE81147FF600F0
(1790978061.020013) can0 017FFF03#7FFF7FFF00000000
(1790978061.020258) can0 02800365#7FFF7FE77FEB00DC
(1790978061.020395) can0 017FFF04#7FFF7FFF00000000
(1790978061.020615) can0 02800467#7FFF7FC1801D00F0
(1790978061.020747) can0 017FFF05#7FF37FFF051F147B
(1790978061.020985) can0 02800569#7FFD801F7F7400F0
(1790978061.024401) can0 017FFF01#7FFF7FFF00000000
(1790978061.024557) can0 02800161#80017FFD7FF600E6
(1790978061.024698) can0 017FFF02#7FFF7FFF00000000
(1790978061.024880) can0 02800263#7FFE7F71801400F0
(1790978061.025016) can0 017FFF03#7FFF7FFF00000000
(1790978061.025255) can0 02800365#7FFF803B800D00DC
(1790978061.025393) can0 017FFF04#7FFF7FFF00000000
(1790978061.025614) can0 02800467#7FFF8030800900F0
(1790978061.025745) can0 017FFF05#7FF37FFF051F147B
(1790978061.025984) can0 02800569#7FFD7FEA7FB800F0
(1790978061.029396) can0 017FFF01#7FFF7FFF00000000
(1790978061.029556) can0 02800161#80017FF1800700E6
(1790978061.029697) can0 017FFF02#7FFF7FFF00000000
(1790978061.029878) can0 02800263#7FFE7F1C7FE300F0
(1790978061.030014) can0 017FFF03#7FFF7FFF00000000
(1790978061.030257) can0 02800365#800080037FEE00DC
(1790978061.030395) can0 017FFF04#7FFF7FFF00000000
(1790978061.030614) can0 02800467#7FFF80397FEB00F0
(1790978061.030746) can0 017FFF05#7FF47FFF051F147B
(1790978061.030983) can0 02800569#7FFD801F7F8700F0
(1790978061.034393) can0 017FFF01#7FFF7FFF00000000
(1790978061.034562) can0 02800161#800180BC800500E6
(1790978061.034698) can0 017FFF02#7FFF7FFF00000000
(1790978061.034878) can0 02800263#7FFE7FC47FEA00F0
(1790978061.035014) can0 017FFF03#7FFF7FFF00000000
(1790978061.035258) can0 02800365#7FFF801D7FFF00DC
(1790978061.035395) can0 017FFF04#7FFF7FFF00000000
(1790978061.035616) can0 02800467#7FFF80047FED00F0
(1790978061.035748) can0 017FFF05#7FF57FFF051F147B
(1790978061.035982) can0 02800569#7FFC7FE37FBD00F0
(1790978061.039394) can0 017FFF01#7FFF7FFF00000000
(1790978061.039555) can0 02800161#800180267FF700E6
(1790978061.039696) can0 017FFF02#7FFF7FFF00000000
(1790978061.039877) can0 02800263#7FFE8067800D00F0
(1790978061.040013) can0 017FFF03#7FFF7FFF00000000
(1790978061.040255) can0 02800365#7FFF7FDA802400DC
(1790978061.040392) can0 017FFF04#7FFF7FFF00000000
(1790978061.040615) can0 02800467#7FFF7FDD7FE600F0
(1790978061.040747) can0 017FFF05#7FF57FFF051F147B
(1790978061.040982) can0 02800569#7FFD801E7F9600F0
(1790978061.044396) can0 017FFF01#7FFF7FFF00000000
(1790978061.044557) can0 02800161#8001805B7FF000E6
(1790978061.044698) can0 017FFF02#7FFF7FFF00000000
(1790978061.044881) can0 02800263#7FFE7FD3800800F0
(1790978061.045017) can0 017FFF03#7FFF7FFF00000000
(1790978061.045258) can0 02800365#7FFF80307FDF00DC
(1790978061.045395) can0 017FFF04#7FFF7FFF00000000
(1790978061.045612) can0 02800467#7FFF80487FA700F0
(1790978061.045744) can0 017FFF05#7FF67FFF051F147B
(1790978061.045981) can0 02800569#7FFD80047FB300F0
(1790978061.049395) can0 017FFF01#7FFF7FFF00000000
(1790978061.049555) can0 02800161#80018090800500E6
(1790978061.049697) can0 017FFF02#7FFF7FFF00000000
(1790978061.049878) can0 02800263#7FFE8081800500F0
(1790978061.050014) can0 017FFF03#7FFF7FFF00000000
(1790978061.050256) can0 02800365#800080217FF100DC
(1790978061.050393) can0 017FFF04#7FFF7FFF00000000
(1790978061.050615) can0 02800467#7FFF7FCF7FE800F0
(1790978061.050747) can0 017FFF05#7FF77FFF051F147B
(1790978061.050980) can0 02800569#7FFD80377F9F00F0
(1790978061.054394) can0 017FFF01#7FFF7FFF00000000
(1790978061.054563) can0 02800161#80017FA87FE800E6
(1790978061.054698) can0 017FFF02#7FFF7FFF00000000
(1790978061.054879) can0 02800263#7FFE7FFF7FF500F0
(1790978061.055015) can0 017FFF03#7FFF7FFF00000000
(1790978061.055257) can0 02800365#7FFF7FB87FFF00DC
(1790978061.055394) can0 017FFF04#7FFF7FFF00000000
(1790978061.055614) can0 02800467#7FFF801C801700F0
(1790978061.055747) can0 017FFF05#7FF77FFF051F147B
(1790978061.055980) can0 02800569#7FFD7FC87FA200F0
(1790978061.059396) can0 017FFF01#7FFF7FFF00000000
(1790978061.059554) can0 02800161#80017FC57FF300E6
(1790978061.059696) can0 017FFF02#7FFF7FFF00000000
(1790978061.059877) can0 02800263#7FFE7FB67FF300F0
(1790978061.060014) can0 017FFF03#7FFF7FFF00000000
(1790978061.060257) can0 02800365#7FFF80127FFB00DC
(1790978061.060394) can0 017FFF04#7FFF7FFF00000000
(1790978061.060614) can0 02800467#7FFF7FBC7FC700F0
(1790978061.060746) can0 017FFF05#7FF87FFF051F147B
(1790978061.060985) can0 02800569#7FFD7FF07FCC00F0
(1790978061.064396) can0 017FFF01#7FFF7FFF00000000
(1790978061.064556) can0 02800161#8001805D801400E6
(1790978061.064697) can0 017FFF02#7FFF7FFF00000000
(1790978061.064879) can0 02800263#7FFE80117FE700F0
(1790978061.065015) can0 017FFF03#7FFF7FFF00000000
(1790978061.065258) can0 02800365#7FFF7FAE7FF800DC
(1790978061.065395) can0 017FFF04#7FFF7FFF00000000
(1790978061.065616) can0 02800467#7FFF7FA47FF400F0
(1790978061.065747) can0 017FFF05#7FF87FFF051F147B
(1790978061.065980) can0 02800569#7FFD7FE57FC900F0
(1790978061.069399) can0 017FFF01#7FFF7FFF00000000
(1790978061.069555) can0 02800161#80017F6C800800E6
(1790978061.069697) can0 017FFF02#7FFF7FFF00000000
(1790978061.069876) can0 02800263#7FFE806B800A00F0
(1790978061.070013) can0 017FFF03#7FFF7FFF00000000
(1790978061.070257) can0 02800365#7FFF7FEC7FE800DC
(1790978061.070394) can0 017FFF04#7FFF7FFF00000000
(1790978061.070615) can0 02800467#7FFF80147FDF00F0
(1790978061.070747) can0 017FFF05#7FF97FFF051F147B
(1790978061.070979) can0 02800569#7FFD80257FBB00F0
(1790978061.074400) can0 017FFF01#7FFF7FFF00000000
(1790978061.074554) can0 02800161#80018044803000E6
(1790978061.074695) can0 017FFF02#7FFF7FFF00000000
(1790978061.074876) can0 02800263#7FFE7FCD800F00F0
(1790978061.075013) can0 017FFF03#7FFF7FFF00000000
(1790978061.075256) can0 02800365#8000806D800A00DC
(1790978061.075393) can0 017FFF04#7FFF7FFF00000000
(1790978061.075616) can0 02800467#7FFF7FE1800600F0
(1790978061.075748) can0 017FFF05#7FFA7FFF051F147B
(1790978061.075981) can0 02800569#7FFD7FF87FC000F0
(1790978061.079396) can0 017FFF01#7FFF7FFF00000000
(1790978061.079554) can0 02800161#80017F9E7FE200E6
(1790978061.079695) can0 017FFF02#7FFF7FFF00000000
(1790978061.079878) can0 02800263#7FFF8105800100F0
(1790978061.080015) can0 017FFF03#7FFF7FFF00000000
(1790978061.080258) can0 02800365#7FFF8053801400DC
(1790978061.080395) can0 017FFF04#7FFF7FFF00000000
(1790978061.080616) can0 02800467#7FFF80147FE000F0
(1790978061.080748) can0 017FFF05#7FFA7FFF051F147B
(1790978061.080981) can0 02800569#7FFD800A7FED00F0
(1790978061.084397) can0 017FFF01#7FFF7FFF00000000
(1790978061.084554) can0 02800161#800180B2802C00E6
(1790978061.084696) can0 017FFF02#7FFF7FFF00000000
(1790978061.084878) can0 02800263#7FFE808C800C00F0
(1790978061.085015) can0 017FFF03#7FFF7FFF00000000
(1790978061.085260) can0 02800365#7FFF7FE17FFF00DC
(1790978061.085397) can0 017FFF04#7FFF7FFF00000000
(1790978061.085613) can0 02800467#7FFF80387FD200F0
(1790978061.085746) can0 017FFF05#7FFB7FFF051F147B
(1790978061.085985) can0 02800569#7FFD800A7FF300F0
