(1790972083.275753) can0 180001FD#804280237FFF00E6
(1790972083.278146) can0 180002FD#802980D77FFF00F0
(1790972083.280266) can0 180004FD#7FDC80427FFF00E6
(1790972083.281953) can0 180003FD#7FEE80087FFF00DC
(1790972083.284172) can0 180005FD#AA8280337FFF00E6
(1790972083.285750) can0 180001FD#80437F8B7FFF00E6
(1790972083.288169) can0 180002FD#802880007FFF00F0
(1790972083.290274) can0 180004FD#7FDC7FE17FFF00E6
(1790972083.291953) can0 180003FD#7FEE80267FFF00DC
(1790972083.294175) can0 180005FD#AA8280317FFF00E6
(1790972083.295752) can0 180001FD#804380F97FFF00E6
(1790972083.298171) can0 180002FD#80297FBE7FFF00F0
(1790972083.300274) can0 180004FD#7FDC7FCB7FFF00E6
(1790972083.301957) can0 180003FD#7FEE80707FFF00DC
(1790972083.304203) can0 180005FD#AA8280047FFF00E6
(1790972083.305753) can0 180001FD#8042800C7FFF00E6
(1790972083.308173) can0 180002FD#802880237FFF00F0
(1790972083.310282) can0 180004FD#7FDC7FF17FFF00E6
(1790972083.311960) can0 180003FD#7FEE7FB57FFF00DC
(1790972083.314208) can0 180005FD#AA827FFB7FFF00E6
(1790972083.315755) can0 180001FD#804380877FFF00E6
(1790972083.318179) can0 180002FD#8029800F7FFF00F0
(1790972083.320282) can0 180004FD#7FDC7FFA7FFF00E6
(1790972083.321990) can0 180003FD#7FEE7FEA7FFF00DC
(1790972083.324211) can0 180005FD#AA8280157FFF00E6
(1790972083.325757) can0 180001FD#80437F927FFF00E6
(1790972083.328179) can0 180002FD#8029802D7FFF00F0
(1790972083.330284) can0 180004FD#7FDC808E7FFF00E6
(1790972083.331995) can0 180003FD#7FEE80447FFF00DC
(1790972083.334215) can0 180005FD#AA827FE77FFF00E6
(1790972083.335756) can0 180001FD#804380B77FFF00E6
(1790972083.338186) can0 180002FD#8028804B7FFF00F0
(1790972083.340286) can0 180004FD#7FDC7FD87FFF00E6
(1790972083.341999) can0 180003FD#7FEE7FDC7FFF00DC
(1790972083.344219) can0 180005FD#AA8380237FFF00E6
(1790972083.345759) can0 180001FD#804380D17FFF00E6
(1790972083.348215) can0 180002FD#802980537FFF00F0
(1790972083.350292) can0 180004FD#7FDC7FEE7FFF00E6
(1790972083.352002) can0 180003FD#7FEE7FBD7FFF00DC
(1790972083.354217) can0 180005FD#AA827FC87FFF00E6
(1790972083.355760) can0 180001FD#80427F527FFF00E6
(1790972083.358223) can0 180002FD#802880B67FFF00F0
(1790972083.360315) can0 180004FD#7FDC7FA87FFF00E6
(1790972083.362007) can0 180003FD#7FEE800E7FFF00DC
(1790972083.364219) can0 180005FD#AA82802D7FFF00E6
(1790972083.365786) can0 180001FD#804380817FFF00E6
(1790972083.368225) can0 180002FD#80287F547FFF00F0
(1790972083.370322) can0 180004FD#7FDC80287FFF00E6
(1790972083.372011) can0 180003FD#7FEE7FFF7FFF00DC
(1790972083.374224) can0 180005FD#AA827FF87FFF00E6
(1790972083.375791) can0 180001FD#80427EFE7FFF00E6
(1790972083.378232) can0 180002FD#8029807E7FFF00F0
(1790972083.380325) can0 180004FD#7FDC80187FFF00E6
(1790972083.382015) can0 180003FD#7FEE7FE47FFF00DC
(1790972083.384225) can0 180005FD#AA8280097FFF00E6
(1790972083.385793) can0 180001FD#804380437FFF00E6
(1790972083.388235) can0 180002FD#80287F1F7FFF00F0
(1790972083.390329) can0 180004FD#7FDC802C7FFF00E6
(1790972083.392040) can0 180003FD#7FEE80127FFF00DC
(1790972083.394228) can0 180005FD#AA8280237FFF00E6
(1790972083.395800) can0 180001FD#804380377FFF00E6
(1790972083.398240) can0 180002FD#80287FAA7FFF00F0
(1790972083.400332) can0 180004FD#7FDC801A7FFF00E6
(1790972083.402042) can0 180003FD#7FEE7FDF7FFF00DC
(1790972083.404254) can0 180005FD#AA827FFE7FFF00E6
(1790972083.405805) can0 180001FD#80427F887FFF00E6
(1790972083.408266) can0 180002FD#802880697FFF00F0
(1790972083.410331) can0 180004FD#7FDC80757FFF00E6
(1790972083.412047) can0 180003FD#7FEE7FA97FFF00DC
(1790972083.414257) can0 180005FD#AA827FF87FFF00E6
(1790972083.415806) can0 180001FD#804380517FFF00E6
(1790972083.418273) can0 180002FD#802980897FFF00F0
(1790972083.420337) can0 180004FD#7FDC80187FFF00E6
(1790972083.422054) can0 180003FD#7FEE7FF47FFF00DC
(1790972083.424256) can0 180005FD#AA827FF87FFF00E6
(1790972083.425807) can0 180001FD#80427F9E7FFF00E6
(1790972083.428271) can0 180002FD#80287F767FFF00F0
(1790972083.430367) can0 180004FD#7FDC7FCC7FFF00E6
(1790972083.432058) can0 180003FD#7FEE7FD57FFF00DC
(1790972083.434261) can0 180005FD#AA82802C7FFF00E6
(1790972083.435810) can0 180001FD#80427FA77FFF00E6
(1790972083.438276) can0 180002FD#8028805A7FFF00F0
(1790972083.440370) can0 180004FD#7FDC80017FFF00E6
(1790972083.442061) can0 180003FD#7FEE80347FFF00DC
(1790972083.444263) can0 180005FD#AA827FEF7FFF00E6
(1790972083.445838) can0 180001FD#8043808D7FFF00E6
(1790972083.448280) can0 180002FD#80287F7F7FFF00F0
(1790972083.450375) can0 180004FD#7FDC7FE37FFF00E6
(1790972083.452091) can0 180003FD#7FEE800C7FFF00DC
(1790972083.454266) can0 180005FD#AA827FFE7FFF00E6
(1790972083.455838) can0 180001FD#80437F9C7FFF00E6
(1790972083.458283) can0 180002FD#8028803E7FFF00F0
(1790972083.460375) can0 180004FD#7FDC80007FFF00E6
(1790972083.462097) can0 180003FD#7FEE7FB97FFF00DC
(1790972083.464267) can0 180005FD#AA827FD07FFF00E6
(1790972083.465839) can0 180001FD#80437FE27FFF00E6
(1790972083.468286) can0 180002FD#802880737FFF00F0
(1790972083.470377) can0 180004FD#7FDC7FF27FFF00E6
(1790972083.472101) can0 180003FD#7FEE800D7FFF00DC
(1790972083.474270) can0 180005FD#AA83801C7FFF00E6
(1790972083.475841) can0 180001FD#804380767FFF00E6
(1790972083.478306) can0 180002FD#80287FB57FFF00F0
(1790972083.480381) can0 180004FD#7FDC800D7FFF00E6
(1790972083.480983) can0 1200FD01#0A70000000000000
(1790972083.481142) can0 020001FD#804380247FFF00E6
(1790972083.481283) can0 017FFF01#7FFF7FFF00000000
(1790972083.481435) can0 020001FD#8043809C7FFF00E6
(1790972083.481576) can0 0400FD01#0000000000000000
(1790972083.481736) can0 020001FD#804380237FFF00E6
(1790972083.481874) can0 1200FD02#0A70000000000000
(1790972083.482031) can0 020002FD#8028801D7FFF00F0
(1790972083.482172) can0 017FFF02#7FFF7FFF00000000
(1790972083.482320) can0 180003FD#7FEE802B7FFF00DC
(1790972083.482461) can0 0400FD02#0000000000000000
(1790972083.482610) can0 020002FD#802880147FFF00F0
(1790972083.482748) can0 1200FD03#0A70000000000000
(1790972083.482896) can0 020002FD#8028803D7FFF00F0
(1790972083.483037) can0 017FFF03#7FFF7FFF00000000
(1790972083.483188) can0 020003FD#7FEE80167FFF00DC
(1790972083.483334) can0 020003FD#7FEE80277FFF00DC
(1790972083.483471) can0 0400FD03#0000000000000000
(1790972083.483646) can0 020003FD#7FEE7FF97FFF00DC
(1790972083.483780) can0 1200FD04#0A70000000000000
(1790972083.483935) can0 020004FD#7FDC7FC37FFF00E6
(1790972083.484078) can0 017FFF04#7FFF7FFF00000000
(1790972083.484232) can0 020004FD#7FDC7F907FFF00E6
(1790972083.484377) can0 0400FD04#0000000000000000
(1790972083.484528) can0 180005FD#AA827FE37FFF00E6
(1790972083.484672) can0 020004FD#7FDC7FAB7FFF00E6
(1790972083.484804) can0 1200FD05#0A70000000000000
(1790972083.484961) can0 020005FD#AA827FE17FFF00E6
(1790972083.485103) can0 017FFF05#7FFF7FFF00000000
(1790972083.485258) can0 020005FD#AA8280147FFF00E6
(1790972083.485399) can0 0400FD05#0000000000000000
(1790972083.485554) can0 020005FD#AA827FFC7FFF00E6
(1790972083.485692) can0 1800FD01#0102030405060000
(1790972083.485846) can0 020001FD#804380197FFF00E6
(1790972083.485986) can0 1800FD02#0102030405060000
(1790972083.486169) can0 020002FD#80287F4C7FFF00F0
(1790972083.486302) can0 1800FD03#0102030405060000
(1790972083.486458) can0 020003FD#7FEE7FF47FFF00DC
(1790972083.486597) can0 1800FD04#0102030405060000
(1790972083.486774) can0 020004FD#7FDC7FF37FFF00E6
(1790972083.486906) can0 1800FD05#0102030405060000
(1790972083.487061) can0 020005FD#AA827FF67FFF00E6
(1790972083.487201) can0 04008001#00C4000000000000
(1790972083.487358) can0 02000180#00C4560003012A07
(1790972083.488441) can0 00008101#0000000000000000
(1790972083.488594) can0 000001FE#457B30020C323817
(1790972083.489515) can0 11008201#0570000000000000
(1790972083.489694) can0 11000182#0570000000000000
(1790972083.490573) can0 11008301#1970000000000000
(1790972083.490738) can0 11000183#19700000AB88D33C
(1790972083.491634) can0 11008401#1B70000000000000
(1790972083.491794) can0 11000184#1B70000000000000
(1790972083.492693) can0 11008501#2870000000000000
(1790972083.492850) can0 11000185#2870000000000000
(1790972083.493751) can0 11008601#2970000000000000
(1790972083.493911) can0 11000186#2970000000000000
(1790972083.494809) can0 11008701#2B70000000000000
(1790972083.494990) can0 11000187#2B70000000000000
(1790972083.495868) can0 04008802#00C4000000000000
(1790972083.496024) can0 02000288#00C4560003012A07
(1790972083.496932) can0 00008902#0000000000000000
(1790972083.497084) can0 000002FE#785630020C343701
(1790972083.497986) can0 11008A02#0570000000000000
(1790972083.498168) can0 1100028A#0570000000000000
(1790972083.499043) can0 11008B02#1970000000000000
(1790972083.499218) can0 1100028B#197000008E33823C
(1790972083.500101) can0 11008C02#1B70000000000000
(1790972083.500273) can0 1100028C#1B70000000000000
(1790972083.501162) can0 11008D02#2870000000000000
(1790972083.501323) can0 1100028D#2870000000000000
(1790972083.502219) can0 11008E02#2970000000000000
(1790972083.502377) can0 1100028E#2970000000000000
(1790972083.503278) can0 11008F02#2B70000000000000
(1790972083.503438) can0 1100028F#2B70000000000000
(1790972083.504339) can0 04009003#00C4000000000000
(1790972083.504496) can0 02000390#00C4560002032207
(1790972083.505400) can0 00009103#0000000000000000
(1790972083.505551) can0 000003FE#9D6A3B859C023019
(1790972083.506454) can0 11009203#0570000000000000
(1790972083.506613) can0 11000392#0570000000000000
(1790972083.507513) can0 11009303#1970000000000000
(1790972083.507689) can0 11000393#1970000052CAD2BB
(1790972083.508575) can0 11009403#1B70000000000000
(1790972083.508740) can0 11000394#1B70000068A2DBBA
(1790972083.509633) can0 11009503#2870000000000000
(1790972083.509794) can0 11000395#2870000000000000
(1790972083.510693) can0 11009603#2970000000000000
(1790972083.510851) can0 11000396#2970000000000000
(1790972083.511751) can0 11009703#2B70000000000000
(1790972083.511910) can0 11000397#2B70000000000000
(1790972083.512813) can0 04009804#00C4000000000000
(1790972083.512970) can0 02000498#00C4560002032207
(1790972083.513873) can0 00009904#0000000000000000
(1790972083.514024) can0 000004FE#8A063B8F2450B00D
(1790972083.514929) can0 11009A04#0570000000000000
(1790972083.515087) can0 1100049A#0570000000000000
(1790972083.515988) can0 11009B04#1970000000000000
(1790972083.516164) can0 1100049B#19700000EFE55ABC
(1790972083.517048) can0 11009C04#1B70000000000000
(1790972083.517218) can0 1100049C#1B7000007A36D93D
(1790972083.518106) can0 11009D04#2870000000000000
(1790972083.518273) can0 1100049D#2870000000000000
(1790972083.519165) can0 11009E04#2970000000000000
(1790972083.519323) can0 1100049E#2970000000000000
(1790972083.520223) can0 11009F04#2B70000000000000
(1790972083.520382) can0 1100049F#2B70000000000000
(1790972083.521286) can0 0400A005#00C4000000000000
(1790972083.521458) can0 020005A0#00C4560000032007
(1790972083.522345) can0 0000A105#0000000000000000
(1790972083.522503) can0 000005FE#622C30020C343701
(1790972083.523400) can0 1100A205#0570000000000000
(1790972083.523558) can0 110005A2#0570000000000000
(1790972083.524460) can0 1100A305#1970000000000000
(1790972083.524613) can0 110005A3#1970000094998540
(1790972083.525520) can0 1100A405#1B70000000000000
(1790972083.525673) can0 110005A4#1B700000EEA1DEBC
(1790972083.526578) can0 1100A505#2870000000000000
(1790972083.526758) can0 110005A5#2870000000000000
(1790972083.527638) can0 1100A605#2970000000000000
(1790972083.527808) can0 110005A6#2970000000000000
(1790972083.528698) can0 1100A705#2B70000000000000
(1790972083.528858) can0 110005A7#2B70000000000000
(1790972083.530019) can0 1200FD01#0A70000000000000
(1790972083.530202) can0 020001FD#804380947FFF00E6
(1790972083.530326) can0 017FFF01#7FFF7FFF00000000
(1790972083.530492) can0 020001FD#8043800D7FFF00E6
(1790972083.530634) can0 0400FD01#0000000000000000
(1790972083.530796) can0 020001FD#80427F4F7FFF00E6
(1790972083.530932) can0 1200FD02#0A70000000000000
(1790972083.531080) can0 020002FD#8029800D7FFF00F0
(1790972083.531221) can0 017FFF02#7FFF7FFF00000000
(1790972083.531374) can0 020002FD#802980867FFF00F0
(1790972083.531514) can0 0400FD02#0000000000000000
(1790972083.531668) can0 020002FD#802880557FFF00F0
(1790972083.531814) can0 1200FD03#0A70000000000000
(1790972083.531991) can0 020003FD#7FEE80467FFF00DC
(1790972083.532127) can0 017FFF03#7FFF7FFF00000000
(1790972083.532298) can0 020003FD#7FEE7FFE7FFF00DC
(1790972083.532435) can0 0400FD03#0000000000000000
(1790972083.532594) can0 020003FD#7FEE7FEE7FFF00DC
(1790972083.532732) can0 1200FD04#0A70000000000000
(1790972083.532887) can0 020004FD#7FDC80497FFF00E6
(1790972083.533030) can0 017FFF04#7FFF7FFF00000000
(1790972083.533183) can0 020004FD#7FDC7FE67FFF00E6
(1790972083.533327) can0 0400FD04#0000000000000000
(1790972083.533482) can0 020004FD#7FDC7F997FFF00E6
(1790972083.533618) can0 1200FD05#0A70000000000000
(1790972083.533799) can0 020005FD#AA827FBC7FFF00E6
(1790972083.533938) can0 017FFF05#7FFF7FFF00000000
(1790972083.534109) can0 020005FD#AA8280177FFF00E6
(1790972083.534246) can0 0400FD05#0000000000000000
(1790972083.534408) can0 020005FD#AA83802F7FFF00E6
