(1790979362.561616) can0 1200FD01#0A70000000000000
(1790979362.561776) can0 020001FD#7FFF7FEB7FFF00F0
(1790979362.561915) can0 017FFF01#7FFF7FFF00000000
(1790979362.562072) can0 020001FD#7FFF7FAB7FFF00F0
(1790979362.562213) can0 0400FD01#0000000000000000
(1790979362.562372) can0 020001FD#7FFF7F567FFF00F0
(1790979362.562511) can0 1200FD02#0A70000000000000
(1790979362.562667) can0 020002FD#7FFF805A7FFF00F0
(1790979362.562809) can0 017FFF02#7FFF7FFF00000000
(1790979362.562964) can0 020002FD#7FFF7FB77FFF00F0
(1790979362.563104) can0 0400FD02#0000000000000000
(1790979362.563272) can0 020002FD#7FFF7F147FFF00F0
(1790979362.563404) can0 1200FD03#0A70000000000000
(1790979362.563562) can0 020003FD#7FFF7FC17FFF00E6
(1790979362.563703) can0 017FFF03#7FFF7FFF00000000
(1790979362.563859) can0 020003FD#7FFF80167FFF00E6
(1790979362.564001) can0 0400FD03#0000000000000000
(1790979362.564160) can0 020003FD#7FFF805C7FFF00E6
(1790979362.564299) can0 1200FD04#0A70000000000000
(1790979362.564458) can0 020004FD#7FFF80347FFF00F0
(1790979362.564600) can0 017FFF04#7FFF7FFF00000000
(1790979362.564756) can0 020004FD#7FFF7FA47FFF00F0
(1790979362.564900) can0 0400FD04#0000000000000000
(1790979362.565058) can0 020004FD#7FFF7FD97FFF00F0
(1790979362.565196) can0 1200FD05#0A70000000000000
(1790979362.565374) can0 020005FD#7FEE800D7FFF00F0
(1790979362.565511) can0 017FFF05#7FFF7FFF00000000
(1790979362.565667) can0 020005FD#7FEE800C7FFF00F0
(1790979362.565809) can0 0400FD05#0000000000000000
(1790979362.565968) can0 020005FD#7FEE800E7FFF00F0
(1790979362.566106) can0 1800FD01#0102030405060000
(1790979362.566278) can0 020001FD#7FFF7FFA7FFF00F0
(1790979362.566412) can0 1800FD02#0102030405060000
(1790979362.566567) can0 020002FD#7FFF7F0B7FFF00F0
(1790979362.566705) can0 1800FD03#0102030405060000
(1790979362.566860) can0 020003FD#7FFF802C7FFF00E6
(1790979362.566999) can0 1800FD04#0102030405060000
(1790979362.567159) can0 020004FD#7FFF80097FFF00F0
(1790979362.567296) can0 1800FD05#0102030405060000
(1790979362.567474) can0 020005FD#7FEE7FEC7FFF00F0
(1790979362.567608) can0 04008001#00C4000000000000
(1790979362.567774) can0 02000180#00C4560003012A07
(1790979362.568059) can0 00008101#0000000000000000
(1790979362.568221) can0 000001FE#457B30020C323817
(1790979362.569104) can0 11008201#0570000000000000
(1790979362.569278) can0 11000182#0570000000000000
(1790979362.570164) can0 11008301#1970000000000000
(1790979362.570320) can0 11000183#19700000E4B8B238
(1790979362.571223) can0 11008401#1B70000000000000
(1790979362.571384) can0 11000184#1B70000000000000
(1790979362.572283) can0 11008501#2870000000000000
(1790979362.572439) can0 11000185#2870000058020000
(1790979362.573340) can0 11008601#2970000000000000
(1790979362.573523) can0 11000186#2970000000000000
(1790979362.574400) can0 11008701#2B70000000000000
(1790979362.574576) can0 11000187#2B70000000000000
(1790979362.575458) can0 04008802#00C4000000000000
(1790979362.575616) can0 02000288#00C4560003012A07
(1790979362.576523) can0 00008902#0000000000000000
(1790979362.576674) can0 000002FE#785630020C343701
(1790979362.577573) can0 11008A02#0570000000000000
(1790979362.577732) can0 1100028A#0570000000000000
(1790979362.578633) can0 11008B02#1970000000000000
(1790979362.578810) can0 1100028B#197000001DC7B238
(1790979362.579691) can0 11008C02#1B70000000000000
(1790979362.579870) can0 1100028C#1B70000000000000
(1790979362.580720) can0 11008D02#2870000000000000
(1790979362.580875) can0 1100028D#2870000058020000
(1790979362.581775) can0 11008E02#2970000000000000
(1790979362.581933) can0 1100028E#2970000000000000
(1790979362.582834) can0 11008F02#2B70000000000000
(1790979362.583019) can0 1100028F#2B70000000000000
(1790979362.583894) can0 04009003#00C4000000000000
(1790979362.584061) can0 02000390#00C4560002032207
(1790979362.584959) can0 00009103#0000000000000000
(1790979362.585109) can0 000003FE#9D6A3B859C023019
(1790979362.586012) can0 11009203#0570000000000000
(1790979362.586171) can0 11000392#0570000000000000
(1790979362.587070) can0 11009303#1970000000000000
(1790979362.587223) can0 11000393#19700000DF7BCF38
(1790979362.588130) can0 11009403#1B70000000000000
(1790979362.588309) can0 11000394#1B700000947FC0BC
(1790979362.589188) can0 11009503#2870000000000000
(1790979362.589361) can0 11000395#2870000058020000
(1790979362.590247) can0 11009603#2970000000000000
(1790979362.590413) can0 11000396#2970000000000000
(1790979362.591308) can0 11009703#2B70000000000000
(1790979362.591467) can0 11000397#2B70000000000000
(1790979362.592366) can0 04009804#00C4000000000000
(1790979362.592524) can0 02000498#00C4560002032207
(1790979362.593430) can0 00009904#0000000000000000
(1790979362.593604) can0 000004FE#8A063B8F2450B00D
(1790979362.594484) can0 11009A04#0570000000000000
(1790979362.594662) can0 1100049A#0570000000000000
(1790979362.595543) can0 11009B04#1970000000000000
(1790979362.595706) can0 1100049B#197000006BAD1B39
(1790979362.596602) can0 11009C04#1B70000000000000
(1790979362.596757) can0 1100049C#1B7000001F0AC73C
(1790979362.597660) can0 11009D04#2870000000000000
(1790979362.597816) can0 1100049D#2870000058020000
(1790979362.598723) can0 11009E04#2970000000000000
(1790979362.598878) can0 1100049E#2970000000000000
(1790979362.599779) can0 11009F04#2B70000000000000
(1790979362.599961) can0 1100049F#2B70000000000000
(1790979362.600838) can0 0400A005#00C4000000000000
(1790979362.601019) can0 020005A0#00C4560000032007
(1790979362.601897) can0 0000A105#0000000000000000
(1790979362.602066) can0 000005FE#622C30020C343701
(1790979362.602953) can0 1100A205#0570000000000000
(1790979362.603121) can0 110005A2#0570000000000000
(1790979362.604013) can0 1100A305#1970000000000000
(1790979362.604167) can0 110005A3#197000009AA7DABB
(1790979362.605072) can0 1100A405#1B70000000000000
(1790979362.605230) can0 110005A4#1B700000FA0C14BC
(1790979362.606130) can0 1100A505#2870000000000000
(1790979362.606287) can0 110005A5#2870000058020000
(1790979362.607190) can0 1100A605#2970000000000000
(1790979362.607371) can0 110005A6#2970000000000000
(1790979362.608248) can0 1100A705#2B70000000000000
(1790979362.608421) can0 110005A7#2B70000000000000
(1790979362.609329) can0 1200FD01#0A70000000000000
(1790979362.609484) can0 020001FD#7FFF80817FFF00F0
(1790979362.609626) can0 017FFF01#7FFF7FFF00000000
(1790979362.609782) can0 020001FD#7FFF803E7FFF00F0
(1790979362.609923) can0 0400FD01#0000000000000000
(1790979362.610079) can0 020001FD#7FFF7FE27FFF00F0
(1790979362.610218) can0 1200FD02#0A70000000000000
(1790979362.610375) can0 020002FD#7FFF7FE87FFF00F0
(1790979362.610516) can0 017FFF02#7FFF7FFF00000000
(1790979362.610672) can0 020002FD#7FFF801D7FFF00F0
(1790979362.610812) can0 0400FD02#0000000000000000
(1790979362.610967) can0 020002FD#7FFF80C47FFF00F0
(1790979362.611105) can0 1200FD03#0A70000000000000
(1790979362.611261) can0 020003FD#7FFF7FC57FFF00E6
(1790979362.611403) can0 017FFF03#7FFF7FFF00000000
(1790979362.611559) can0 020003FD#7FFF80507FFF00E6
(1790979362.611701) can0 0400FD03#0000000000000000
(1790979362.611859) can0 020003FD#7FFF80787FFF00E6
(1790979362.611998) can0 1200FD04#0A70000000000000
(1790979362.612158) can0 020004FD#7FFF7FC87FFF00F0
(1790979362.612300) can0 017FFF04#7FFF7FFF00000000
(1790979362.612458) can0 020004FD#7FFF803D7FFF00F0
(1790979362.612603) can0 0400FD04#0000000000000000
(1790979362.612759) can0 020004FD#7FFF7FE97FFF00F0
(1790979362.612898) can0 1200FD05#0A70000000000000
(1790979362.613073) can0 020005FD#7FEE7FF77FFF00F0
(1790979362.613210) can0 017FFF05#7FFF7FFF00000000
(1790979362.613365) can0 020005FD#7FEE80337FFF00F0
(1790979362.613506) can0 0400FD05#0000000000000000
(1790979362.613674) can0 020005FD#7FEE80087FFF00F0
(1790979362.613805) can0 1200FD01#2870000058020000
(1790979362.613978) can0 020001FD#7FFF7F9E7FFF00F0
(1790979362.614113) can0 1100B001#2870000000000000
(1790979362.614274) can0 110001B0#2870000058020000
(1790979362.614631) can0 1200FD02#2870000058020000
(1790979362.614815) can0 020002FD#7FFF806C7FFF00F0
(1790979362.614948) can0 1100B102#2870000000000000
(1790979362.615117) can0 110002B1#2870000058020000
(1790979362.615692) can0 1200FD03#2870000058020000
(1790979362.615866) can0 020003FD#7FFF801F7FFF00E6
(1790979362.615999) can0 1100B203#2870000000000000
(1790979362.616161) can0 110003B2#2870000058020000
(1790979362.616718) can0 1200FD04#2870000058020000
(1790979362.616874) can0 020004FD#7FFF80607FFF00F0
(1790979362.617013) can0 1100B304#2870000000000000
(1790979362.617171) can0 110004B3#2870000058020000
(1790979362.617780) can0 1200FD05#2870000058020000
(1790979362.617935) can0 020005FD#7FEE80157FFF00F0
(1790979362.618072) can0 1100B405#2870000000000000
(1790979362.618230) can0 110005B4#2870000058020000
(1790979362.618843) can0 0600D001#0100000000000000
(1790979362.619026) can0 020001D0#7FFF7F777FFF00F0
(1790979362.619900) can0 1100E001#1970000000000000
(1790979362.620073) can0 110001E0#19700000ABAA3238
(1790979362.620964) can0 0600D102#0100000000000000
(1790979362.621122) can0 020002D1#7FFF7F9A7FFF00F0
(1790979362.622020) can0 1100E102#1970000000000000
(1790979362.622172) can0 110002E1#19700000ABAA3238
(1790979362.623081) can0 0600D203#0100000000000000
(1790979362.623262) can0 020003D2#7FFF80367FFF00E6
(1790979362.624140) can0 1100E203#1970000000000000
(1790979362.624309) can0 110003E2#19700000638C4FB9
(1790979362.625204) can0 0600D304#0100000000000000
(1790979362.625363) can0 020004D3#7FFF7FBB7FFF00F0
(1790979362.626259) can0 1100E304#1970000000000000
(1790979362.626413) can0 110004E3#19700000DF7B4F38
(1790979362.627320) can0 0600D405#0100000000000000
(1790979362.627482) can0 020005D4#7FFF801B7FFF00F0
(1790979362.628377) can0 1100E405#1970000000000000
(1790979362.628532) can0 110005E4#197000009AD9A038
(1790979362.629439) can0 1100C001#2870000000000000
(1790979362.629620) can0 110001C0#2870000058020000
(1790979362.630496) can0 1100C102#2870000000000000
(1790979362.630666) can0 110002C1#2870000058020000
(1790979362.631555) can0 1100C203#2870000000000000
(1790979362.631712) can0 110003C2#2870000058020000
(1790979362.632614) can0 1100C304#2870000000000000
(1790979362.632770) can0 110004C3#2870000058020000
(1790979362.633672) can0 1100C405#2870000000000000
(1790979362.633829) can0 110005C4#2870000058020000
(1790979362.635383) can0 1200FD01#0A70000000000000
(1790979362.635540) can0 020001FD#7FFF7FA87FFF00F0
(1790979362.635681) can0 017FFF01#7FFF7FFF00000000
(1790979362.635837) can0 020001FD#7FFF80417FFF00F0
(1790979362.635977) can0 0400FD01#0000000000000000
(1790979362.636132) can0 020001FD#7FFF80477FFF00F0
(1790979362.636271) can0 1200FD02#0A70000000000000
(1790979362.636427) can0 020002FD#7FFF7FD27FFF00F0
(1790979362.636569) can0 017FFF02#7FFF7FFF00000000
(1790979362.636726) can0 020002FD#7FFF80187FFF00F0
(1790979362.636867) can0 0400FD02#0000000000000000
(1790979362.637024) can0 020002FD#7FFF7FFD7FFF00F0
(1790979362.637162) can0 1200FD03#0A70000000000000
(1790979362.637318) can0 020003FD#7FFE7FAC7FFF00E6
(1790979362.637459) can0 017FFF03#7FFF7FFF00000000
(1790979362.637613) can0 020003FD#7FFE7FD77FFF00E6
(1790979362.637756) can0 0400FD03#0000000000000000
(1790979362.637909) can0 020003FD#7FFE7FDE7FFF00E6
(1790979362.638049) can0 1200FD04#0A70000000000000
(1790979362.638208) can0 020004FD#7FFF80347FFF00F0
(1790979362.638350) can0 017FFF04#7FFF7FFF00000000
(1790979362.638507) can0 020004FD#7FFF7FCE7FFF00F0
(1790979362.638651) can0 0400FD04#0000000000000000
(1790979362.638806) can0 020004FD#7FFF7FB37FFF00F0
(1790979362.638944) can0 1200FD05#0A70000000000000
(1790979362.639124) can0 020005FD#7FFF7FAB7FFF00F0
(1790979362.639261) can0 017FFF05#7FFF7FFF00000000
(1790979362.639417) can0 020005FD#7FFF80217FFF00F0
(1790979362.639559) can0 0400FD05#0000000000000000
(1790979362.639723) can0 020005FD#7FFF802F7FFF00F0
(1790979362.648950) can0 11004001#1970000000000000
(1790979362.649121) can0 11000140#19700000390E06B9
(1790979362.650022) can0 11004101#2870000000000000
(1790979362.650179) can0 11000141#2870000058020000
(1790979362.651078) can0 11004202#1970000000000000
(1790979362.651231) can0 11000242#19700000390E0639
(1790979362.652137) can0 11004302#2870000000000000
(1790979362.652316) can0 11000243#2870000058020000
(1790979362.653198) can0 11004403#1970000000000000
(1790979362.653359) can0 11000344#19700000E79C1BB9
(1790979362.654255) can0 11004503#2870000000000000
(1790979362.654411) can0 11000345#2870000058020000
(1790979362.655317) can0 11004604#1970000000000000
(1790979362.655469) can0 11000446#19700000E79CCF38
(1790979362.656373) can0 11004704#2870000000000000
(1790979362.656531) can0 11000447#2870000058020000
(1790979362.657432) can0 11004805#1970000000000000
(1790979362.657587) can0 11000548#19700000CDCC20B8
(1790979362.658490) can0 11004905#2870000000000000
(1790979362.658670) can0 11000549#2870000058020000
(1790979362.659839) can0 0300FD01#0000000000000000
(1790979362.660098) can0 1200FD01#0570000000000000
(1790979362.660357) can0 0300FD02#0000000000000000
(1790979362.660614) can0 1200FD02#0570000000000000
(1790979362.660874) can0 0300FD03#0000000000000000
(1790979362.661133) can0 1200FD03#0570000000000000
(1790979362.661282) can0 028001FD#7FFF7F927FEA00F0
(1790979362.661424) can0 0300FD04#0000000000000000
(1790979362.661682) can0 1200FD04#0570000000000000
(1790979362.661831) can0 028002FD#7FFF8079802000F0
(1790979362.661971) can0 0300FD05#0000000000000000
(1790979362.662228) can0 1200FD05#0570000000000000
(1790979362.662376) can0 028003FD#7FFF7FCF7FF500E6
(1790979362.662517) can0 017FFF01#7FFF7FFF00000000
(1790979362.662691) can0 028001FD#7FFF80067FE200F0
(1790979362.662828) can0 017FFF02#7FFF7FFF00000000
(1790979362.662975) can0 028004FD#7FFF8078802E00F0
(1790979362.663117) can0 017FFF03#7FFF7FFF00000000
(1790979362.663263) can0 028002FD#7FFF809C804500F0
(1790979362.663406) can0 017FFF04#7FFF7FFF00000000
(1790979362.663553) can0 028003FD#7FFE7FE77FCF00E6
(1790979362.663695) can0 017FFF05#7FFF7FFF00000000
(1790979362.663842) can0 028001FD#7FFF7ED17FCF00F0
(1790979362.663989) can0 028004FD#7FFF7FF17FC900F0
(1790979362.664133) can0 028005FD#7FFF7FF7808900F0
(1790979362.664277) can0 028002FD#7FFF7FD6801E00F0
(1790979362.664421) can0 028005FD#7FFF7FFF80AE00F0
(1790979362.664556) can0 11006001#1970000000000000
(1790979362.664740) can0 11000160#1970000000000000
(1790979362.664876) can0 017FFF01#7FFF7FFF00000000
(1790979362.665024) can0 028003FD#7FFF80227FC400E6
(1790979362.665165) can0 017FFF02#7FFF7FFF00000000
(1790979362.665313) can0 02800160#7FFF7F367FDF00F0
(1790979362.665454) can0 017FFF03#7FFF7FFF00000000
(1790979362.665602) can0 028002FD#8000808A802B00F0
(1790979362.665744) can0 017FFF04#7FFF7FFF00000000
(1790979362.665890) can0 028003FD#7FFE7F9E7FCB00E6
(1790979362.666033) can0 017FFF05#7FFF7FFF00000000
(1790979362.666183) can0 028004FD#7FFF7FA8805F00F0
(1790979362.666325) can0 017FFF01#7FFF7FFF00000000
(1790979362.666472) can0 028004FD#7FFF7FA5806200F0
(1790979362.666613) can0 017FFF02#7FFF7FFF00000000
(1790979362.666762) can0 02800160#7FFF805D7FF700F0
(1790979362.666903) can0 017FFF03#7FFF7FFF00000000
(1790979362.667051) can0 028002FD#7FFF8017802A00F0
(1790979362.667193) can0 017FFF04#7FFF7FFF00000000
(1790979362.667340) can0 028003FD#7FFF7FCB7FC600E6
(1790979362.667483) can0 017FFF05#7FFF7FFF00000000
(1790979362.667630) can0 028004FD#7FFF803A805100F0
(1790979362.667776) can0 028005FD#7FFF8034808E00F0
(1790979362.667909) can0 11006101#2870000000000000
(1790979362.668056) can0 028005FD#7FFF800680CA00F0
(1790979362.668198) can0 017FFF01#7FFF7FFF00000000
(1790979362.668347) can0 028005FD#7FFF800B80A700F0
(1790979362.668490) can0 017FFF02#7FFF7FFF00000000
(1790979362.668638) can0 02800161#7FFF80397FF400F0
(1790979362.668779) can0 017FFF03#7FFF7FFF00000000
(1790979362.668928) can0 028002FD#7FFF809D801000F0
(1790979362.669070) can0 017FFF04#7FFF7FFF00000000
(1790979362.669219) can0 028003FD#7FFF80257FE600E6
(1790979362.669362) can0 017FFF05#7FFF7FFF00000000
(1790979362.669515) can0 028004FD#7FFF8000805900F0
(1790979362.669660) can0 028005FD#7FFF8000808100F0
(1790979362.669805) can0 11000161#2870000058020000
(1790979362.670637) can0 017FFF01#7FFF7FFF00000000
(1790979362.670836) can0 02800161#7FFF7FF47FF000F0
(1790979362.670973) can0 017FFF02#7FFF7FFF00000000
(1790979362.671131) can0 028002FD#7FFF8093801C00F0
(1790979362.671272) can0 017FFF03#7FFF7FFF00000000
(1790979362.671476) can0 028003FD#7FFF7FFB7FEC00E6
(1790979362.671613) can0 017FFF04#7FFF7FFF00000000
(1790979362.671821) can0 028004FD#7FFF800D805A00F0
(1790979362.671959) can0 017FFF05#7FFF7FFF00000000
(1790979362.672142) can0 028005FD#7FFE7FEB80C400F0
(1790979362.672274) can0 11006202#1970000000000000
(1790979362.672424) can0 11000262#19700000ABAA3238
(1790979362.672565) can0 017FFF01#7FFF7FFF00000000
(1790979362.672740) can0 02800161#7FFF7FB27FF100F0
(1790979362.672876) can0 017FFF02#7FFF7FFF00000000
(1790979362.673076) can0 02800262#7FFF7FFE800900F0
(1790979362.673212) can0 017FFF03#7FFF7FFF00000000
(1790979362.673426) can0 028003FD#7FFF801F800000E6
(1790979362.673564) can0 017FFF04#7FFF7FFF00000000
(1790979362.673770) can0 028004FD#7FFF7FC2803600F0
(1790979362.673908) can0 017FFF05#7FFF7FFF00000000
(1790979362.674088) can0 028005FD#7FFE7FC9808900F0
(1790979362.674222) can0 11006302#2870000000000000
(1790979362.674374) can0 11000263#2870000058020000
(1790979362.674515) can0 017FFF01#7FFF7FFF00000000
(1790979362.674689) can0 02800161#7FFF7FA47FE500F0
(1790979362.674825) can0 017FFF02#7FFF7FFF00000000
(1790979362.675026) can0 02800263#7FFF80B4800400F0
(1790979362.675163) can0 017FFF03#7FFF7FFF00000000
(1790979362.675375) can0 028003FD#7FFF7FFE7FFE00E6
(1790979362.675513) can0 017FFF04#7FFF7FFF00000000
(1790979362.675721) can0 028004FD#7FFF80237FEA00F0
(1790979362.675858) can0 017FFF05#7FFF7FFF00000000
(1790979362.676040) can0 028005FD#7FFE7F95807600F0
(1790979362.676173) can0 11006403#1970000000000000
(1790979362.676326) can0 11000364#19700000DF7BCFB8
(1790979362.676470) can0 017FFF01#7FFF7FFF00000000
(1790979362.676640) can0 02800161#7FFF801E7FF300F0
(1790979362.676776) can0 017FFF02#7FFF7FFF00000000
(1790979362.676976) can0 02800263#7FFF7FE3801000F0
(1790979362.677113) can0 017FFF03#7FFF7FFF00000000
(1790979362.677324) can0 02800364#7FFF7FB0800100E6
(1790979362.677461) can0 017FFF04#7FFF7FFF00000000
(1790979362.677673) can0 028004FD#7FFF7FDD802C00F0
(1790979362.677810) can0 017FFF05#7FFF7FFF00000000
(1790979362.677988) can0 028005FD#7FFE7FCE808E00F0
(1790979362.678120) can0 11006503#2870000000000000
(1790979362.678273) can0 11000365#2870000058020000
(1790979362.678414) can0 017FFF01#7FFF7FFF00000000
(1790979362.678589) can0 02800161#7FFF7F8E800000F0
(1790979362.678726) can0 017FFF02#7FFF7FFF00000000
(1790979362.678925) can0 02800263#7FFF7FD8800A00F0
(1790979362.679061) can0 017FFF03#7FFF7FFF00000000
(1790979362.679274) can0 02800365#7FFF80197FF100E6
(1790979362.679411) can0 017FFF04#7FFF7FFF00000000
(1790979362.679624) can0 028004FD#7FFF8016801000F0
(1790979362.679761) can0 017FFF05#7FFF7FFF00000000
(1790979362.679937) can0 028005FD#7FFE7FCB805100F0
(1790979362.680071) can0 11006604#1970000000000000
(1790979362.680226) can0 11000466#1970000000000000
(1790979362.680368) can0 017FFF01#7FFF7FFF00000000
(1790979362.680541) can0 02800161#7FFF7FB0800900F0
(1790979362.680675) can0 017FFF02#7FFF7FFF00000000
(1790979362.680873) can0 02800263#7FFF8060800600F0
(1790979362.681009) can0 017FFF03#7FFF7FFF00000000
(1790979362.681222) can0 02800365#7FFE7FBB7FF900E6
(1790979362.681359) can0 017FFF04#7FFF7FFF00000000
(1790979362.681571) can0 02800466#7FFF7FE6802200F0
(1790979362.681708) can0 017FFF05#7FFF7FFF00000000
(1790979362.681890) can0 028005FD#7FFE7FDD803C00F0
(1790979362.682025) can0 11006704#2870000000000000
(1790979362.682223) can0 11000467#2870000058020000
(1790979362.682360) can0 017FFF01#7FFF7FFF00000000
(1790979362.682540) can0 02800161#7FFF807D7FFA00F0
(1790979362.682676) can0 017FFF02#7FFF7FFF00000000
(1790979362.682878) can0 02800263#7FFF801D801700F0
(1790979362.683014) can0 017FFF03#7FFF7FFF00000000
(1790979362.683223) can0 02800365#7FFF7FD2800100E6
(1790979362.683360) can0 017FFF04#7FFF7FFF00000000
(1790979362.683577) can0 02800467#7FFF8005802400F0
(1790979362.683711) can0 017FFF05#7FFF7FFF00000000
(1790979362.683890) can0 028005FD#7FFE7FFA802800F0
(1790979362.684022) can0 11006805#1970000000000000
(1790979362.684180) can0 11000568#197000009AD920BA
(1790979362.684322) can0 017FFF01#7FFF7FFF00000000
(1790979362.684492) can0 02800161#7FFF7FEB800100F0
(1790979362.684631) can0 017FFF02#7FFF7FFF00000000
(1790979362.684826) can0 02800263#7FFF808B801300F0
(1790979362.684962) can0 017FFF03#7FFF7FFF00000000
(1790979362.685174) can0 02800365#7FFF80127FEC00E6
(1790979362.685311) can0 017FFF04#7FFF7FFF00000000
(1790979362.685521) can0 02800467#7FFF8013804000F0
(1790979362.685659) can0 017FFF05#7FFF7FFF00000000
(1790979362.685840) can0 02800568#7FFD7FC6802800F0
(1790979362.685973) can0 11006905#2870000000000000
(1790979362.686131) can0 11000569#2870000058020000
(1790979362.686272) can0 017FFF01#7FFF7FFF00000000
(1790979362.686441) can0 02800161#7FFF7FF97FEE00F0
(1790979362.686577) can0 017FFF02#7FFF7FFF00000000
(1790979362.686775) can0 02800263#7FFF8030800B00F0
(1790979362.686911) can0 017FFF03#7FFF7FFF00000000
(1790979362.687123) can0 02800365#7FFF7FCE7FFB00E6
(1790979362.687261) can0 017FFF04#7FFF7FFF00000000
(1790979362.687472) can0 02800467#7FFF801F802300F0
(1790979362.687610) can0 017FFF05#7FFF7FFF00000000
(1790979362.687788) can0 02800569#7FFD7FF1805200F0
(1790979362.687924) can0 017FFF01#7FFF7FFF00000000
(1790979362.688092) can0 02800161#7FFF7F7C7FF300F0
(1790979362.688226) can0 017FFF02#7FFF7FFF00000000
(1790979362.688425) can0 02800263#7FFF7F0F803200F0
(1790979362.688561) can0 017FFF03#7FFF7FFF00000000
(1790979362.688774) can0 02800365#7FFF800D7FEE00E6
(1790979362.688911) can0 017FFF04#7FFF7FFF00000000
(1790979362.689122) can0 02800467#7FFF7FBC801600F0
(1790979362.689255) can0 017FFF05#7FFF7FFF0F5C6666
(1790979362.689442) can0 02800569#7FFD800F801600F0
(1790979362.692010) can0 017FFF01#7FFF7FFF00000000
(1790979362.692192) can0 02800161#7FFF7FCE7FF000F0
(1790979362.692328) can0 017FFF02#7FFF7FFF00000000
(1790979362.692528) can0 02800263#7FFF80337FF200F0
(1790979362.692662) can0 017FFF03#7FFF7FFF00000000
(1790979362.692870) can0 02800365#7FFE7FB2802100E6
(1790979362.693007) can0 017FFF04#7FFF7FFF00000000
(1790979362.693220) can0 02800467#7FFF7FEE7FD300F0
(1790979362.693353) can0 017FFF05#7FFE7FFF0F5C6666
(1790979362.693539) can0 02800569#7FFD80367FD800F0
(1790979362.697002) can0 017FFF01#7FFF7FFF00000000
(1790979362.697191) can0 02800161#7FFF80AC800600F0
(1790979362.697327) can0 017FFF02#7FFF7FFF00000000
(1790979362.697525) can0 02800263#7FFF80CC7FE700F0
(1790979362.697661) can0 017FFF03#7FFF7FFF00000000
(1790979362.697872) can0 02800365#7FFF7FD77FF500E6
(1790979362.698009) can0 017FFF04#7FFF7FFF00000000
(1790979362.698223) can0 02800467#7FFF7FCF800F00F0
(1790979362.698355) can0 017FFF05#7FFE7FFF0F5C6666
(1790979362.698538) can0 02800569#7FFD800C803000F0
(1790979362.702002) can0 017FFF01#7FFF7FFF00000000
(1790979362.702190) can0 02800161#7FFF7F5C800F00F0
(1790979362.702326) can0 017FFF02#7FFF7FFF00000000
(1790979362.702529) can0 02800263#7FFF80107FFE00F0
(1790979362.702665) can0 017FFF03#7FFF7FFF00000000
(1790979362.702874) can0 02800365#7FFF80157FFA00E6
(1790979362.703011) can0 017FFF04#7FFF7FFF00000000
(1790979362.703224) can0 02800467#7FFF7FE07FE400F0
(1790979362.703357) can0 017FFF05#7FFD7FFF0F5C6666
(1790979362.703537) can0 02800569#7FFD7FDE801500F0
(1790979362.707001) can0 017FFF01#7FFF7FFF00000000
(1790979362.707188) can0 02800161#7FFF80697FF500F0
(1790979362.707324) can0 017FFF02#7FFF7FFF00000000
(1790979362.707521) can0 02800263#7FFF80A1800B00F0
(1790979362.707657) can0 017FFF03#7FFF7FFF00000000
(1790979362.707872) can0 02800365#7FFF8062800600E6
(1790979362.708009) can0 017FFF04#7FFF7FFF00000000
(1790979362.708221) can0 02800467#7FFF7FB8803100F0
(1790979362.708353) can0 017FFF05#7FFC7FFF0F5C6666
(1790979362.708538) can0 02800569#7FFD7FBD7FF200F0
(1790979362.712001) can0 017FFF01#7FFF7FFF00000000
(1790979362.712190) can0 02800161#7FFF8012800000F0
(1790979362.712326) can0 017FFF02#7FFF7FFF00000000
(1790979362.712528) can0 02800263#7FFF7EB47FEC00F0
(1790979362.712663) can0 017FFF03#7FFF7FFF00000000
(1790979362.712872) can0 02800365#7FFF8044802000E6
(1790979362.713009) can0 017FFF04#7FFF7FFF00000000
(1790979362.713221) can0 02800467#7FFF803B800900F0
(1790979362.713352) can0 017FFF05#7FFC7FFF0F5C6666
(1790979362.713541) can0 02800569#7FFD802B800000F0
(1790979362.717003) can0 017FFF01#7FFF7FFF00000000
(1790979362.717189) can0 02800161#7FFF7F987FFB00F0
(1790979362.717325) can0 017FFF02#7FFF7FFF00000000
(1790979362.717524) can0 02800263#7FFF7FAF7FF900F0
(1790979362.717660) can0 017FFF03#7FFF7FFF00000000
(1790979362.717875) can0 02800365#7FFF80207FF400E6
(1790979362.718012) can0 017FFF04#7FFF7FFF00000000
(1790979362.718221) can0 02800467#7FFF7FC87FF700F0
(1790979362.718352) can0 017FFF05#7FFB7FFF0F5C6666
(1790979362.718539) can0 02800569#7FFD802E7FEA00F0
(1790979362.722003) can0 017FFF01#7FFF7FFF00000000
(1790979362.722191) can0 02800161#7FFF801B7FF600F0
(1790979362.722327) can0 017FFF02#7FFF7FFF00000000
(1790979362.722527) can0 02800263#7FFF807F801100F0
(1790979362.722663) can0 017FFF03#7FFF7FFF00000000
(1790979362.722874) can0 02800365#7FFF8018800300E6
(1790979362.723012) can0 017FFF04#7FFF7FFF00000000
(1790979362.723221) can0 02800467#7FFF7FBD801B00F0
(1790979362.723354) can0 017FFF05#7FFA7FFF0F5C6666
(1790979362.723539) can0 02800569#7FFD80327FE500F0
(1790979362.727004) can0 017FFF01#7FFF7FFF00000000
(1790979362.727189) can0 02800161#7FFF80CF800E00F0
(1790979362.727325) can0 017FFF02#7FFF7FFF00000000
(1790979362.727528) can0 02800263#7FFF80037FE400F0
(1790979362.727664) can0 017FFF03#7FFF7FFF00000000
(1790979362.727875) can0 02800365#7FFF8017800000E6
(1790979362.728012) can0 017FFF04#7FFF7FFF00000000
(1790979362.728220) can0 02800467#7FFF7FAE801700F0
(1790979362.728353) can0 017FFF05#7FFA7FFF0F5C6666
(1790979362.728539) can0 02800569#7FFD800B7FB900F0
(1790979362.732004) can0 017FFF01#7FFF7FFF00000000
(1790979362.732192) can0 02800161#7FFF80B87FFC00F0
(1790979362.732328) can0 017FFF02#7FFF7FFF00000000
(1790979362.732529) can0 02800263#7FFF802D7FF700F0
(1790979362.732663) can0 017FFF03#7FFF7FFF00000000
(1790979362.732873) can0 02800365#7FFF8009801A00E6
(1790979362.733010) can0 017FFF04#7FFF7FFF00000000
(1790979362.733221) can0 02800467#7FFF7FC4802000F0
(1790979362.733354) can0 017FFF05#7FF97FFF0F5C6666
(1790979362.733537) can0 02800569#7FFD80217FC200F0
(1790979362.737003) can0 017FFF01#7FFF7FFF00000000
(1790979362.737194) can0 02800161#7FFF80907FFE00F0
(1790979362.737330) can0 017FFF02#7FFF7FFF00000000
(1790979362.737528) can0 02800263#7FFF7F197FF500F0
(1790979362.737664) can0 017FFF03#7FFF7FFF00000000
(1790979362.737873) can0 02800365#7FFF7FDB800500E6
(1790979362.738010) can0 017FFF04#7FFF7FFF00000000
(1790979362.738221) can0 02800467#7FFF80027FF800F0
(1790979362.738353) can0 017FFF05#7FF87FFF0F5C6666
(1790979362.738536) can0 02800569#7FFD80217FCF00F0
(1790979362.742005) can0 017FFF01#7FFF7FFF00000000
(1790979362.742189) can0 02800161#7FFF7FD87FF000F0
(1790979362.742325) can0 017FFF02#7FFF7FFF00000000
(1790979362.742523) can0 02800263#7FFF8081801500F0
(1790979362.742659) can0 017FFF03#7FFF7FFF00000000
(1790979362.742876) can0 02800365#7FFF80107FF600E6
(1790979362.743013) can0 017FFF04#7FFF7FFF00000000
(1790979362.743222) can0 02800467#7FFF7FB0800C00F0
(1790979362.743353) can0 017FFF05#7FF87FFF0F5C6666
(1790979362.743578) can0 02800569#7FFC7FFF7FC500F0
(1790979362.747003) can0 017FFF01#7FFF7FFF00000000
(1790979362.747189) can0 02800161#7FFF80127FFA00F0
(1790979362.747325) can0 017FFF02#7FFF7FFF00000000
(1790979362.747524) can0 02800263#7FFF801F800700F0
(1790979362.747660) can0 017FFF03#7FFF7FFF00000000
(1790979362.747872) can0 02800365#7FFF802C800200E6
(1790979362.748009) can0 017FFF04#7FFF7FFF00000000
(1790979362.748219) can0 02800467#7FFF7FCB7FA600F0
(1790979362.748351) can0 017FFF05#7FF77FFF0F5C6666
(1790979362.748538) can0 02800569#7FFC803D7F8700F0
(1790979362.752003) can0 017FFF01#7FFF7FFF00000000
(1790979362.752189) can0 02800161#7FFF7F5D800000F0
(1790979362.752325) can0 017FFF02#7FFF7FFF00000000
(1790979362.752524) can0 02800263#7FFF808D801500F0
(1790979362.752659) can0 017FFF03#7FFF7FFF00000000
(1790979362.752872) can0 02800365#7FFE7FC7800000E6
(1790979362.753009) can0 017FFF04#7FFF7FFF00000000
(1790979362.753220) can0 02800467#7FFF800E7FD500F0
(1790979362.753352) can0 017FFF05#7FF77FFF0F5C6666
(1790979362.753537) can0 02800569#7FFC7FDE7F6F00F0
(1790979362.757003) can0 017FFF01#7FFF7FFF00000000
(1790979362.757189) can0 02800161#7FFF7FB6800300F0
(1790979362.757325) can0 017FFF02#7FFF7FFF00000000
(1790979362.757522) can0 02800263#7FFF7F0B7FF600F0
(1790979362.757658) can0 017FFF03#7FFF7FFF00000000
(1790979362.757871) can0 02800365#7FFE7FB6802500E6
(1790979362.758008) can0 017FFF04#7FFF7FFF00000000
(1790979362.758222) can0 02800467#7FFF7FDC801400F0
(1790979362.758354) can0 017FFF05#7FF67FFF0F5C6666
(1790979362.758538) can0 02800569#7FFC7FF17FA100F0
(1790979362.762003) can0 017FFF01#7FFF7FFF00000000
(1790979362.762190) can0 02800161#7FFF801D800200F0
(1790979362.762327) can0 017FFF02#7FFF7FFF00000000
(1790979362.762528) can0 02800263#7FFF801E7FEF00F0
(1790979362.762664) can0 017FFF03#7FFF7FFF00000000
(1790979362.762873) can0 02800365#7FFF80537FF700E6
(1790979362.763010) can0 017FFF04#7FFF7FFF00000000
(1790979362.763222) can0 02800467#7FFF8018801A00F0
(1790979362.763354) can0 017FFF05#7FF57FFF0F5C6666
(1790979362.763538) can0 02800569#7FFC7FF77FD600F0
(1790979362.767004) can0 017FFF01#7FFF7FFF00000000
(1790979362.767190) can0 02800161#7FFF7F6F7FF400F0
(1790979362.767327) can0 017FFF02#7FFF7FFF00000000
(1790979362.767526) can0 02800263#7FFF800C801D00F0
(1790979362.767662) can0 017FFF03#7FFF7FFF00000000
(1790979362.767874) can0 02800365#7FFF7FCB801000E6
(1790979362.768011) can0 017FFF04#7FFF7FFF00000000
(1790979362.768221) can0 02800467#7FFF801B800F00F0
(1790979362.768353) can0 017FFF05#7FF57FFF0F5C6666
(1790979362.768539) can0 02800569#7FFB80097F7000F0
(1790979362.772002) can0 017FFF01#7FFF7FFF00000000
(1790979362.772188) can0 02800161#7FFF80277FFB00F0
(1790979362.772325) can0 017FFF02#7FFF7FFF00000000
(1790979362.772524) can0 02800263#7FFF811D7FE500F0
(1790979362.772658) can0 017FFF03#7FFF7FFF00000000
(1790979362.772873) can0 02800365#7FFF7FC3800100E6
(1790979362.773010) can0 017FFF04#7FFF7FFF00000000
(1790979362.773221) can0 02800467#7FFF800D802000F0
(1790979362.773353) can0 017FFF05#7FF47FFF0F5C6666
(1790979362.773539) can0 02800569#7FFB7FA27F8400F0
(1790979362.777003) can0 017FFF01#7FFF7FFF00000000
(1790979362.777189) can0 02800161#7FFF7FF87FFB00F0
(1790979362.777326) can0 017FFF02#7FFF7FFF00000000
(1790979362.777525) can0 02800263#7FFF7F8A7FF800F0
(1790979362.777661) can0 017FFF03#7FFF7FFF00000000
(1790979362.777873) can0 02800365#7FFF8040800A00E6
(1790979362.778010) can0 017FFF04#7FFF7FFF00000000
(1790979362.778223) can0 02800467#7FFF8041800000F0
(1790979362.778356) can0 017FFF05#7FF37FFF0F5C6666
(1790979362.778537) can0 02800569#7FFB7FAB7FB600F0
(1790979362.782004) can0 017FFF01#7FFF7FFF00000000
(1790979362.782188) can0 02800161#800080B87FF300F0
(1790979362.782325) can0 017FFF02#7FFF7FFF00000000
(1790979362.782524) can0 02800263#7FFF7F577FD800F0
(1790979362.782660) can0 017FFF03#7FFF7FFF00000000
(1790979362.782874) can0 02800365#7FFF7FEC7FFF00E6
(1790979362.783011) can0 017FFF04#7FFF7FFF00000000
(1790979362.783222) can0 02800467#7FFF8056800C00F0
(1790979362.783355) can0 017FFF05#7FF37FFF0F5C6666
(1790979362.783577) can0 02800569#7FFB80087F7300F0
(1790979362.787004) can0 017FFF01#7FFF7FFF00000000
(1790979362.787187) can0 02800161#7FFF7FC77FF500F0
(1790979362.787324) can0 017FFF02#7FFF7FFF00000000
(1790979362.787522) can0 02800263#7FFF80D97FF800F0
(1790979362.787659) can0 017FFF03#7FFF7FFF00000000
(1790979362.787871) can0 02800365#7FFE7FD2800F00E6
(1790979362.788008) can0 017FFF04#7FFF7FFF00000000
(1790979362.788218) can0 02800467#7FFF80277FDA00F0
(1790979362.788349) can0 017FFF05#7FF27FFF0F5C6666
(1790979362.788541) can0 02800569#7FFB80007F5E00F0
(1790979362.792004) can0 017FFF01#7FFF7FFF00000000
(1790979362.792188) can0 02800161#7FFF804A7FF600F0
(1790979362.792325) can0 017FFF02#7FFF7FFF00000000
(1790979362.792525) can0 02800263#7FFF8025800A00F0
(1790979362.792659) can0 017FFF03#7FFF7FFF00000000
(1790979362.792873) can0 02800365#7FFF7FE27FF500E6
(1790979362.793010) can0 017FFF04#7FFF7FFF00000000
(1790979362.793220) can0 02800467#7FFF802D7FFF00F0
(1790979362.793353) can0 017FFF05#7FF17FFF0F5C6666
(1790979362.793540) can0 02800569#7FFA7FFA7F3C00F0
(1790979362.797003) can0 017FFF01#7FFF7FFF00000000
(1790979362.797188) can0 02800161#7FFF80717FF700F0
(1790979362.797325) can0 017FFF02#7FFF7FFF00000000
(1790979362.797522) can0 02800263#7FFF8038800200F0
(1790979362.797658) can0 017FFF03#7FFF7FFF00000000
(1790979362.797873) can0 02800365#7FFF80587FF200E6
(1790979362.798010) can0 017FFF04#7FFF7FFF00000000
(1790979362.798220) can0 02800467#7FFF8020800600F0
(1790979362.798353) can0 017FFF05#7FF17FFF0F5C6666
(1790979362.798576) can0 02800569#7FFA80457F7600F0
(1790979362.802004) can0 017FFF01#7FFF7FFF00000000
(1790979362.802189) can0 02800161#7FFF7F407FF100F0
(1790979362.802326) can0 017FFF02#7FFF7FFF00000000
(1790979362.802526) can0 02800263#7FFF7FA07FF400F0
(1790979362.802663) can0 017FFF03#7FFF7FFF00000000
(1790979362.802875) can0 02800365#7FFF803B7FF400E6
(1790979362.803012) can0 017FFF04#7FFF7FFF00000000
(1790979362.803220) can0 02800467#7FFF802E7FE700F0
(1790979362.803351) can0 017FFF05#7FF07FFF0F5C6666
(1790979362.803579) can0 02800569#7FFA80237F2C00F0
(1790979362.807002) can0 017FFF01#7FFF7FFF00000000
(1790979362.807189) can0 02800161#7FFF80F57FFE00F0
(1790979362.807325) can0 017FFF02#7FFF7FFF00000000
(1790979362.807525) can0 02800263#7FFF8091801800F0
(1790979362.807662) can0 017FFF03#7FFF7FFF00000000
(1790979362.807874) can0 02800365#7FFF7FBC7FF000E6
(1790979362.808011) can0 017FFF04#7FFF7FFF00000000
(1790979362.808220) can0 02800467#7FFF80507FEF00F0
(1790979362.808351) can0 017FFF05#7FEF7FFF0F5C6666
(1790979362.808539) can0 02800569#7FFA7FF97F3800F0
(1790979362.812003) can0 017FFF01#7FFF7FFF00000000
(1790979362.812187) can0 02800161#7FFF80DA800200F0
(1790979362.812323) can0 017FFF02#7FFF7FFF00000000
(1790979362.812524) can0 02800263#7FFF7FEA7FE900F0
(1790979362.812658) can0 017FFF03#7FFF7FFF00000000
(1790979362.812873) can0 02800365#7FFF7FCC800400E6
(1790979362.813010) can0 017FFF04#7FFF7FFF00000000
(1790979362.813224) can0 02800467#7FFF801C7FF400F0
(1790979362.813355) can0 017FFF05#7FEF7FFF0F5C6666
(1790979362.813538) can0 02800569#7FFA7FE57F3900F0
(1790979362.817005) can0 017FFF01#7FFF7FFF00000000
(1790979362.817191) can0 02800161#7FFF7F8E801400F0
(1790979362.817327) can0 017FFF02#7FFF7FFF00000000
(1790979362.817525) can0 02800263#7FFF7F937FF700F0
(1790979362.817662) can0 017FFF03#7FFF7FFF00000000
(1790979362.817874) can0 02800365#7FFF805D801C00E6
(1790979362.818011) can0 017FFF04#7FFF7FFF00000000
(1790979362.818220) can0 02800467#7FFE7FBF801900F0
(1790979362.818351) can0 017FFF05#7FEE7FFF0F5C6666
(1790979362.818537) can0 02800569#7FF97FB97F4300F0
(1790979362.822005) can0 017FFF01#7FFF7FFF00000000
(1790979362.822187) can0 02800161#7FFF802B800A00F0
(1790979362.822323) can0 017FFF02#7FFF7FFF00000000
(1790979362.822523) can0 02800263#7FFF7FCF800000F0
(1790979362.822659) can0 017FFF03#7FFF7FFF00000000
(1790979362.822873) can0 02800365#7FFF7FA0800400E6
(1790979362.823011) can0 017FFF04#7FFF7FFF00000000
(1790979362.823220) can0 02800467#7FFF7FC5800500F0
(1790979362.823351) can0 017FFF05#7FED7FFF0F5C6666
(1790979362.823539) can0 02800569#7FF97FAF7F4C00F0
(1790979362.827004) can0 017FFF01#7FFF7FFF00000000
(1790979362.827189) can0 02800161#7FFF7FE5800600F0
(1790979362.827325) can0 017FFF02#7FFF7FFF00000000
(1790979362.827526) can0 02800263#7FFF7FF5801000F0
(1790979362.827663) can0 017FFF03#7FFF7FFF00000000
(1790979362.827874) can0 02800365#7FFF7FBD800400E6
(1790979362.828011) can0 017FFF04#7FFF7FFF00000000
(1790979362.828219) can0 02800467#7FFF800B7FD200F0
(1790979362.828350) can0 017FFF05#7FED7FFF0F5C6666
(1790979362.828580) can0 02800569#7FF9805F7F5000F0
(1790979362.832003) can0 017FFF01#7FFF7FFF00000000
(1790979362.832188) can0 02800161#7FFF800B800700F0
(1790979362.832324) can0 017FFF02#7FFF7FFF00000000
(1790979362.832525) can0 02800263#7FFF8043801100F0
(1790979362.832659) can0 017FFF03#7FFF7FFF00000000
(1790979362.832873) can0 02800365#7FFF80407FF900E6
(1790979362.833011) can0 017FFF04#7FFF7FFF00000000
(1790979362.833218) can0 02800467#7FFF8029802700F0
(1790979362.833350) can0 017FFF05#7FEC7FFF0F5C6666
(1790979362.833540) can0 02800569#7FF8800D7F1400F0
(1790979362.837004) can0 017FFF01#7FFF7FFF00000000
(1790979362.837187) can0 02800161#7FFF80547FFD00F0
(1790979362.837323) can0 017FFF02#7FFF7FFF00000000
(1790979362.837523) can0 02800263#7FFF7FA2800C00F0
(1790979362.837659) can0 017FFF03#7FFF7FFF00000000
(1790979362.837872) can0 02800365#7FFF80357FF300E6
(1790979362.838010) can0 017FFF04#7FFF7FFF00000000
(1790979362.838222) can0 02800467#7FFF800F7FE000F0
(1790979362.838354) can0 017FFF05#7FEB7FFF0F5C6666
(1790979362.838539) can0 02800569#7FF87FE27F5800F0
(1790979362.842004) can0 017FFF01#7FFF7FFF00000000
(1790979362.842187) can0 02800161#7FFF7F93800700F0
(1790979362.842323) can0 017FFF02#7FFF7FFF00000000
(1790979362.842520) can0 02800263#7FFF7FC4801B00F0
(1790979362.842656) can0 017FFF03#7FFF7FFF00000000
(1790979362.842873) can0 02800365#7FFE7FF37FF000E6
(1790979362.843010) can0 017FFF04#7FFF7FFF00000000
(1790979362.843220) can0 02800467#7FFF80167FE700F0
(1790979362.843353) can0 017FFF05#7FEB7FFF0F5C6666
(1790979362.843539) can0 02800569#7FF77FDD7F9400F0
(1790979362.847004) can0 017FFF01#7FFF7FFF00000000
(1790979362.847189) can0 02800161#7FFF7FBA7FF000F0
(1790979362.847325) can0 017FFF02#7FFF7FFF00000000
(1790979362.847523) can0 02800263#7FFF7F4A7FF100F0
(1790979362.847659) can0 017FFF03#7FFF7FFF00000000
(1790979362.847871) can0 02800365#7FFF8056800F00E6
(1790979362.848008) can0 017FFF04#7FFF7FFF00000000
(1790979362.848219) can0 02800467#7FFF80737FE900F0
(1790979362.848351) can0 017FFF05#7FEA7FFF0F5C6666
(1790979362.848538) can0 02800569#7FF67FAC7FA800F0
(1790979362.852004) can0 017FFF01#7FFF7FFF00000000
(1790979362.852188) can0 02800161#7FFF80627FF900F0
(1790979362.852324) can0 017FFF02#7FFF7FFF00000000
(1790979362.852525) can0 02800263#7FFF7FE77FE100F0
(1790979362.852659) can0 017FFF03#7FFF7FFF00000000
(1790979362.852871) can0 02800365#7FFF803B7FF700E6
(1790979362.853008) can0 017FFF04#7FFF7FFF00000000
(1790979362.853220) can0 02800467#7FFF7FEB800D00F0
(1790979362.853352) can0 017FFF05#7FE97FFF0F5C6666
(1790979362.853579) can0 02800569#7FF57FD87FC400F0
(1790979362.857005) can0 017FFF01#7FFF7FFF00000000
(1790979362.857189) can0 02800161#7FFF80077FEE00F0
(1790979362.857325) can0 017FFF02#7FFF7FFF00000000
(1790979362.857523) can0 02800263#7FFF7FDC800000F0
(1790979362.857659) can0 017FFF03#7FFF7FFF00000000
(1790979362.857874) can0 02800365#7FFF80407FEC00E6
(1790979362.858012) can0 017FFF04#7FFF7FFF00000000
(1790979362.858222) can0 02800467#7FFE7FDF800C00F0
(1790979362.858354) can0 017FFF05#7FE97FFF0F5C6666
(1790979362.858537) can0 02800569#7FF57FDF7F7B00F0
(1790979362.862004) can0 017FFF01#7FFF7FFF00000000
(1790979362.862190) can0 02800161#7FFF7F607FFA00F0
(1790979362.862326) can0 017FFF02#7FFF7FFF00000000
(1790979362.862525) can0 02800263#7FFF8039800B00F0
(1790979362.862661) can0 017FFF03#7FFF7FFF00000000
(1790979362.862872) can0 02800365#7FFF7FA57FF300E6
(1790979362.863010) can0 017FFF04#7FFF7FFF00000000
(1790979362.863221) can0 02800467#7FFF800D802B00F0
(1790979362.863352) can0 017FFF05#7FE87FFF0F5C6666
(1790979362.863537) can0 02800569#7FF47F9F7FB600F0
(1790979362.867005) can0 017FFF01#7FFF7FFF00000000
(1790979362.867187) can0 02800161#7FFF80297FF700F0
(1790979362.867323) can0 017FFF02#7FFF7FFF00000000
(1790979362.867522) can0 02800263#7FFF7FC57FF500F0
(1790979362.867658) can0 017FFF03#7FFF7FFF00000000
(1790979362.867871) can0 02800365#7FFF7FDB7FF700E6
(1790979362.868008) can0 017FFF04#7FFF7FFF00000000
(1790979362.868218) can0 02800467#7FFF7FE37FD200F0
(1790979362.868350) can0 017FFF05#7FE87FFF0F5C6666
(1790979362.868539) can0 02800569#7FF37FAD7FBB00F0
(1790979362.872005) can0 017FFF01#7FFF7FFF00000000
(1790979362.872188) can0 02800161#7FFF7F38800600F0
(1790979362.872324) can0 017FFF02#7FFF7FFF00000000
(1790979362.872524) can0 02800263#7FFF7F9C7FFD00F0
(1790979362.872658) can0 017FFF03#7FFF7FFF00000000
(1790979362.872872) can0 02800365#7FFF7FD8801100E6
(1790979362.873009) can0 017FFF04#7FFF7FFF00000000
(1790979362.873219) can0 02800467#7FFF8010800A00F0
(1790979362.873352) can0 017FFF05#7FE77FFF0F5C6666
(1790979362.873576) can0 02800569#7FF27FBF7FC700F0
(1790979362.877003) can0 017FFF01#7FFF7FFF00000000
(1790979362.877187) can0 02800161#7FFF7FA1800B00F0
(1790979362.877323) can0 017FFF02#7FFF7FFF00000000
(1790979362.877523) can0 02800263#7FFF807F7FEB00F0
(1790979362.877659) can0 017FFF03#7FFF7FFF00000000
(1790979362.877871) can0 02800365#7FFF7FDA800E00E6
(1790979362.878008) can0 017FFF04#7FFF7FFF00000000
(1790979362.878220) can0 02800467#7FFF7FE7802900F0
(1790979362.878351) can0 017FFF05#7FE67FFF0F5C6666
(1790979362.878538) can0 02800569#7FF17F9B7F9000F0
(1790979362.882004) can0 017FFF01#7FFF7FFF00000000
(1790979362.882190) can0 02800161#7FFF804F800100F0
(1790979362.882326) can0 017FFF02#7FFF7FFF00000000
(1790979362.882527) can0 02800263#7FFF80727FEC00F0
(1790979362.882663) can0 017FFF03#7FFF7FFF00000000
(1790979362.882875) can0 02800365#7FFF7FE0800000E6
(1790979362.883012) can0 017FFF04#7FFF7FFF00000000
(1790979362.883218) can0 02800467#7FFF80287FDA00F0
(1790979362.883350) can0 017FFF05#7FE67FFF0F5C6666
(1790979362.883536) can0 02800569#7FF17FBB7F6700F0
(1790979362.887005) can0 017FFF01#7FFF7FFF00000000
(1790979362.887189) can0 02800161#7FFF7FBC7FFE00F0
(1790979362.887325) can0 017FFF02#7FFF7FFF00000000
(1790979362.887526) can0 02800263#7FFF7FB07FFC00F0
(1790979362.887662) can0 017FFF03#7FFF7FFF00000000
(1790979362.887873) can0 02800365#7FFF7FCE801E00E6
(1790979362.888010) can0 017FFF04#7FFF7FFF00000000
(1790979362.888219) can0 02800467#7FFF7FFD800E00F0
(1790979362.888351) can0 017FFF05#7FE57FFF0F5C6666
(1790979362.888538) can0 02800569#7FF17FDA7FB100F0
(1790979362.892007) can0 017FFF01#7FFF7FFF00000000
(1790979362.892187) can0 02800161#7FFF80137FE600F0
(1790979362.892324) can0 017FFF02#7FFF7FFF00000000
(1790979362.892525) can0 02800263#7FFF808F800500F0
(1790979362.892659) can0 017FFF03#7FFF7FFF00000000
(1790979362.892873) can0 02800365#7FFF80087FE400E6
(1790979362.893010) can0 017FFF04#7FFF7FFF00000000
(1790979362.893220) can0 02800467#7FFF8015800A00F0
(1790979362.893352) can0 017FFF05#7FE47FFF0F5C6666
(1790979362.893536) can0 02800569#7FF07FAB7F8A00F0
(1790979362.897008) can0 017FFF01#7FFF7FFF00000000
(1790979362.897188) can0 02800161#7FFF80947FFE00F0
(1790979362.897324) can0 017FFF02#7FFF7FFF00000000
(1790979362.897523) can0 02800263#7FFF7FB97FF000F0
(1790979362.897659) can0 017FFF03#7FFF7FFF00000000
(1790979362.897872) can0 02800365#7FFE7FEF801D00E6
(1790979362.898009) can0 017FFF04#7FFF7FFF00000000
(1790979362.898219) can0 02800467#7FFF80267FF600F0
(1790979362.898351) can0 017FFF05#7FE47FFF0F5C6666
(1790979362.898536) can0 02800569#7FEF7F677F7B00F0
(1790979362.902007) can0 017FFF01#7FFF7FFF00000000
(1790979362.902188) can0 02800161#7FFF80357FFE00F0
(1790979362.902325) can0 017FFF02#7FFF7FFF00000000
(1790979362.902524) can0 02800263#7FFF7FE4800200F0
(1790979362.902660) can0 017FFF03#7FFF7FFF00000000
(1790979362.902873) can0 02800365#7FFF80127FEF00E6
(1790979362.903010) can0 017FFF04#7FFF7FFF00000000
(1790979362.903223) can0 02800467#7FFF7FF1801E00F0
(1790979362.903355) can0 017FFF05#7FE37FFF0F5C6666
(1790979362.903538) can0 02800569#7FEF7F887F8400F0
(1790979362.907005) can0 017FFF01#7FFF7FFF00000000
(1790979362.907189) can0 02800161#7FFF7F5D800A00F0
(1790979362.907325) can0 017FFF02#7FFF7FFF00000000
(1790979362.907523) can0 02800263#7FFF8018801200F0
(1790979362.907659) can0 017FFF03#7FFF7FFF00000000
(1790979362.907872) can0 02800365#7FFF7FFC7FF100E6
(1790979362.908009) can0 017FFF04#7FFF7FFF00000000
(1790979362.908220) can0 02800467#7FFF8078801700F0
(1790979362.908352) can0 017FFF05#7FE27FFF0F5C6666
(1790979362.908537) can0 02800569#7FEE7FBB7FA600F0
(1790979362.912005) can0 017FFF01#7FFF7FFF00000000
(1790979362.912191) can0 02800161#7FFF80C1801400F0
(1790979362.912328) can0 017FFF02#7FFF7FFF00000000
(1790979362.912528) can0 02800263#7FFF7F81800600F0
(1790979362.912663) can0 017FFF03#7FFF7FFF00000000
(1790979362.912873) can0 02800365#7FFF802F801500E6
(1790979362.913010) can0 017FFF04#7FFF7FFF00000000
(1790979362.913220) can0 02800467#7FFE7FD37FE400F0
(1790979362.913352) can0 017FFF05#7FE27FFF0F5C6666
(1790979362.913580) can0 02800569#7FED7FC07FAC00F0
(1790979362.917008) can0 017FFF01#7FFF7FFF00000000
(1790979362.917187) can0 02800161#7FFF803E7FF500F0
(1790979362.917324) can0 017FFF02#7FFF7FFF00000000
(1790979362.917522) can0 02800263#7FFF7FEE800900F0
(1790979362.917658) can0 017FFF03#7FFF7FFF00000000
(1790979362.917872) can0 02800365#7FFF80287FF900E6
(1790979362.918009) can0 017FFF04#7FFF7FFF00000000
(1790979362.918218) can0 02800467#7FFE7FDC7FED00F0
(1790979362.918350) can0 017FFF05#7FE17FFF0F5C6666
(1790979362.918579) can0 02800569#7FED7FFB7FC500F0
(1790979362.922008) can0 017FFF01#7FFF7FFF00000000
(1790979362.922188) can0 02800161#7FFF80007FED00F0
(1790979362.922325) can0 017FFF02#7FFF7FFF00000000
(1790979362.922524) can0 02800263#7FFF807C7FF500F0
(1790979362.922661) can0 017FFF03#7FFF7FFF00000000
(1790979362.922873) can0 02800365#7FFF800D7FF400E6
(1790979362.923010) can0 017FFF04#7FFF7FFF00000000
(1790979362.923219) can0 02800467#7FFF7FD7800E00F0
(1790979362.923352) can0 017FFF05#7FE07FFF0F5C6666
(1790979362.923575) can0 02800569#7FEC7FAB7F7900F0
(1790979362.927005) can0 017FFF01#7FFF7FFF00000000
(1790979362.927188) can0 02800161#7FFF807D7FED00F0
(1790979362.927325) can0 017FFF02#7FFF7FFF00000000
(1790979362.927522) can0 02800263#7FFF7FA27FF100F0
(1790979362.927659) can0 017FFF03#7FFF7FFF00000000
(1790979362.927873) can0 02800365#7FFF80407FF000E6
(1790979362.928010) can0 017FFF04#7FFF7FFF00000000
(1790979362.928219) can0 02800467#7FFF8033800200F0
(1790979362.928352) can0 017FFF05#7FE07FFF0F5C6666
(1790979362.928578) can0 02800569#7FEB7FD67F8200F0
(1790979362.932003) can0 017FFF01#7FFF7FFF00000000
(1790979362.932186) can0 02800161#7FFF7FA7800900F0
(1790979362.932323) can0 017FFF02#7FFF7FFF00000000
(1790979362.932524) can0 02800263#7FFF80B1800C00F0
(1790979362.932659) can0 017FFF03#7FFF7FFF00000000
(1790979362.932872) can0 02800365#7FFF8008801B00E6
(1790979362.933009) can0 017FFF04#7FFF7FFF00000000
(1790979362.933219) can0 02800467#7FFF80657FF900F0
(1790979362.933351) can0 017FFF05#7FDF7FFF0F5C6666
(1790979362.933580) can0 02800569#7FEB7FFB7F3400F0
(1790979362.937006) can0 017FFF01#7FFF7FFF00000000
(1790979362.937188) can0 02800161#7FFF7FF07FF800F0
(1790979362.937324) can0 017FFF02#7FFF7FFF00000000
(1790979362.937522) can0 02800263#7FFF7FB07FF200F0
(1790979362.937659) can0 017FFF03#7FFF7FFF00000000
(1790979362.937872) can0 02800365#7FFF7FE57FF400E6
(1790979362.938010) can0 017FFF04#7FFF7FFF00000000
(1790979362.938220) can0 02800467#7FFF7FCE7FF300F0
(1790979362.938351) can0 017FFF05#7FDE7FFF0F5C6666
(1790979362.938577) can0 02800569#7FEA7FC67F4900F0
(1790979362.942006) can0 017FFF01#7FFF7FFF00000000
(1790979362.942187) can0 02800161#7FFF7FD67FF000F0
(1790979362.942323) can0 017FFF02#7FFF7FFF00000000
(1790979362.942521) can0 02800263#7FFF800E800B00F0
(1790979362.942658) can0 017FFF03#7FFF7FFF00000000
(1790979362.942873) can0 02800365#7FFF7FC3800000E6
(1790979362.943010) can0 017FFF04#7FFF7FFF00000000
(1790979362.943220) can0 02800467#7FFF7FBE7FFD00F0
(1790979362.943351) can0 017FFF05#7FDE7FFF0F5C6666
(1790979362.943579) can0 02800569#7FEA7FFD7F3100F0
(1790979362.947005) can0 017FFF01#7FFF7FFF00000000
(1790979362.947190) can0 02800161#7FFF7FCD800400F0
(1790979362.947326) can0 017FFF02#7FFF7FFF00000000
(1790979362.947524) can0 02800263#7FFF80267FF100F0
(1790979362.947661) can0 017FFF03#7FFF7FFF00000000
(1790979362.947871) can0 02800365#7FFF7FD9800600E6
(1790979362.948009) can0 017FFF04#7FFF7FFF00000000
(1790979362.948219) can0 02800467#7FFF802D7FD800F0
(1790979362.948350) can0 017FFF05#7FDD7FFF0F5C6666
(1790979362.948579) can0 02800569#7FEA80237F4700F0
(1790979362.952005) can0 017FFF01#7FFF7FFF00000000
(1790979362.952186) can0 02800161#7FFF80717FE300F0
(1790979362.952322) can0 017FFF02#7FFF7FFF00000000
(1790979362.952525) can0 02800263#7FFF8002800C00F0
(1790979362.952660) can0 017FFF03#7FFF7FFF00000000
(1790979362.952873) can0 02800365#7FFF7FFF800000E6
(1790979362.953011) can0 017FFF04#7FFF7FFF00000000
(1790979362.953220) can0 02800467#7FFF80687FE100F0
(1790979362.953351) can0 017FFF05#7FDC7FFF0F5C6666
(1790979362.953578) can0 02800569#7FEA7FF97F6500F0
(1790979362.957005) can0 017FFF01#7FFF7FFF00000000
(1790979362.957189) can0 02800161#7FFF81107FF700F0
(1790979362.957325) can0 017FFF02#7FFF7FFF00000000
(1790979362.957524) can0 02800263#7FFF7FE9801200F0
(1790979362.957660) can0 017FFF03#7FFF7FFF00000000
(1790979362.957870) can0 02800365#7FFF7FBD7FF200E6
(1790979362.958008) can0 017FFF04#7FFF7FFF00000000
(1790979362.958220) can0 02800467#7FFF805B7FF500F0
(1790979362.958351) can0 017FFF05#7FDC7FFF0F5C6666
(1790979362.958579) can0 02800569#7FE980207F1F00F0
(1790979362.962007) can0 017FFF01#7FFF7FFF00000000
(1790979362.962186) can0 02800161#7FFF7F5A7FFE00F0
(1790979362.962322) can0 017FFF02#7FFF7FFF00000000
(1790979362.962519) can0 02800263#7FFF80957FE200F0
(1790979362.962655) can0 017FFF03#7FFF7FFF00000000
(1790979362.962871) can0 02800365#7FFF80637FFF00E6
(1790979362.963009) can0 017FFF04#7FFF7FFF00000000
(1790979362.963222) can0 02800467#7FFF803E7FF400F0
(1790979362.963354) can0 017FFF05#7FDB7FFF0F5C6666
(1790979362.963580) can0 02800569#7FE9802E7EF400F0
(1790979362.967003) can0 017FFF01#7FFF7FFF00000000
(1790979362.967188) can0 02800161#7FFF8095800400F0
(1790979362.967324) can0 017FFF02#7FFF7FFF00000000
(1790979362.967523) can0 02800263#7FFF804A7FFA00F0
(1790979362.967659) can0 017FFF03#7FFF7FFF00000000
(1790979362.967873) can0 02800365#7FFF80827FE100E6
(1790979362.968011) can0 017FFF04#7FFF7FFF00000000
(1790979362.968217) can0 02800467#7FFF7FEC7FCB00F0
(1790979362.968348) can0 017FFF05#7FDA7FFF0F5C6666
(1790979362.968578) can0 02800569#7FE980287ECE00F0
(1790979362.972006) can0 017FFF01#7FFF7FFF00000000
(1790979362.972187) can0 02800161#7FFF8023800600F0
(1790979362.972323) can0 017FFF02#7FFF7FFF00000000
(1790979362.972524) can0 02800263#7FFF80CD7FE800F0
(1790979362.972659) can0 017FFF03#7FFF7FFF00000000
(1790979362.972871) can0 02800365#7FFF7FEE7FFB00E6
(1790979362.973008) can0 017FFF04#7FFF7FFF00000000
(1790979362.973221) can0 02800467#7FFF7FEA800400F0
(1790979362.973353) can0 017FFF05#7FDA7FFF0F5C6666
(1790979362.973577) can0 02800569#7FE97FF57ED500F0
(1790979362.977005) can0 017FFF01#7FFF7FFF00000000
(1790979362.977188) can0 02800161#7FFF7FD07FFD00F0
(1790979362.977324) can0 017FFF02#7FFF7FFF00000000
(1790979362.977523) can0 02800263#7FFF8010801700F0
(1790979362.977659) can0 017FFF03#7FFF7FFF00000000
(1790979362.977870) can0 02800365#7FFF80437FCB00E6
(1790979362.978007) can0 017FFF04#7FFF7FFF00000000
(1790979362.978218) can0 02800467#7FFF7FE5802700F0
(1790979362.978350) can0 017FFF05#7FD97FFF0F5C6666
(1790979362.978579) can0 02800569#7FE8800F7EC400F0
(1790979362.982005) can0 017FFF01#7FFF7FFF00000000
(1790979362.982186) can0 02800161#7FFF8074800600F0
(1790979362.982322) can0 017FFF02#7FFF7FFF00000000
(1790979362.982521) can0 02800263#7FFF7E977FE700F0
(1790979362.982657) can0 017FFF03#7FFF7FFF00000000
(1790979362.982871) can0 02800365#7FFF7FB17FEE00E6
(1790979362.983008) can0 017FFF04#7FFF7FFF00000000
(1790979362.983219) can0 02800467#7FFF80177FF900F0
(1790979362.983351) can0 017FFF05#7FD97FFF0F5C6666
(1790979362.983578) can0 02800569#7FE87FF97EEB00F0
(1790979362.987004) can0 017FFF01#7FFF7FFF00000000
(1790979362.987185) can0 02800161#7FFF80887FF700F0
(1790979362.987321) can0 017FFF02#7FFF7FFF00000000
(1790979362.987520) can0 02800263#7FFF7F9C800F00F0
(1790979362.987656) can0 017FFF03#7FFF7FFF00000000
(1790979362.987872) can0 02800365#7FFF802C800600E6
(1790979362.988009) can0 017FFF04#7FFF7FFF00000000
(1790979362.988217) can0 02800467#7FFF7FCB802000F0
(1790979362.988348) can0 017FFF05#7FD87FFF0F5C6666
(1790979362.988578) can0 02800569#7FE87FF37EBD00F0
(1790979362.992003) can0 017FFF01#7FFF7FFF00000000
(1790979362.992186) can0 02800161#7FFF7F9C7FFE00F0
(1790979362.992323) can0 017FFF02#7FFF7FFF00000000
(1790979362.992524) can0 02800263#7FFF805B800100F0
(1790979362.992657) can0 017FFF03#7FFF7FFF00000000
(1790979362.992872) can0 02800365#7FFF802D7FFF00E6
(1790979362.993009) can0 017FFF04#7FFF7FFF00000000
(1790979362.993216) can0 02800467#7FFF7FDD7FCF00F0
(1790979362.993347) can0 017FFF05#7FD77FFF0F5C6666
(1790979362.993579) can0 02800569#7FE87FE87EBC00F0
(1790979362.997004) can0 017FFF01#7FFF7FFF00000000
(1790979362.997188) can0 02800161#7FFF7FB57FFA00F0
(1790979362.997324) can0 017FFF02#7FFF7FFF00000000
(1790979362.997522) can0 02800263#7FFE7FFC801B00F0
(1790979362.997658) can0 017FFF03#7FFF7FFF00000000
(1790979362.997872) can0 02800365#7FFF7FED800B00E6
(1790979362.998009) can0 017FFF04#7FFF7FFF00000000
(1790979362.998218) can0 02800467#7FFF8035804000F0
(1790979362.998349) can0 017FFF05#7FD77FFF0F5C6666
(1790979362.998576) can0 02800569#7FE77FCA7EB900F0
(1790979363.002005) can0 017FFF01#7FFF7FFF00000000
(1790979363.002186) can0 02800161#7FFF7FDD7FFF00F0
(1790979363.002323) can0 017FFF02#7FFF7FFF00000000
(1790979363.002522) can0 02800263#7FFF8042802C00F0
(1790979363.002658) can0 017FFF03#7FFF7FFF00000000
(1790979363.002873) can0 02800365#7FFF7FAF800C00E6
(1790979363.003010) can0 017FFF04#7FFF7FFF00000000
(1790979363.003220) can0 02800467#7FFF7FB5801C00F0
(1790979363.003351) can0 017FFF05#7FD67FFF0F5C6666
(1790979363.003578) can0 02800569#7FE780087E9000F0
(1790979363.007006) can0 017FFF01#7FFF7FFF00000000
(1790979363.007186) can0 02800161#7FFF8085800100F0
(1790979363.007323) can0 017FFF02#7FFF7FFF00000000
(1790979363.007524) can0 02800263#7FFF7F9F801800F0
(1790979363.007660) can0 017FFF03#7FFF7FFF00000000
(1790979363.007870) can0 02800365#7FFE7F9C802400E6
(1790979363.008007) can0 017FFF04#7FFF7FFF00000000
(1790979363.008218) can0 02800467#7FFF7FD9801000F0
(1790979363.008349) can0 017FFF05#7FD57FFF0F5C6666
(1790979363.008578) can0 02800569#7FE780217E8800F0
(1790979363.012005) can0 017FFF01#7FFF7FFF00000000
(1790979363.012187) can0 02800161#7FFF800C7FF700F0
(1790979363.012323) can0 017FFF02#7FFF7FFF00000000
(1790979363.012525) can0 02800263#7FFF810B7FF100F0
(1790979363.012660) can0 017FFF03#7FFF7FFF00000000
(1790979363.012872) can0 02800365#7FFF804A800200E6
(1790979363.013009) can0 017FFF04#7FFF7FFF00000000
(1790979363.013219) can0 02800467#7FFF7FE97FF000F0
(1790979363.013350) can0 017FFF05#7FD57FFF0F5C6666
(1790979363.013578) can0 02800569#7FE77FE97E5800F0
(1790979363.017004) can0 017FFF01#7FFF7FFF00000000
(1790979363.017186) can0 02800161#7FFF7FEC800100F0
(1790979363.017323) can0 017FFF02#7FFF7FFF00000000
(1790979363.017521) can0 02800263#7FFF7F89800900F0
(1790979363.017657) can0 017FFF03#7FFF7FFF00000000
(1790979363.017873) can0 02800365#7FFF8001801D00E6
(1790979363.018010) can0 017FFF04#7FFF7FFF00000000
(1790979363.018218) can0 02800467#7FFF7FFA800300F0
(1790979363.018349) can0 017FFF05#7FD47FFF0F5C6666
(1790979363.018578) can0 02800569#7FE77FF27E5300F0
(1790979363.022005) can0 017FFF01#7FFF7FFF00000000
(1790979363.022188) can0 02800161#7FFF7FDB7FFC00F0
(1790979363.022325) can0 017FFF02#7FFF7FFF00000000
(1790979363.022523) can0 02800263#7FFF7FF6800F00F0
(1790979363.022659) can0 017FFF03#7FFF7FFF00000000
(1790979363.022872) can0 02800365#7FFF8026801C00E6
(1790979363.023009) can0 017FFF04#7FFF7FFF00000000
(1790979363.023218) can0 02800467#7FFF800B7FD600F0
(1790979363.023349) can0 017FFF05#7FD37FFF0F5C6666
(1790979363.023577) can0 02800569#7FE67FEC7E5E00F0
(1790979363.027007) can0 017FFF01#7FFF7FFF00000000
(1790979363.027186) can0 02800161#7FFF801C800900F0
(1790979363.027322) can0 017FFF02#7FFF7FFF00000000
(1790979363.027520) can0 02800263#7FFF7F40800600F0
(1790979363.027657) can0 017FFF03#7FFF7FFF00000000
(1790979363.027873) can0 02800365#7FFF801F7FF100E6
(1790979363.028010) can0 017FFF04#7FFF7FFF00000000
(1790979363.028218) can0 02800467#7FFF80427FFD00F0
(1790979363.028349) can0 017FFF05#7FD37FFF0F5C6666
(1790979363.028578) can0 02800569#7FE67FE27E7100F0
(1790979363.032006) can0 017FFF01#7FFF7FFF00000000
(1790979363.032185) can0 02800161#7FFF7FA77FF300F0
(1790979363.032321) can0 017FFF02#7FFF7FFF00000000
(1790979363.032522) can0 02800263#7FFF80107FF700F0
(1790979363.032657) can0 017FFF03#7FFF7FFF00000000
(1790979363.032874) can0 02800365#7FFF7FE77FF800E6
(1790979363.033012) can0 017FFF04#7FFF7FFF00000000
(1790979363.033220) can0 02800467#7FFF7FD77FFB00F0
(1790979363.033351) can0 017FFF05#7FD27FFF0F5C6666
(1790979363.033577) can0 02800569#7FE67FFC7E5100F0
(1790979363.037007) can0 017FFF01#7FFF7FFF00000000
(1790979363.037186) can0 02800161#7FFF802A7FFE00F0
(1790979363.037322) can0 017FFF02#7FFF7FFF00000000
(1790979363.037521) can0 02800263#7FFF8008802000F0
(1790979363.037657) can0 017FFF03#7FFF7FFF00000000
(1790979363.037870) can0 02800365#7FFF8033800A00E6
(1790979363.038008) can0 017FFF04#7FFF7FFF00000000
(1790979363.038218) can0 02800467#7FFF802E800900F0
(1790979363.038349) can0 017FFF05#7FD17FFF0F5C6666
(1790979363.038578) can0 02800569#7FE5802C7E4C00F0
(1790979363.042009) can0 017FFF01#7FFF7FFF00000000
(1790979363.042184) can0 02800161#7FFF80D37FFB00F0
(1790979363.042320) can0 017FFF02#7FFF7FFF00000000
(1790979363.042520) can0 02800263#7FFF7FCE800400F0
(1790979363.042656) can0 017FFF03#7FFF7FFF00000000
(1790979363.042871) can0 02800365#7FFF80557FED00E6
(1790979363.043009) can0 017FFF04#7FFF7FFF00000000
(1790979363.043219) can0 02800467#7FFF7FF9801D00F0
(1790979363.043349) can0 017FFF05#7FD17FFF0F5C6666
(1790979363.043580) can0 02800569#7FE580117E2800F0
(1790979363.047005) can0 017FFF01#7FFF7FFF00000000
(1790979363.047187) can0 02800161#7FFF7FF37FF600F0
(1790979363.047323) can0 017FFF02#7FFF7FFF00000000
(1790979363.047523) can0 02800263#7FFF8010800200F0
(1790979363.047659) can0 017FFF03#7FFF7FFF00000000
(1790979363.047872) can0 02800365#7FFF7FD57FFC00E6
(1790979363.048010) can0 017FFF04#7FFF7FFF00000000
(1790979363.048219) can0 02800467#7FFF804F800A00F0
(1790979363.048343) can0 017FFF05#7FD07FFF0F5C6666
(1790979363.048576) can0 02800569#7FE57F747E1500F0
(1790979363.052005) can0 017FFF01#7FFF7FFF00000000
(1790979363.052185) can0 02800161#7FFF7FB2800500F0
(1790979363.052321) can0 017FFF02#7FFF7FFF00000000
(1790979363.052521) can0 02800263#7FFE7FEA800200F0
(1790979363.052655) can0 017FFF03#7FFF7FFF00000000
(1790979363.052869) can0 02800365#7FFF804A802D00E6
(1790979363.053007) can0 017FFF04#7FFF7FFF00000000
(1790979363.053218) can0 02800467#7FFF805B802F00F0
(1790979363.053350) can0 017FFF05#7FCF7FFF0F5C6666
(1790979363.053578) can0 02800569#7FE47FF87E4100F0
(1790979363.057003) can0 017FFF01#7FFF7FFF00000000
(1790979363.057187) can0 02800161#7FFF80F3801000F0
(1790979363.057323) can0 017FFF02#7FFF7FFF00000000
(1790979363.057524) can0 02800263#7FFF800A7FEC00F0
(1790979363.057660) can0 017FFF03#7FFF7FFF00000000
(1790979363.057872) can0 02800365#7FFF801D7FFF00E6
(1790979363.058009) can0 017FFF04#7FFF7FFF00000000
(1790979363.058220) can0 02800467#7FFF80347FFE00F0
(1790979363.058350) can0 017FFF05#7FCF7FFF0F5C6666
(1790979363.058577) can0 02800569#7FE47F917DEB00F0
(1790979363.062006) can0 017FFF01#7FFF7FFF00000000
(1790979363.062186) can0 02800161#7FFF7FBC800600F0
(1790979363.062322) can0 017FFF02#7FFF7FFF00000000
(1790979363.062524) can0 02800263#7FFF8011800400F0
(1790979363.062660) can0 017FFF03#7FFF7FFF00000000
(1790979363.062870) can0 02800365#7FFE8001800900E6
(1790979363.063007) can0 017FFF04#7FFF7FFF00000000
(1790979363.063219) can0 02800467#7FFF80497FFF00F0
(1790979363.063350) can0 017FFF05#7FCE7FFF0F5C6666
(1790979363.063577) can0 02800569#7FE4800D7E0900F0
(1790979363.067003) can0 017FFF01#7FFF7FFF00000000
(1790979363.067186) can0 02800161#7FFF7F9B800600F0
(1790979363.067322) can0 017FFF02#7FFF7FFF00000000
(1790979363.067520) can0 02800263#7FFF80557FEA00F0
(1790979363.067656) can0 017FFF03#7FFF7FFF00000000
(1790979363.067871) can0 02800365#7FFF803F800200E6
(1790979363.068008) can0 017FFF04#7FFF7FFF00000000
(1790979363.068217) can0 02800467#7FFF801D7FE700F0
(1790979363.068348) can0 017FFF05#7FCD7FFF0F5C6666
(1790979363.068578) can0 02800569#7FE37FAF7DF800F0
(1790979363.072007) can0 017FFF01#7FFF7FFF00000000
(1790979363.072188) can0 02800161#7FFF7FF97FFC00F0
(1790979363.072324) can0 017FFF02#7FFF7FFF00000000
(1790979363.072524) can0 02800263#7FFF80D0800800F0
(1790979363.072658) can0 017FFF03#7FFF7FFF00000000
(1790979363.072870) can0 02800365#7FFF803D7FF900E6
(1790979363.073007) can0 017FFF04#7FFF7FFF00000000
(1790979363.073220) can0 02800467#7FFF7FF97FF200F0
(1790979363.073351) can0 017FFF05#7FCD7FFF0F5C6666
(1790979363.073578) can0 02800569#7FE37FCC7E1C00F0
(1790979363.077005) can0 017FFF01#7FFF7FFF00000000
(1790979363.077186) can0 02800161#7FFF805A7FFB00F0
(1790979363.077322) can0 017FFF02#7FFF7FFF00000000
(1790979363.077521) can0 02800263#7FFF7EF2800500F0
(1790979363.077657) can0 017FFF03#7FFF7FFF00000000
(1790979363.077870) can0 02800365#7FFF803D801500E6
(1790979363.078007) can0 017FFF04#7FFF7FFF00000000
(1790979363.078216) can0 02800467#7FFF7FDE805200F0
(1790979363.078347) can0 017FFF05#7FCC7FFF0F5C6666
(1790979363.078578) can0 02800569#7FE37FF07E7000F0
(1790979363.082005) can0 017FFF01#7FFF7FFF00000000
(1790979363.082187) can0 02800161#7FFF801E7FFA00F0
(1790979363.082323) can0 017FFF02#7FFF7FFF00000000
(1790979363.082521) can0 02800263#7FFF80C37FE700F0
(1790979363.082657) can0 017FFF03#7FFF7FFF00000000
(1790979363.082871) can0 02800365#7FFF7FDB7FF900E6
(1790979363.083008) can0 017FFF04#7FFF7FFF00000000
(1790979363.083220) can0 02800467#7FFF7FF17FFB00F0
(1790979363.083351) can0 017FFF05#7FCB7FFF0F5C6666
(1790979363.083575) can0 02800569#7FE27FE27E2E00F0
(1790979363.087005) can0 017FFF01#7FFF7FFF00000000
(1790979363.087186) can0 02800161#7FFF7FF97FF700F0
(1790979363.087322) can0 017FFF02#7FFF7FFF00000000
(1790979363.087519) can0 02800263#7FFF8044800700F0
(1790979363.087655) can0 017FFF03#7FFF7FFF00000000
(1790979363.087872) can0 02800365#7FFF7FDF800B00E6
(1790979363.088009) can0 017FFF04#7FFF7FFF00000000
(1790979363.088220) can0 02800467#7FFF7FF6801800F0
(1790979363.088351) can0 017FFF05#7FCB7FFF0F5C6666
(1790979363.088577) can0 02800569#7FE2802B7E5200F0
(1790979363.092003) can0 017FFF01#7FFF7FFF00000000
(1790979363.092187) can0 02800161#7FFF80EF800200F0
(1790979363.092323) can0 017FFF02#7FFF7FFF00000000
(1790979363.092523) can0 02800263#7FFF7F787FEA00F0
(1790979363.092657) can0 017FFF03#7FFF7FFF00000000
(1790979363.092872) can0 02800365#7FFF8017800600E6
(1790979363.093009) can0 017FFF04#7FFF7FFF00000000
(1790979363.093219) can0 02800467#7FFF80127FEE00F0
(1790979363.093350) can0 017FFF05#7FCC7FFF0F5C6666
(1790979363.093576) can0 02800569#7FE17F657E4D00F0
(1790979363.097003) can0 017FFF01#7FFF7FFF00000000
(1790979363.097185) can0 02800161#7FFF809C7FFB00F0
(1790979363.097321) can0 017FFF02#7FFF7FFF00000000
(1790979363.097518) can0 02800263#7FFF7F94800700F0
(1790979363.097654) can0 017FFF03#7FFF7FFF00000000
(1790979363.097872) can0 02800365#7FFF801B7FF500E6
(1790979363.098009) can0 017FFF04#7FFF7FFF00000000
(1790979363.098217) can0 02800467#7FFF80377FE900F0
(1790979363.098348) can0 017FFF05#7FCC7FFF0F5C6666
(1790979363.098577) can0 02800569#7FE07FB27EA000F0
(1790979363.102004) can0 017FFF01#7FFF7FFF00000000
(1790979363.102188) can0 02800161#7FFF8013800400F0
(1790979363.102324) can0 017FFF02#7FFF7FFF00000000
(1790979363.102522) can0 02800263#7FFF7F7A7FF500F0
(1790979363.102658) can0 017FFF03#7FFF7FFF00000000
(1790979363.102871) can0 02800365#7FFF80077FF900E6
(1790979363.103008) can0 017FFF04#7FFF7FFF00000000
(1790979363.103218) can0 02800467#7FFF7FFC801300F0
(1790979363.103349) can0 017FFF05#7FCD7FFF0F5C6666
(1790979363.103576) can0 02800569#7FE07FCD7E4D00F0
(1790979363.107004) can0 017FFF01#7FFF7FFF00000000
(1790979363.107184) can0 02800161#7FFF802D7FEF00F0
(1790979363.107320) can0 017FFF02#7FFF7FFF00000000
(1790979363.107519) can0 02800263#7FFF7FB4800200F0
(1790979363.107655) can0 017FFF03#7FFF7FFF00000000
(1790979363.107870) can0 02800365#7FFF80437FF200E6
(1790979363.108007) can0 017FFF04#7FFF7FFF00000000
(1790979363.108216) can0 02800467#7FFE80587FFF00F0
(1790979363.108347) can0 017FFF05#7FCD7FFF0F5C6666
(1790979363.108578) can0 02800569#7FDF7FF17E6900F0
(1790979363.112003) can0 017FFF01#7FFF7FFF00000000
(1790979363.112185) can0 02800161#7FFF803C800B00F0
(1790979363.112322) can0 017FFF02#7FFF7FFF00000000
(1790979363.112522) can0 02800263#7FFF7F1D7FEB00F0
(1790979363.112656) can0 017FFF03#7FFF7FFF00000000
(1790979363.112872) can0 02800365#7FFF8011801C00E6
(1790979363.113009) can0 017FFF04#7FFF7FFF00000000
(1790979363.113219) can0 02800467#7FFF80267FF000F0
(1790979363.113350) can0 017FFF05#7FCE7FFF0F5C6666
(1790979363.113577) can0 02800569#7FDF7FFF7E7300F0
(1790979363.117003) can0 017FFF01#7FFF7FFF00000000
(1790979363.117185) can0 02800161#7FFF80077FF800F0
(1790979363.117322) can0 017FFF02#7FFF7FFF00000000
(1790979363.117521) can0 02800263#7FFF8042800300F0
(1790979363.117657) can0 017FFF03#7FFF7FFF00000000
(1790979363.117869) can0 02800365#7FFE7FD37FE500E6
(1790979363.118006) can0 017FFF04#7FFF7FFF00000000
(1790979363.118221) can0 02800467#7FFF80077FFC00F0
(1790979363.118352) can0 017FFF05#7FCF7FFF0F5C6666
(1790979363.118575) can0 02800569#7FDF7FB67E7D00F0
(1790979363.122004) can0 017FFF01#7FFF7FFF00000000
(1790979363.122183) can0 02800161#7FFF80877FF600F0
(1790979363.122319) can0 017FFF02#7FFF7FFF00000000
(1790979363.122518) can0 02800263#7FFF7F9C800D00F0
(1790979363.122655) can0 017FFF03#7FFF7FFF00000000
(1790979363.122872) can0 02800365#7FFF7FE6800300E6
(1790979363.123009) can0 017FFF04#7FFF7FFF00000000
(1790979363.123219) can0 02800467#7FFF7FDA800C00F0
(1790979363.123350) can0 017FFF05#7FCF7FFF0F5C6666
(1790979363.123574) can0 02800569#7FDE7FCB7EB300F0
(1790979363.127004) can0 017FFF01#7FFF7FFF00000000
(1790979363.127185) can0 02800161#7FFF7FE8800900F0
(1790979363.127322) can0 017FFF02#7FFF7FFF00000000
(1790979363.127520) can0 02800263#7FFF7F9B800D00F0
(1790979363.127657) can0 017FFF03#7FFF7FFF00000000
(1790979363.127870) can0 02800365#7FFF7FAF7FE300E6
(1790979363.128007) can0 017FFF04#7FFF7FFF00000000
(1790979363.128218) can0 02800467#7FFF7FFF801A00F0
(1790979363.128342) can0 017FFF05#7FD07FFF0F5C6666
(1790979363.128578) can0 02800569#7FDF800E7E7E00F0
(1790979363.132002) can0 017FFF01#7FFF7FFF00000000
(1790979363.132184) can0 02800161#7FFF801D7FF200F0
(1790979363.132321) can0 017FFF02#7FFF7FFF00000000
(1790979363.132523) can0 02800263#7FFF7FE37FF300F0
(1790979363.132657) can0 017FFF03#7FFF7FFF00000000
(1790979363.132871) can0 02800365#7FFF80017FF600E6
(1790979363.133008) can0 017FFF04#7FFF7FFF00000000
(1790979363.133219) can0 02800467#7FFF7F917FE100F0
(1790979363.133350) can0 017FFF05#7FD17FFF0F5C6666
(1790979363.133576) can0 02800569#7FDF7FE37E5900F0
(1790979363.137004) can0 017FFF01#7FFF7FFF00000000
(1790979363.137184) can0 02800161#7FFF8024800000F0
(1790979363.137320) can0 017FFF02#7FFF7FFF00000000
(1790979363.137518) can0 02800263#7FFF80127FD900F0
(1790979363.137655) can0 017FFF03#7FFF7FFF00000000
(1790979363.137871) can0 02800365#7FFF7FD07FD900E6
(1790979363.138008) can0 017FFF04#7FFF7FFF00000000
(1790979363.138217) can0 02800467#7FFF80097FC800F0
(1790979363.138348) can0 017FFF05#7FD17FFF0F5C6666
(1790979363.138574) can0 02800569#7FDE7FD97E4A00F0
(1790979363.142004) can0 017FFF01#7FFF7FFF00000000
(1790979363.142185) can0 02800161#7FFF8014800300F0
(1790979363.142321) can0 017FFF02#7FFF7FFF00000000
(1790979363.142519) can0 02800263#7FFF802B7FF600F0
(1790979363.142656) can0 017FFF03#7FFF7FFF00000000
(1790979363.142870) can0 02800365#7FFF802A7FEE00E6
(1790979363.143007) can0 017FFF04#7FFF7FFF00000000
(1790979363.143218) can0 02800467#7FFF8012800F00F0
(1790979363.143349) can0 017FFF05#7FD27FFF0F5C6666
(1790979363.143573) can0 02800569#7FDE7FAF7E3700F0
(1790979363.147004) can0 017FFF01#7FFF7FFF00000000
(1790979363.147184) can0 02800161#7FFF7FD77FF900F0
(1790979363.147320) can0 017FFF02#7FFF7FFF00000000
(1790979363.147519) can0 02800263#7FFF8028800500F0
(1790979363.147655) can0 017FFF03#7FFF7FFF00000000
(1790979363.147871) can0 02800365#7FFF7FE27FF600E6
(1790979363.148008) can0 017FFF04#7FFF7FFF00000000
(1790979363.148221) can0 02800467#7FFF7FE77FFC00F0
(1790979363.148352) can0 017FFF05#7FD37FFF0F5C6666
(1790979363.148575) can0 02800569#7FDF7FDE7E8800F0
(1790979363.152004) can0 017FFF01#7FFF7FFF00000000
(1790979363.152183) can0 02800161#7FFF7FD47FFE00F0
(1790979363.152319) can0 017FFF02#7FFF7FFF00000000
(1790979363.152518) can0 02800263#7FFE7F197FF900F0
(1790979363.152655) can0 017FFF03#7FFF7FFF00000000
(1790979363.152870) can0 02800365#7FFF8046802A00E6
(1790979363.153008) can0 017FFF04#7FFF7FFF00000000
(1790979363.153219) can0 02800467#7FFF8003801200F0
(1790979363.153350) can0 017FFF05#7FD37FFF0F5C6666
(1790979363.153577) can0 02800569#7FDF7FE67E7D00F0
(1790979363.157003) can0 017FFF01#7FFF7FFF00000000
(1790979363.157184) can0 02800161#7FFF7F917FE600F0
(1790979363.157320) can0 017FFF02#7FFF7FFF00000000
(1790979363.157521) can0 02800263#7FFF7FF1801700F0
(1790979363.157657) can0 017FFF03#7FFF7FFF00000000
(1790979363.157871) can0 02800365#7FFF80037FF500E6
(1790979363.158009) can0 017FFF04#7FFF7FFF00000000
(1790979363.158218) can0 02800467#7FFF7FC7803B00F0
(1790979363.158349) can0 017FFF05#7FD47FFF0F5C6666
(1790979363.158575) can0 02800569#7FDE7FEF7EC800F0
(1790979363.162003) can0 017FFF01#7FFF7FFF00000000
(1790979363.162183) can0 02800161#7FFF7FDD800500F0
(1790979363.162319) can0 017FFF02#7FFF7FFF00000000
(1790979363.162519) can0 02800263#7FFF80BB7FFC00F0
(1790979363.162655) can0 017FFF03#7FFF7FFF00000000
(1790979363.162871) can0 02800365#7FFF802D800300E6
(1790979363.163009) can0 017FFF04#7FFF7FFF00000000
(1790979363.163219) can0 02800467#7FFF8053800400F0
(1790979363.163350) can0 017FFF05#7FD57FFF0F5C6666
(1790979363.163576) can0 02800569#7FDF80457E6A00F0
(1790979363.167006) can0 017FFF01#7FFF7FFF00000000
(1790979363.167186) can0 02800161#7FFF7FC8801500F0
(1790979363.167322) can0 017FFF02#7FFF7FFF00000000
(1790979363.167519) can0 02800263#7FFF7FDD800100F0
(1790979363.167655) can0 017FFF03#7FFF7FFF00000000
(1790979363.167871) can0 02800365#7FFF8078801D00E6
(1790979363.168008) can0 017FFF04#7FFF7FFF00000000
(1790979363.168218) can0 02800467#7FFF7FF67FD700F0
(1790979363.168349) can0 017FFF05#7FD57FFF0F5C6666
(1790979363.168576) can0 02800569#7FDF800F7E7F00F0
(1790979363.172005) can0 017FFF01#7FFF7FFF00000000
(1790979363.172185) can0 02800161#7FFF7FF27FEF00F0
(1790979363.172321) can0 017FFF02#7FFF7FFF00000000
(1790979363.172520) can0 02800263#7FFF80397FF000F0
(1790979363.172655) can0 017FFF03#7FFF7FFF00000000
(1790979363.172871) can0 02800365#7FFF806E800A00E6
(1790979363.173008) can0 017FFF04#7FFF7FFF00000000
(1790979363.173220) can0 02800467#7FFF7FE77FEC00F0
(1790979363.173351) can0 017FFF05#7FD67FFF0F5C6666
(1790979363.173575) can0 02800569#7FDF80377E9F00F0
(1790979363.177003) can0 017FFF01#7FFF7FFF00000000
(1790979363.177184) can0 02800161#7FFF8045800F00F0
(1790979363.177320) can0 017FFF02#7FFF7FFF00000000
(1790979363.177521) can0 02800263#7FFF7FE7800C00F0
(1790979363.177657) can0 017FFF03#7FFF7FFF00000000
(1790979363.177870) can0 02800365#7FFF7FC37FFA00E6
(1790979363.178007) can0 017FFF04#7FFF7FFF00000000
(1790979363.178217) can0 02800467#7FFF7FDE7FFE00F0
(1790979363.178349) can0 017FFF05#7FD77FFF0F5C6666
(1790979363.178574) can0 02800569#7FDF7FEB7E8E00F0
(1790979363.182004) can0 017FFF01#7FFF7FFF00000000
(1790979363.182187) can0 02800161#7FFF808B7FFC00F0
(1790979363.182323) can0 017FFF02#7FFF7FFF00000000
(1790979363.182523) can0 02800263#7FFF7FBA7FEC00F0
(1790979363.182659) can0 017FFF03#7FFF7FFF00000000
(1790979363.182873) can0 02800365#7FFF807D800800E6
(1790979363.183010) can0 017FFF04#7FFF7FFF00000000
(1790979363.183217) can0 02800467#7FFF7F9D7FF600F0
(1790979363.183348) can0 017FFF05#7FD77FFF0F5C6666
(1790979363.183574) can0 02800569#7FDF80057EE900F0
(1790979363.187003) can0 017FFF01#7FFF7FFF00000000
(1790979363.187184) can0 02800161#80008121800500F0
(1790979363.187320) can0 017FFF02#7FFF7FFF00000000
(1790979363.187518) can0 02800263#7FFF80E4800E00F0
(1790979363.187654) can0 017FFF03#7FFF7FFF00000000
(1790979363.187870) can0 02800365#7FFF7FBC7FEA00E6
(1790979363.188007) can0 017FFF04#7FFF7FFF00000000
(1790979363.188219) can0 02800467#7FFF7FE57FEE00F0
(1790979363.188350) can0 017FFF05#7FD87FFF0F5C6666
(1790979363.188577) can0 02800569#7FDF7FF67ED200F0
(1790979363.192003) can0 017FFF01#7FFF7FFF00000000
(1790979363.192185) can0 02800161#7FFF80007FFB00F0
(1790979363.192321) can0 017FFF02#7FFF7FFF00000000
(1790979363.192520) can0 02800263#7FFF7F75801900F0
(1790979363.192655) can0 017FFF03#7FFF7FFF00000000
(1790979363.192872) can0 02800365#7FFF80107FED00E6
(1790979363.193009) can0 017FFF04#7FFF7FFF00000000
(1790979363.193218) can0 02800467#7FFF7FAF7FD400F0
(1790979363.193349) can0 017FFF05#7FD97FFF0F5C6666
(1790979363.193579) can0 02800569#7FDF80307F4400F0
(1790979363.197003) can0 017FFF01#7FFF7FFF00000000
(1790979363.197184) can0 02800161#7FFF80407FF900F0
(1790979363.197320) can0 017FFF02#7FFF7FFF00000000
(1790979363.197519) can0 02800263#7FFF8046800600F0
(1790979363.197655) can0 017FFF03#7FFF7FFF00000000
(1790979363.197869) can0 02800365#7FFE7FBD7FEF00E6
(1790979363.198006) can0 017FFF04#7FFF7FFF00000000
(1790979363.198217) can0 02800467#7FFF806C7FF200F0
(1790979363.198349) can0 017FFF05#7FD97FFF0F5C6666
(1790979363.198575) can0 02800569#7FDF80177EE500F0
(1790979363.202003) can0 017FFF01#7FFF7FFF00000000
(1790979363.202185) can0 02800161#7FFF7FD6800000F0
(1790979363.202321) can0 017FFF02#7FFF7FFF00000000
(1790979363.202520) can0 02800263#7FFF802B800100F0
(1790979363.202656) can0 017FFF03#7FFF7FFF00000000
(1790979363.202873) can0 02800365#7FFF80187FF100E6
(1790979363.203010) can0 017FFF04#7FFF7FFF00000000
(1790979363.203217) can0 02800467#7FFF8095803100F0
(1790979363.203348) can0 017FFF05#7FDA7FFF0F5C6666
(1790979363.203578) can0 02800569#7FDF7FE87F0400F0
(1790979363.207003) can0 017FFF01#7FFF7FFF00000000
(1790979363.207184) can0 02800161#7FFF8074800B00F0
(1790979363.207320) can0 017FFF02#7FFF7FFF00000000
(1790979363.207519) can0 02800263#7FFF80407FD900F0
(1790979363.207655) can0 017FFF03#7FFF7FFF00000000
(1790979363.207871) can0 02800365#7FFF800A7FFB00E6
(1790979363.208008) can0 017FFF04#7FFF7FFF00000000
(1790979363.208216) can0 02800467#7FFF80897FF900F0
(1790979363.208347) can0 017FFF05#7FDB7FFF0F5C6666
(1790979363.208574) can0 02800569#7FDF7FC37F3B00F0
(1790979363.212005) can0 017FFF01#7FFF7FFF00000000
(1790979363.212183) can0 02800161#7FFF80DB7FF700F0
(1790979363.212320) can0 017FFF02#7FFF7FFF00000000
(1790979363.212519) can0 02800263#7FFF7FF47FF600F0
(1790979363.212655) can0 017FFF03#7FFF7FFF00000000
(1790979363.212871) can0 02800365#7FFF7FBD7FF600E6
(1790979363.213008) can0 017FFF04#7FFF7FFF00000000
(1790979363.213216) can0 02800467#7FFF7FF3802B00F0
(1790979363.213347) can0 017FFF05#7FDB7FFF0F5C6666
(1790979363.213576) can0 02800569#7FDF800F7F7E00F0
(1790979363.217003) can0 017FFF01#7FFF7FFF00000000
(1790979363.217184) can0 02800161#7FFF7FF37FF200F0
(1790979363.217320) can0 017FFF02#7FFF7FFF00000000
(1790979363.217519) can0 02800263#7FFF800D7FFA00F0
(1790979363.217655) can0 017FFF03#7FFF7FFF00000000
(1790979363.217872) can0 02800365#7FFF8012801400E6
(1790979363.218009) can0 017FFF04#7FFF7FFF00000000
(1790979363.218218) can0 02800467#7FFF7FE97FF100F0
(1790979363.218349) can0 017FFF05#7FDC7FFF0F5C6666
(1790979363.218574) can0 02800569#7FDF7FB57F6600F0
(1790979363.222002) can0 017FFF01#7FFF7FFF00000000
(1790979363.222185) can0 02800161#7FFF7FCB7FF400F0
(1790979363.222322) can0 017FFF02#7FFF7FFF00000000
(1790979363.222521) can0 02800263#7FFF809D800800F0
(1790979363.222657) can0 017FFF03#7FFF7FFF00000000
(1790979363.222872) can0 02800365#7FFF7FC0800B00E6
(1790979363.223009) can0 017FFF04#7FFF7FFF00000000
(1790979363.223216) can0 02800467#7FFF7FA1800200F0
(1790979363.223347) can0 017FFF05#7FDC7FFF0F5C6666
(1790979363.223576) can0 02800569#7FE0801C7F3000F0
(1790979363.227002) can0 017FFF01#7FFF7FFF00000000
(1790979363.227184) can0 02800161#7FFF806B7FEE00F0
(1790979363.227321) can0 017FFF02#7FFF7FFF00000000
(1790979363.227520) can0 02800263#7FFF8091801200F0
(1790979363.227656) can0 017FFF03#7FFF7FFF00000000
(1790979363.227871) can0 02800365#7FFF804A800C00E6
(1790979363.228008) can0 017FFF04#7FFF7FFF00000000
(1790979363.228219) can0 02800467#7FFF8025800F00F0
(1790979363.228350) can0 017FFF05#7FDD7FFF0F5C6666
(1790979363.228578) can0 02800569#7FE080367F9400F0
(1790979363.232002) can0 017FFF01#7FFF7FFF00000000
(1790979363.232186) can0 02800161#7FFF80167FFF00F0
(1790979363.232323) can0 017FFF02#7FFF7FFF00000000
(1790979363.232525) can0 02800263#7FFF80C97FEC00F0
(1790979363.232660) can0 017FFF03#7FFF7FFF00000000
(1790979363.232871) can0 02800365#7FFF8075801100E6
(1790979363.233008) can0 017FFF04#7FFF7FFF00000000
(1790979363.233219) can0 02800467#7FFF7FF17FF200F0
(1790979363.233350) can0 017FFF05#7FDE7FFF0F5C6666
(1790979363.233578) can0 02800569#7FE080067F9400F0
(1790979363.237003) can0 017FFF01#7FFF7FFF00000000
(1790979363.237184) can0 02800161#7FFF809F7FEE00F0
(1790979363.237321) can0 017FFF02#7FFF7FFF00000000
(1790979363.237519) can0 02800263#7FFF7F74800A00F0
(1790979363.237655) can0 017FFF03#7FFF7FFF00000000
(1790979363.237871) can0 02800365#7FFF7FFD801900E6
(1790979363.238008) can0 017FFF04#7FFF7FFF00000000
(1790979363.238216) can0 02800467#7FFF7FB9802F00F0
(1790979363.238347) can0 017FFF05#7FDE7FFF0F5C6666
(1790979363.238575) can0 02800569#7FE07FD07F4500F0
(1790979363.242004) can0 017FFF01#7FFF7FFF00000000
(1790979363.242185) can0 02800161#7FFF7FB37FFF00F0
(1790979363.242322) can0 017FFF02#7FFF7FFF00000000
(1790979363.242522) can0 02800263#7FFF7F827FFC00F0
(1790979363.242659) can0 017FFF03#7FFF7FFF00000000
(1790979363.242871) can0 02800365#7FFF7FC37FFB00E6
(1790979363.243008) can0 017FFF04#7FFF7FFF00000000
(1790979363.243217) can0 02800467#7FFF7FD37FE500F0
(1790979363.243349) can0 017FFF05#7FDF7FFF0F5C6666
(1790979363.243577) can0 02800569#7FE0801A7F7D00F0
(1790979363.247003) can0 017FFF01#7FFF7FFF00000000
(1790979363.247183) can0 02800161#7FFF8037800600F0
(1790979363.247319) can0 017FFF02#7FFF7FFF00000000
(1790979363.247518) can0 02800263#7FFF7FFA801000F0
(1790979363.247655) can0 017FFF03#7FFF7FFF00000000
(1790979363.247870) can0 02800365#7FFF80677FC300E6
(1790979363.248007) can0 017FFF04#7FFF7FFF00000000
(1790979363.248215) can0 02800467#7FFF7FC7802500F0
(1790979363.248348) can0 017FFF05#7FE07FFF0F5C6666
(1790979363.248575) can0 02800569#7FE07FD67FA200F0
(1790979363.252004) can0 017FFF01#7FFF7FFF00000000
(1790979363.252184) can0 02800161#7FFF7F707FF900F0
(1790979363.252320) can0 017FFF02#7FFF7FFF00000000
(1790979363.252518) can0 02800263#7FFF7FD47FF600F0
(1790979363.252654) can0 017FFF03#7FFF7FFF00000000
(1790979363.252871) can0 02800365#7FFF7FFA7FE200E6
(1790979363.253008) can0 017FFF04#7FFF7FFF00000000
(1790979363.253219) can0 02800467#7FFF7FDC7FF000F0
(1790979363.253352) can0 017FFF05#7FE07FFF0F5C6666
(1790979363.253576) can0 02800569#7FE180437F5500F0
(1790979363.257004) can0 017FFF01#7FFF7FFF00000000
(1790979363.257183) can0 02800161#7FFF8076801100F0
(1790979363.257319) can0 017FFF02#7FFF7FFF00000000
(1790979363.257519) can0 02800263#7FFF7F937FFF00F0
(1790979363.257655) can0 017FFF03#7FFF7FFF00000000
(1790979363.257869) can0 02800365#7FFF802F7FE700E6
(1790979363.258007) can0 017FFF04#7FFF7FFF00000000
(1790979363.258219) can0 02800467#7FFF800E7FFD00F0
(1790979363.258351) can0 017FFF05#7FE17FFF0F5C6666
(1790979363.258577) can0 02800569#7FE07FFE7FBF00F0
(1790979363.262003) can0 017FFF01#7FFF7FFF00000000
(1790979363.262184) can0 02800161#7FFF800E7FFD00F0
(1790979363.262320) can0 017FFF02#7FFF7FFF00000000
(1790979363.262517) can0 02800263#7FFE7F55800200F0
(1790979363.262654) can0 017FFF03#7FFF7FFF00000000
(1790979363.262870) can0 02800365#7FFF80587FF300E6
(1790979363.263008) can0 017FFF04#7FFF7FFF00000000
(1790979363.263216) can0 02800467#7FFF8056802E00F0
(1790979363.263348) can0 017FFF05#7FE27FFF0F5C6666
(1790979363.263578) can0 02800569#7FE17FED7FBC00F0
(1790979363.267004) can0 017FFF01#7FFF7FFF00000000
(1790979363.267184) can0 02800161#7FFF809F800300F0
(1790979363.267320) can0 017FFF02#7FFF7FFF00000000
(1790979363.267519) can0 02800263#7FFF8024802900F0
(1790979363.267655) can0 017FFF03#7FFF7FFF00000000
(1790979363.267872) can0 02800365#7FFF7FD8800800E6
(1790979363.268010) can0 017FFF04#7FFF7FFF00000000
(1790979363.268221) can0 02800467#7FFF7FD0803E00F0
(1790979363.268353) can0 017FFF05#7FE27FFF0F5C6666
(1790979363.268577) can0 02800569#7FE180027F9A00F0
(1790979363.272003) can0 017FFF01#7FFF7FFF00000000
(1790979363.272185) can0 02800161#7FFF7FFE801200F0
(1790979363.272321) can0 017FFF02#7FFF7FFF00000000
(1790979363.272521) can0 02800263#7FFF7F8F801100F0
(1790979363.272656) can0 017FFF03#7FFF7FFF00000000
(1790979363.272870) can0 02800365#7FFF7FDE7FFF00E6
(1790979363.273008) can0 017FFF04#7FFF7FFF00000000
(1790979363.273218) can0 02800467#7FFF801A801000F0
(1790979363.273350) can0 017FFF05#7FE37FFF0F5C6666
(1790979363.273574) can0 02800569#7FE17FC37FA600F0
(1790979363.277004) can0 017FFF01#7FFF7FFF00000000
(1790979363.277184) can0 02800161#7FFF80467FFF00F0
(1790979363.277320) can0 017FFF02#7FFF7FFF00000000
(1790979363.277516) can0 02800263#7FFE7FAC7FFB00F0
(1790979363.277652) can0 017FFF03#7FFF7FFF00000000
(1790979363.277871) can0 02800365#7FFF7FF57FFF00E6
(1790979363.278009) can0 017FFF04#7FFF7FFF00000000
(1790979363.278219) can0 02800467#7FFF7FD3801400F0
(1790979363.278350) can0 017FFF05#7FE47FFF0F5C6666
(1790979363.278575) can0 02800569#7FE280037FCB00F0
(1790979363.282003) can0 017FFF01#7FFF7FFF00000000
(1790979363.282182) can0 02800161#7FFF7F71800100F0
(1790979363.282318) can0 017FFF02#7FFF7FFF00000000
(1790979363.282517) can0 02800263#7FFF80967FFD00F0
(1790979363.282653) can0 017FFF03#7FFF7FFF00000000
(1790979363.282871) can0 02800365#7FFF805F7FF700E6
(1790979363.283009) can0 017FFF04#7FFF7FFF00000000
(1790979363.283217) can0 02800467#7FFF80067FF600F0
(1790979363.283348) can0 017FFF05#7FE47FFF0F5C6666
(1790979363.283573) can0 02800569#7FE280527F7E00F0
(1790979363.287002) can0 017FFF01#7FFF7FFF00000000
(1790979363.287186) can0 02800161#7FFF7F7F800C00F0
(1790979363.287322) can0 017FFF02#7FFF7FFF00000000
(1790979363.287523) can0 02800263#7FFF7FE87FEA00F0
(1790979363.287659) can0 017FFF03#7FFF7FFF00000000
(1790979363.287871) can0 02800365#7FFF7FF87FE800E6
(1790979363.288008) can0 017FFF04#7FFF7FFF00000000
(1790979363.288216) can0 02800467#7FFF7FCC801200F0
(1790979363.288348) can0 017FFF05#7FE57FFF0F5C6666
(1790979363.288573) can0 02800569#7FE280217FBA00F0
(1790979363.292004) can0 017FFF01#7FFF7FFF00000000
(1790979363.292183) can0 02800161#7FFF80AA7FF500F0
(1790979363.292319) can0 017FFF02#7FFF7FFF00000000
(1790979363.292519) can0 02800263#7FFF803A801200F0
(1790979363.292653) can0 017FFF03#7FFF7FFF00000000
(1790979363.292870) can0 02800365#7FFF80547FF800E6
(1790979363.293008) can0 017FFF04#7FFF7FFF00000000
(1790979363.293216) can0 02800467#7FFF7FD07FEA00F0
(1790979363.293348) can0 017FFF05#7FE67FFF0F5C6666
(1790979363.293575) can0 02800569#7FE27FD47FDB00F0
(1790979363.297004) can0 017FFF01#7FFF7FFF00000000
(1790979363.297183) can0 02800161#7FFF802A800600F0
(1790979363.297319) can0 017FFF02#7FFF7FFF00000000
(1790979363.297519) can0 02800263#7FFF7F917FFD00F0
(1790979363.297655) can0 017FFF03#7FFF7FFF00000000
(1790979363.297870) can0 02800365#7FFF802D7FEF00E6
(1790979363.298007) can0 017FFF04#7FFF7FFF00000000
(1790979363.298217) can0 02800467#7FFF802E7FE900F0
(1790979363.298348) can0 017FFF05#7FE67FFF0F5C6666
(1790979363.298579) can0 02800569#7FE3800E7FEC00F0
(1790979363.302003) can0 017FFF01#7FFF7FFF00000000
(1790979363.302183) can0 02800161#7FFF7FD77FF700F0
(1790979363.302319) can0 017FFF02#7FFF7FFF00000000
(1790979363.302516) can0 02800263#7FFF81177FF300F0
(1790979363.302652) can0 017FFF03#7FFF7FFF00000000
(1790979363.302871) can0 02800365#7FFF7FFE800C00E6
(1790979363.303009) can0 017FFF04#7FFF7FFF00000000
(1790979363.303215) can0 02800467#7FFF7FEC7FEB00F0
(1790979363.303348) can0 017FFF05#7FE77FFF0F5C6666
(1790979363.303573) can0 02800569#7FE380287FC700F0
(1790979363.307002) can0 017FFF01#7FFF7FFF00000000
(1790979363.307185) can0 02800161#7FFF7FE77FFB00F0
(1790979363.307321) can0 017FFF02#7FFF7FFF00000000
(1790979363.307518) can0 02800263#7FFF7F787FFE00F0
(1790979363.307654) can0 017FFF03#7FFF7FFF00000000
(1790979363.307870) can0 02800365#7FFF7FA97FF500E6
(1790979363.308007) can0 017FFF04#7FFF7FFF00000000
(1790979363.308216) can0 02800467#7FFF80287FEB00F0
(1790979363.308348) can0 017FFF05#7FE87FFF0F5C6666
(1790979363.308575) can0 02800569#7FE4803F7FCA00F0
(1790979363.312003) can0 017FFF01#7FFF7FFF00000000
(1790979363.312185) can0 02800161#7FFF7FB3800400F0
(1790979363.312321) can0 017FFF02#7FFF7FFF00000000
(1790979363.312523) can0 02800263#7FFF806C800000F0
(1790979363.312657) can0 017FFF03#7FFF7FFF00000000
(1790979363.312870) can0 02800365#7FFF7FC37FFC00E6
(1790979363.313007) can0 017FFF04#7FFF7FFF00000000
(1790979363.313215) can0 02800467#7FFF7FAA7FD600F0
(1790979363.313347) can0 017FFF05#7FE87FFF0F5C6666
(1790979363.313573) can0 02800569#7FE480557FBA00F0
(1790979363.317003) can0 017FFF01#7FFF7FFF00000000
(1790979363.317184) can0 02800161#7FFF7F81800300F0
(1790979363.317320) can0 017FFF02#7FFF7FFF00000000
(1790979363.317519) can0 02800263#7FFF7FDD801100F0
(1790979363.317655) can0 017FFF03#7FFF7FFF00000000
(1790979363.317870) can0 02800365#7FFF800B800500E6
(1790979363.318007) can0 017FFF04#7FFF7FFF00000000
(1790979363.318216) can0 02800467#7FFF7FF8800600F0
(1790979363.318348) can0 017FFF05#7FE97FFF0F5C6666
(1790979363.318576) can0 02800569#7FE57FE77F8900F0
(1790979363.322003) can0 017FFF01#7FFF7FFF00000000
(1790979363.322183) can0 02800161#7FFF7FFB7FFE00F0
(1790979363.322319) can0 017FFF02#7FFF7FFF00000000
(1790979363.322518) can0 02800263#7FFF7FCB7FF200F0
(1790979363.322654) can0 017FFF03#7FFF7FFF00000000
(1790979363.322871) can0 02800365#7FFF80087FD800E6
(1790979363.323008) can0 017FFF04#7FFF7FFF00000000
(1790979363.323215) can0 02800467#7FFF7FFD7FE900F0
(1790979363.323347) can0 017FFF05#7FE97FFF0F5C6666
(1790979363.323573) can0 02800569#7FE5802F7F9700F0
(1790979363.327003) can0 017FFF01#7FFF7FFF00000000
(1790979363.327185) can0 02800161#7FFF80007FFE00F0
(1790979363.327321) can0 017FFF02#7FFF7FFF00000000
(1790979363.327518) can0 02800263#7FFF80D47FFB00F0
(1790979363.327654) can0 017FFF03#7FFF7FFF00000000
(1790979363.327871) can0 02800365#7FFF80167FF900E6
(1790979363.328008) can0 017FFF04#7FFF7FFF00000000
(1790979363.328218) can0 02800467#7FFF801E801B00F0
(1790979363.328350) can0 017FFF05#7FEA7FFF0F5C6666
(1790979363.328574) can0 02800569#7FE680467FC700F0
(1790979363.332002) can0 017FFF01#7FFF7FFF00000000
(1790979363.332183) can0 02800161#7FFF806A7FFB00F0
(1790979363.332320) can0 017FFF02#7FFF7FFF00000000
(1790979363.332519) can0 02800263#7FFF7FB37FFF00F0
(1790979363.332655) can0 017FFF03#7FFF7FFF00000000
(1790979363.332870) can0 02800365#7FFF80357FF900E6
(1790979363.333007) can0 017FFF04#7FFF7FFF00000000
(1790979363.333216) can0 02800467#7FFF8015800200F0
(1790979363.333348) can0 017FFF05#7FEB7FFF0F5C6666
(1790979363.333573) can0 02800569#7FE67FF57FAF00F0
(1790979363.337003) can0 017FFF01#7FFF7FFF00000000
(1790979363.337181) can0 02800161#7FFF80A9800A00F0
(1790979363.337318) can0 017FFF02#7FFF7FFF00000000
(1790979363.337517) can0 02800263#7FFF806D7FE600F0
(1790979363.337653) can0 017FFF03#7FFF7FFF00000000
(1790979363.337870) can0 02800365#7FFF8040801300E6
(1790979363.338007) can0 017FFF04#7FFF7FFF00000000
(1790979363.338216) can0 02800467#7FFF7F97800200F0
(1790979363.338348) can0 017FFF05#7FEB7FFF0F5C6666
(1790979363.338536) can0 02800569#7FE67FEA800000F0
(1790979363.342004) can0 017FFF01#7FFF7FFF00000000
(1790979363.342181) can0 02800161#7FFF808E800600F0
(1790979363.342318) can0 017FFF02#7FFF7FFF00000000
(1790979363.342517) can0 02800263#7FFF7FD47FF800F0
(1790979363.342653) can0 017FFF03#7FFF7FFF00000000
(1790979363.342872) can0 02800365#7FFF8012800F00E6
(1790979363.343009) can0 017FFF04#7FFF7FFF00000000
(1790979363.343215) can0 02800467#7FFF7FD77FF900F0
(1790979363.343347) can0 017FFF05#7FEC7FFF0F5C6666
(1790979363.343574) can0 02800569#7FE780087FE700F0
(1790979363.347004) can0 017FFF01#7FFF7FFF00000000
(1790979363.347183) can0 02800161#7FFF7F46800D00F0
(1790979363.347320) can0 017FFF02#7FFF7FFF00000000
(1790979363.347516) can0 02800263#7FFF8057800500F0
(1790979363.347653) can0 017FFF03#7FFF7FFF00000000
(1790979363.347869) can0 02800365#7FFF802C7FE900E6
(1790979363.348006) can0 017FFF04#7FFF7FFF00000000
(1790979363.348215) can0 02800467#7FFF8011802700F0
(1790979363.348346) can0 017FFF05#7FED7FFF0F5C6666
(1790979363.348579) can0 02800569#7FE77FF97FE400F0
(1790979363.352002) can0 017FFF01#7FFF7FFF00000000
(1790979363.352182) can0 02800161#7FFF80B57FFA00F0
(1790979363.352319) can0 017FFF02#7FFF7FFF00000000
(1790979363.352516) can0 02800263#7FFF8078802A00F0
(1790979363.352652) can0 017FFF03#7FFF7FFF00000000
(1790979363.352869) can0 02800365#7FFF80147FDE00E6
(1790979363.353006) can0 017FFF04#7FFF7FFF00000000
(1790979363.353214) can0 02800467#7FFF7FBC804300F0
(1790979363.353345) can0 017FFF05#7FED7FFF0F5C6666
(1790979363.353533) can0 02800569#7FE77FE4801A00F0
(1790979363.357004) can0 017FFF01#7FFF7FFF00000000
(1790979363.357183) can0 02800161#7FFF7FED7FF800F0
(1790979363.357320) can0 017FFF02#7FFF7FFF00000000
(1790979363.357521) can0 02800263#7FFF7FFF800400F0
(1790979363.357658) can0 017FFF03#7FFF7FFF00000000
(1790979363.357869) can0 02800365#7FFF803E7FDE00E6
(1790979363.358006) can0 017FFF04#7FFF7FFF00000000
(1790979363.358218) can0 02800467#7FFF80177FDC00F0
(1790979363.358349) can0 017FFF05#7FEE7FFF0F5C6666
(1790979363.358574) can0 02800569#7FE88021800200F0
(1790979363.362004) can0 017FFF01#7FFF7FFF00000000
(1790979363.362182) can0 02800161#7FFF7FCA800100F0
(1790979363.362319) can0 017FFF02#7FFF7FFF00000000
(1790979363.362518) can0 02800263#7FFF805D7FEB00F0
(1790979363.362654) can0 017FFF03#7FFF7FFF00000000
(1790979363.362871) can0 02800365#7FFF806B7FF800E6
(1790979363.363008) can0 017FFF04#7FFF7FFF00000000
(1790979363.363217) can0 02800467#7FFF7F9E7FEA00F0
(1790979363.363348) can0 017FFF05#7FEF7FFF0F5C6666
(1790979363.363534) can0 02800569#7FE88001801F00F0
(1790979363.367003) can0 017FFF01#7FFF7FFF00000000
(1790979363.367184) can0 02800161#7FFF7FF57FF700F0
(1790979363.367321) can0 017FFF02#7FFF7FFF00000000
(1790979363.367519) can0 02800263#7FFF8004802200F0
(1790979363.367655) can0 017FFF03#7FFF7FFF00000000
(1790979363.367873) can0 02800365#7FFF7FCF800800E6
(1790979363.368010) can0 017FFF04#7FFF7FFF00000000
(1790979363.368215) can0 02800467#7FFF8003800A00F0
(1790979363.368346) can0 017FFF05#7FEF7FFF0F5C6666
(1790979363.368577) can0 02800569#7FE880147FFE00F0
(1790979363.372002) can0 017FFF01#7FFF7FFF00000000
(1790979363.372182) can0 02800161#7FFF80237FFE00F0
(1790979363.372319) can0 017FFF02#7FFF7FFF00000000
(1790979363.372519) can0 02800263#7FFF7FC4800000F0
(1790979363.372655) can0 017FFF03#7FFF7FFF00000000
(1790979363.372870) can0 02800365#7FFF7FEC800700E6
(1790979363.373007) can0 017FFF04#7FFF7FFF00000000
(1790979363.373216) can0 02800467#7FFF7FEC800500F0
(1790979363.373347) can0 017FFF05#7FF07FFF0F5C6666
(1790979363.373575) can0 02800569#7FE8802F808300F0
(1790979363.377003) can0 017FFF01#7FFF7FFF00000000
(1790979363.377182) can0 02800161#7FFF7FD4800A00F0
(1790979363.377319) can0 017FFF02#7FFF7FFF00000000
(1790979363.377517) can0 02800263#7FFF802F800000F0
(1790979363.377654) can0 017FFF03#7FFF7FFF00000000
(1790979363.377870) can0 02800365#7FFF8007800500E6
(1790979363.378007) can0 017FFF04#7FFF7FFF00000000
(1790979363.378218) can0 02800467#7FFF8069801000F0
(1790979363.378351) can0 017FFF05#7FF17FFF0F5C6666
(1790979363.378535) can0 02800569#7FE88003807C00F0
(1790979363.382006) can0 017FFF01#7FFF7FFF00000000
(1790979363.382181) can0 02800161#7FFF808C801500F0
(1790979363.382317) can0 017FFF02#7FFF7FFF00000000
(1790979363.382514) can0 02800263#7FFF8078801A00F0
(1790979363.382651) can0 017FFF03#7FFF7FFF00000000
(1790979363.382869) can0 02800365#7FFF803E7FF700E6
(1790979363.383007) can0 017FFF04#7FFF7FFF00000000
(1790979363.383215) can0 02800467#7FFF7FF37FC200F0
(1790979363.383348) can0 017FFF05#7FF17FFF0F5C6666
(1790979363.383574) can0 02800569#7FE9801E809700F0
(1790979363.387003) can0 017FFF01#7FFF7FFF00000000
(1790979363.387188) can0 02800161#7FFF7FFF800400F0
(1790979363.387324) can0 017FFF02#7FFF7FFF00000000
(1790979363.387521) can0 02800263#7FFF7F977FF500F0
(1790979363.387658) can0 017FFF03#7FFF7FFF00000000
(1790979363.387869) can0 02800365#7FFF8024800300E6
(1790979363.388006) can0 017FFF04#7FFF7FFF00000000
(1790979363.388218) can0 02800467#7FFF80127FD400F0
(1790979363.388349) can0 017FFF05#7FF27FFF0F5C6666
(1790979363.388574) can0 02800569#7FE97FED80AF00F0
(1790979363.392002) can0 017FFF01#7FFF7FFF00000000
(1790979363.392181) can0 02800161#7FFF81087FFE00F0
(1790979363.392317) can0 017FFF02#7FFF7FFF00000000
(1790979363.392517) can0 02800263#7FFE7EC57FF800F0
(1790979363.392653) can0 017FFF03#7FFF7FFF00000000
(1790979363.392870) can0 02800365#7FFF80357FF300E6
(1790979363.393007) can0 017FFF04#7FFF7FFF00000000
(1790979363.393215) can0 02800467#7FFF7FFA800600F0
(1790979363.393348) can0 017FFF05#7FF37FFF0F5C6666
(1790979363.393533) can0 02800569#7FE9801480DD00F0
(1790979363.397003) can0 017FFF01#7FFF7FFF00000000
(1790979363.397182) can0 02800161#7FFF7FC2800700F0
(1790979363.397318) can0 017FFF02#7FFF7FFF00000000
(1790979363.397516) can0 02800263#7FFF7FF6800F00F0
(1790979363.397653) can0 017FFF03#7FFF7FFF00000000
(1790979363.397870) can0 02800365#7FFF7FF17FFA00E6
(1790979363.398007) can0 017FFF04#7FFF7FFF00000000
(1790979363.398216) can0 02800467#7FFF7FBD7FD500F0
(1790979363.398349) can0 017FFF05#7FF37FFF0F5C6666
(1790979363.398534) can0 02800569#7FE98018805A00F0
(1790979363.402004) can0 017FFF01#7FFF7FFF00000000
(1790979363.402184) can0 02800161#7FFF8102800000F0
(1790979363.402320) can0 017FFF02#7FFF7FFF00000000
(1790979363.402516) can0 02800263#7FFF809D802200F0
(1790979363.402652) can0 017FFF03#7FFF7FFF00000000
(1790979363.402870) can0 02800365#7FFF7FF7800300E6
(1790979363.403008) can0 017FFF04#7FFF7FFF00000000
(1790979363.403215) can0 02800467#7FFF8038801F00F0
(1790979363.403347) can0 017FFF05#7FF47FFF0F5C6666
(1790979363.403532) can0 02800569#7FE97FE380D200F0
(1790979363.407002) can0 017FFF01#7FFF7FFF00000000
(1790979363.407182) can0 02800161#7FFF7FEA7FED00F0
(1790979363.407318) can0 017FFF02#7FFF7FFF00000000
(1790979363.407518) can0 02800263#7FFF7F697FFC00F0
(1790979363.407654) can0 017FFF03#7FFF7FFF00000000
(1790979363.407868) can0 02800365#7FFF8047800500E6
(1790979363.408006) can0 017FFF04#7FFF7FFF00000000
(1790979363.408216) can0 02800467#7FFF7F6E7FF100F0
(1790979363.408348) can0 017FFF05#7FF57FFF0F5C6666
(1790979363.408573) can0 02800569#7FE97FC8811100F0
(1790979363.412002) can0 017FFF01#7FFF7FFF00000000
(1790979363.412182) can0 02800161#7FFF7FD77FF800F0
(1790979363.412318) can0 017FFF02#7FFF7FFF00000000
(1790979363.412518) can0 02800263#7FFF80787FFD00F0
(1790979363.412653) can0 017FFF03#7FFF7FFF00000000
(1790979363.412869) can0 02800365#7FFF8019800300E6
(1790979363.413007) can0 017FFF04#7FFF7FFF00000000
(1790979363.413215) can0 02800467#7FFF7FED7FF500F0
(1790979363.413348) can0 017FFF05#7FF57FFF0F5C6666
(1790979363.413573) can0 02800569#7FEA803A80D100F0
(1790979363.417004) can0 017FFF01#7FFF7FFF00000000
(1790979363.417185) can0 02800161#7FFF8024800400F0
(1790979363.417321) can0 017FFF02#7FFF7FFF00000000
(1790979363.417520) can0 02800263#7FFF7FF67FF200F0
(1790979363.417656) can0 017FFF03#7FFF7FFF00000000
(1790979363.417869) can0 02800365#7FFF8019800900E6
(1790979363.418006) can0 017FFF04#7FFF7FFF00000000
(1790979363.418218) can0 02800467#7FFF7FEC7FE800F0
(1790979363.418350) can0 017FFF05#7FF67FFF0F5C6666
(1790979363.418573) can0 02800569#7FEA805080C700F0
(1790979363.422004) can0 017FFF01#7FFF7FFF00000000
(1790979363.422182) can0 02800161#7FFF804B7FFD00F0
(1790979363.422318) can0 017FFF02#7FFF7FFF00000000
(1790979363.422516) can0 02800263#7FFF8070800A00F0
(1790979363.422652) can0 017FFF03#7FFF7FFF00000000
(1790979363.422869) can0 02800365#7FFF803A800500E6
(1790979363.423007) can0 017FFF04#7FFF7FFF00000000
(1790979363.423215) can0 02800467#7FFF80477FE500F0
(1790979363.423347) can0 017FFF05#7FF77FFF0F5C6666
(1790979363.423535) can0 02800569#7FEA7FFC80F400F0
(1790979363.427004) can0 017FFF01#7FFF7FFF00000000
(1790979363.427183) can0 02800161#7FFF7FAD7FF800F0
(1790979363.427319) can0 017FFF02#7FFF7FFF00000000
(1790979363.427517) can0 02800263#7FFE8009801500F0
(1790979363.427653) can0 017FFF03#7FFF7FFF00000000
(1790979363.427871) can0 02800365#7FFF7FE77FFC00E6
(1790979363.428009) can0 017FFF04#7FFF7FFF00000000
(1790979363.428214) can0 02800467#7FFF8011803300F0
(1790979363.428346) can0 017FFF05#7FF77FFF0F5C6666
(1790979363.428533) can0 02800569#7FEA803680EB00F0
(1790979363.432002) can0 017FFF01#7FFF7FFF00000000
(1790979363.432180) can0 02800161#7FFF7FA67FF700F0
(1790979363.432316) can0 017FFF02#7FFF7FFF00000000
(1790979363.432519) can0 02800263#7FFF7F6F800400F0
(1790979363.432654) can0 017FFF03#7FFF7FFF00000000
(1790979363.432868) can0 02800365#7FFF803C7FE200E6
(1790979363.433006) can0 017FFF04#7FFF7FFF00000000
(1790979363.433216) can0 02800467#7FFF80197FCA00F0
(1790979363.433347) can0 017FFF05#7FF87FFF0F5C6666
(1790979363.433533) can0 02800569#7FEB8012810B00F0
(1790979363.437003) can0 017FFF01#7FFF7FFF00000000
(1790979363.437182) can0 02800161#7FFF7FE27FF500F0
(1790979363.437318) can0 017FFF02#7FFF7FFF00000000
(1790979363.437516) can0 02800263#7FFF7FD0800100F0
(1790979363.437652) can0 017FFF03#7FFF7FFF00000000
(1790979363.437868) can0 02800365#7FFF7FCA800D00E6
(1790979363.438006) can0 017FFF04#7FFF7FFF00000000
(1790979363.438215) can0 02800467#7FFF7FAC7FFF00F0
(1790979363.438346) can0 017FFF05#7FF87FFF0F5C6666
(1790979363.438532) can0 02800569#7FEA801280DD00F0
(1790979363.442004) can0 017FFF01#7FFF7FFF00000000
(1790979363.442181) can0 02800161#7FFF80157FF500F0
(1790979363.442317) can0 017FFF02#7FFF7FFF00000000
(1790979363.442514) can0 02800263#7FFF7F927FE900F0
(1790979363.442650) can0 017FFF03#7FFF7FFF00000000
(1790979363.442869) can0 02800365#7FFF800D7FFE00E6
(1790979363.443007) can0 017FFF04#7FFF7FFF00000000
(1790979363.443218) can0 02800467#7FFF7FEC7FF700F0
(1790979363.443350) can0 017FFF05#7FF97FFF0F5C6666
(1790979363.443533) can0 02800569#7FEB802F80F500F0
(1790979363.447003) can0 017FFF01#7FFF7FFF00000000
(1790979363.447180) can0 02800161#7FFF7FDE7FF700F0
(1790979363.447316) can0 017FFF02#7FFF7FFF00000000
(1790979363.447515) can0 02800263#7FFF7FFB7FF900F0
(1790979363.447651) can0 017FFF03#7FFF7FFF00000000
(1790979363.447870) can0 02800365#7FFF7FFC800500E6
(1790979363.448007) can0 017FFF04#7FFF7FFF00000000
(1790979363.448217) can0 02800467#7FFF7FB47FFC00F0
(1790979363.448349) can0 017FFF05#7FFA7FFF0F5C6666
(1790979363.448534) can0 02800569#7FEB800C811700F0
(1790979363.452003) can0 017FFF01#7FFF7FFF00000000
(1790979363.452181) can0 02800161#7FFF803C800E00F0
(1790979363.452317) can0 017FFF02#7FFF7FFF00000000
(1790979363.452517) can0 02800263#7FFF80467FE600F0
(1790979363.452652) can0 017FFF03#7FFF7FFF00000000
(1790979363.452870) can0 02800365#7FFF80037FFD00E6
(1790979363.453007) can0 017FFF04#7FFF7FFF00000000
(1790979363.453215) can0 02800467#7FFF800A7FEB00F0
(1790979363.453347) can0 017FFF05#7FFA7FFF0F5C6666
(1790979363.453531) can0 02800569#7FEB7FD480F600F0
