(1790978614.964487) can0 1200FD01#0A70000000000000
(1790978614.964641) can0 020001FD#7FFF805B7FFF00F0
(1790978614.964768) can0 017FFF01#7FFF7FFF00000000
(1790978614.964959) can0 020001FD#7FFF802F7FFF00F0
(1790978614.965088) can0 0400FD01#0000000000000000
(1790978614.965260) can0 020001FD#7FFF7FC27FFF00F0
(1790978614.965400) can0 1200FD02#0A70000000000000
(1790978614.965582) can0 020002FD#7FFF80347FFF00F0
(1790978614.965713) can0 017FFF02#7FFF7FFF00000000
(1790978614.965876) can0 020002FD#7FFF806C7FFF00F0
(1790978614.966017) can0 0400FD02#0000000000000000
(1790978614.966177) can0 020002FD#7FFF7FB57FFF00F0
(1790978614.966316) can0 1200FD03#0A70000000000000
(1790978614.966495) can0 020003FD#7FFF7F987FFF00E6
(1790978614.966626) can0 017FFF03#7FFF7FFF00000000
(1790978614.966789) can0 020003FD#7FFF7FB27FFF00E6
(1790978614.966931) can0 0400FD03#0000000000000000
(1790978614.967091) can0 020003FD#7FFF80057FFF00E6
(1790978614.967231) can0 1200FD04#0A70000000000000
(1790978614.967415) can0 020004FD#7FFF7FCD7FFF00F0
(1790978614.967547) can0 017FFF04#7FFF7FFF00000000
(1790978614.967712) can0 020004FD#7FFF7FEA7FFF00F0
(1790978614.967856) can0 0400FD04#0000000000000000
(1790978614.968013) can0 020004FD#7FFF800F7FFF00F0
(1790978614.968152) can0 1200FD05#0A70000000000000
(1790978614.968313) can0 020005FD#7FEC80027FFF00F0
(1790978614.968455) can0 017FFF05#7FFF7FFF00000000
(1790978614.968611) can0 020005FD#7FEC7FF87FFF00F0
(1790978614.968752) can0 0400FD05#0000000000000000
(1790978614.968911) can0 020005FD#7FEC7FE57FFF00F0
(1790978614.969050) can0 1800FD01#0102030405060000
(1790978614.969209) can0 020001FD#7FFF80977FFF00F0
(1790978614.969349) can0 1800FD02#0102030405060000
(1790978614.969535) can0 020002FD#7FFF80167FFF00F0
(1790978614.969663) can0 1800FD03#0102030405060000
(1790978614.969847) can0 020003FD#7FFF7FD27FFF00E6
(1790978614.969976) can0 1800FD04#0102030405060000
(1790978614.970167) can0 020004FD#7FFF800A7FFF00F0
(1790978614.970294) can0 1800FD05#0102030405060000
(1790978614.970462) can0 020005FD#7FEC800E7FFF00F0
(1790978614.970601) can0 04008001#00C4000000000000
(1790978614.970760) can0 02000180#00C4560003012A07
(1790978614.971985) can0 00008101#0000000000000000
(1790978614.972157) can0 000001FE#457B30020C323817
(1790978614.973066) can0 11008201#0570000000000000
(1790978614.973226) can0 11000182#0570000000000000
(1790978614.974126) can0 11008301#1970000000000000
(1790978614.974302) can0 11000183#19700000AB0A86B9
(1790978614.975188) can0 11008401#1B70000000000000
(1790978614.975364) can0 11000184#1B70000000000000
(1790978614.976252) can0 11008501#2870000000000000
(1790978614.976410) can0 11000185#2870000058020000
(1790978614.977312) can0 11008601#2970000000000000
(1790978614.977471) can0 11000186#2970000000000000
(1790978614.978375) can0 11008701#2B70000000000000
(1790978614.978533) can0 11000187#2B70000000000000
(1790978614.979437) can0 04008802#00C4000000000000
(1790978614.979593) can0 02000288#00C4560003012A07
(1790978614.980511) can0 00008902#0000000000000000
(1790978614.980675) can0 000002FE#785630020C343701
(1790978614.981565) can0 11008A02#0570000000000000
(1790978614.981731) can0 1100028A#0570000000000000
(1790978614.982627) can0 11008B02#1970000000000000
(1790978614.982785) can0 1100028B#1970000000000000
(1790978614.983688) can0 11008C02#1B70000000000000
(1790978614.983847) can0 1100028C#1B70000000000000
(1790978614.984732) can0 11008D02#2870000000000000
(1790978614.984887) can0 1100028D#2870000058020000
(1790978614.985791) can0 11008E02#2970000000000000
(1790978614.985949) can0 1100028E#2970000000000000
(1790978614.986853) can0 11008F02#2B70000000000000
(1790978614.987032) can0 1100028F#2B70000000000000
(1790978614.987917) can0 04009003#00C4000000000000
(1790978614.988091) can0 02000390#00C4560002032207
(1790978614.988985) can0 00009103#0000000000000000
(1790978614.989135) can0 000003FE#9D6A3B859C023019
(1790978614.990042) can0 11009203#0570000000000000
(1790978614.990200) can0 11000392#0570000000000000
(1790978614.991104) can0 11009303#1970000000000000
(1790978614.991257) can0 11000393#19700000DF7B4F38
(1790978614.992166) can0 11009403#1B70000000000000
(1790978614.992341) can0 11000394#1B700000C0185F3C
(1790978614.993229) can0 11009503#2870000000000000
(1790978614.993391) can0 11000395#2870000058020000
(1790978614.994293) can0 11009603#2970000000000000
(1790978614.994450) can0 11000396#2970000000000000
(1790978614.995355) can0 11009703#2B70000000000000
(1790978614.995513) can0 11000397#2B70000000000000
(1790978614.996417) can0 04009804#00C4000000000000
(1790978614.996574) can0 02000498#00C4560002032207
(1790978614.997485) can0 00009904#0000000000000000
(1790978614.997657) can0 000004FE#8A063B8F2450B00D
(1790978614.998541) can0 11009A04#0570000000000000
(1790978614.998715) can0 1100049A#0570000000000000
(1790978614.999605) can0 11009B04#1970000000000000
(1790978614.999759) can0 1100049B#19700000E79C1BB9
(1790978615.000666) can0 11009C04#1B70000000000000
(1790978615.000819) can0 1100049C#1B70000052A68A3D
(1790978615.001728) can0 11009D04#2870000000000000
(1790978615.001884) can0 1100049D#2870000058020000
(1790978615.002791) can0 11009E04#2970000000000000
(1790978615.002965) can0 1100049E#2970000000000000
(1790978615.003852) can0 11009F04#2B70000000000000
(1790978615.004015) can0 1100049F#2B70000000000000
(1790978615.004917) can0 0400A005#00C4000000000000
(1790978615.005075) can0 020005A0#00C4560000032007
(1790978615.005980) can0 0000A105#0000000000000000
(1790978615.006155) can0 000005FE#622C30020C343701
(1790978615.007038) can0 1100A205#0570000000000000
(1790978615.007215) can0 110005A2#0570000000000000
(1790978615.008101) can0 1100A305#1970000000000000
(1790978615.008260) can0 110005A3#19700000CDC2EEBB
(1790978615.009164) can0 1100A405#1B70000000000000
(1790978615.009319) can0 110005A4#1B7000008BE4B03C
(1790978615.010226) can0 1100A505#2870000000000000
(1790978615.010383) can0 110005A5#2870000058020000
(1790978615.011289) can0 1100A605#2970000000000000
(1790978615.011465) can0 110005A6#2970000000000000
(1790978615.012351) can0 1100A705#2B70000000000000
(1790978615.012519) can0 110005A7#2B70000000000000
(1790978615.013444) can0 1200FD01#0A70000000000000
(1790978615.013609) can0 020001FD#7FFF807A7FFF00F0
(1790978615.013750) can0 017FFF01#7FFF7FFF00000000
(1790978615.013908) can0 020001FD#7FFF80657FFF00F0
(1790978615.014048) can0 0400FD01#0000000000000000
(1790978615.014210) can0 020001FD#7FFF80207FFF00F0
(1790978615.014349) can0 1200FD02#0A70000000000000
(1790978615.014532) can0 020002FD#7FFF7F887FFF00F0
(1790978615.014663) can0 017FFF02#7FFF7FFF00000000
(1790978615.014827) can0 020002FD#7FFF800A7FFF00F0
(1790978615.014968) can0 0400FD02#0000000000000000
(1790978615.015127) can0 020002FD#7FFF80147FFF00F0
(1790978615.015267) can0 1200FD03#0A70000000000000
(1790978615.015446) can0 020003FD#7FFF801A7FFF00E6
(1790978615.015577) can0 017FFF03#7FFF7FFF00000000
(1790978615.015738) can0 020003FD#7FFF7FC87FFF00E6
(1790978615.015880) can0 0400FD03#0000000000000000
(1790978615.016039) can0 020003FD#7FFF7FB17FFF00E6
(1790978615.016178) can0 1200FD04#0A70000000000000
(1790978615.016364) can0 020004FD#7FFF80077FFF00F0
(1790978615.016503) can0 017FFF04#7FFF7FFF00000000
(1790978615.016662) can0 020004FD#7FFF7FEE7FFF00F0
(1790978615.016808) can0 0400FD04#0000000000000000
(1790978615.016962) can0 020004FD#7FFF7F9B7FFF00F0
(1790978615.017101) can0 1200FD05#0A70000000000000
(1790978615.017262) can0 020005FD#7FEB80047FFF00F0
(1790978615.017404) can0 017FFF05#7FFF7FFF00000000
(1790978615.017561) can0 020005FD#7FEC7FE27FFF00F0
(1790978615.017702) can0 0400FD05#0000000000000000
(1790978615.017862) can0 020005FD#7FEC80037FFF00F0
(1790978615.017993) can0 1200FD01#2870000058020000
(1790978615.018159) can0 020001FD#7FFF80037FFF00F0
(1790978615.018298) can0 1100B001#2870000000000000
(1790978615.018461) can0 110001B0#2870000058020000
(1790978615.018811) can0 1200FD02#2870000058020000
(1790978615.018978) can0 020002FD#7FFF80027FFF00F0
(1790978615.019111) can0 1100B102#2870000000000000
(1790978615.019280) can0 110002B1#2870000058020000
(1790978615.019878) can0 1200FD03#2870000058020000
(1790978615.020041) can0 020003FD#7FFF80537FFF00E6
(1790978615.020174) can0 1100B203#2870000000000000
(1790978615.020343) can0 110003B2#2870000058020000
(1790978615.020949) can0 1200FD04#2870000058020000
(1790978615.021113) can0 020004FD#7FFF7FC17FFF00F0
(1790978615.021246) can0 1100B304#2870000000000000
(1790978615.021415) can0 110004B3#2870000058020000
(1790978615.022015) can0 1200FD05#2870000058020000
(1790978615.022171) can0 020005FD#7FEC80037FFF00F0
(1790978615.022303) can0 1100B405#2870000000000000
(1790978615.022466) can0 110005B4#2870000058020000
(1790978615.023083) can0 0600D001#0100000000000000
(1790978615.023264) can0 020001D0#7FFF80767FFF00F0
(1790978615.024147) can0 1100E001#1970000000000000
(1790978615.024311) can0 110001E0#197000001D070639
(1790978615.025213) can0 0600D102#0100000000000000
(1790978615.025382) can0 020002D1#7FFF7FB17FFF00F0
(1790978615.026275) can0 1100E102#1970000000000000
(1790978615.026428) can0 110002E1#197000008E635FB9
(1790978615.027340) can0 0600D203#0100000000000000
(1790978615.027498) can0 020003D2#7FFF80237FFF00E6
(1790978615.028406) can0 1100E203#1970000000000000
(1790978615.028562) can0 110003E2#19700000DF7B4FB8
(1790978615.029473) can0 0600D304#0100000000000000
(1790978615.029633) can0 020004D3#7FFF80117FFF00F0
(1790978615.030533) can0 1100E304#1970000000000000
(1790978615.030710) can0 110004E3#19700000DF7B4FB8
(1790978615.031597) can0 0600D405#0100000000000000
(1790978615.031767) can0 020005D4#7FFF7FD17FFF00F0
(1790978615.032662) can0 1100E405#1970000000000000
(1790978615.032815) can0 110005E4#19700000CDCC20B8
(1790978615.033726) can0 1100C001#2870000000000000
(1790978615.033883) can0 110001C0#2870000058020000
(1790978615.034788) can0 1100C102#2870000000000000
(1790978615.034945) can0 110002C1#2870000058020000
(1790978615.035850) can0 1100C203#2870000000000000
(1790978615.036007) can0 110003C2#2870000058020000
(1790978615.036914) can0 1100C304#2870000000000000
(1790978615.037069) can0 110004C3#2870000058020000
(1790978615.037976) can0 1100C405#2870000000000000
(1790978615.038132) can0 110005C4#2870000058020000
(1790978615.039970) can0 1200FD01#0A70000000000000
(1790978615.040123) can0 020001FD#7FFF7F587FFF00F0
(1790978615.040264) can0 017FFF01#7FFF7FFF00000000
(1790978615.040420) can0 020001FD#7FFF7F3B7FFF00F0
(1790978615.040556) can0 0400FD01#0000000000000000
(1790978615.040718) can0 020001FD#7FFF7F8D7FFF00F0
(1790978615.040852) can0 1200FD02#0A70000000000000
(1790978615.041032) can0 020002FD#7FFF7FA87FFF00F0
(1790978615.041163) can0 017FFF02#7FFF7FFF00000000
(1790978615.041327) can0 020002FD#7FFF80267FFF00F0
(1790978615.041468) can0 0400FD02#0000000000000000
(1790978615.041627) can0 020002FD#7FFF7F1D7FFF00F0
(1790978615.041760) can0 1200FD03#0A70000000000000
(1790978615.041946) can0 020003FD#7FFF7FDB7FFF00E6
(1790978615.042077) can0 017FFF03#7FFF7FFF00000000
(1790978615.042239) can0 020003FD#7FFF7FC47FFF00E6
(1790978615.042382) can0 0400FD03#0000000000000000
(1790978615.042541) can0 020003FD#7FFF7FB47FFF00E6
(1790978615.042682) can0 1200FD04#0A70000000000000
(1790978615.042865) can0 020004FD#7FFF80137FFF00F0
(1790978615.042997) can0 017FFF04#7FFF7FFF00000000
(1790978615.043160) can0 020004FD#7FFF802F7FFF00F0
(1790978615.043304) can0 0400FD04#0000000000000000
(1790978615.043462) can0 020004FD#7FFF80137FFF00F0
(1790978615.043596) can0 1200FD05#0A70000000000000
(1790978615.043763) can0 020005FD#7FFF7FAD7FFF00F0
(1790978615.043905) can0 017FFF05#7FFF7FFF00000000
(1790978615.044064) can0 020005FD#7FFF80007FFF00F0
(1790978615.044205) can0 0400FD05#0000000000000000
(1790978615.044368) can0 020005FD#7FFF800B7FFF00F0
(1790978615.055944) can0 11004001#1970000000000000
(1790978615.056107) can0 11000140#19700000E4B8B238
(1790978615.057032) can0 11004101#2870000000000000
(1790978615.057210) can0 11000141#2870000058020000
(1790978615.058092) can0 11004202#1970000000000000
(1790978615.058247) can0 11000242#197000008E635FB9
(1790978615.059155) can0 11004302#2870000000000000
(1790978615.059329) can0 11000243#2870000058020000
(1790978615.060218) can0 11004403#1970000000000000
(1790978615.060390) can0 11000344#19700000E79CCF38
(1790978615.061283) can0 11004503#2870000000000000
(1790978615.061441) can0 11000345#2870000058020000
(1790978615.062347) can0 11004604#1970000000000000
(1790978615.062509) can0 11000446#197000006BAD1B39
(1790978615.063408) can0 11004704#2870000000000000
(1790978615.063563) can0 11000447#2870000058020000
(1790978615.064473) can0 11004805#1970000000000000
(1790978615.064626) can0 11000548#1970000067E62038
(1790978615.065536) can0 11004905#2870000000000000
(1790978615.065714) can0 11000549#2870000058020000
(1790978615.067009) can0 0300FD01#0000000000000000
(1790978615.067277) can0 1200FD01#0570000000000000
(1790978615.067547) can0 0300FD02#0000000000000000
(1790978615.067816) can0 1200FD02#0570000000000000
(1790978615.068087) can0 0300FD03#0000000000000000
(1790978615.068356) can0 1200FD03#0570000000000000
(1790978615.068509) can0 028001FD#7FFF7F407FF800F0
(1790978615.068650) can0 0300FD04#0000000000000000
(1790978615.068920) can0 1200FD04#0570000000000000
(1790978615.069068) can0 028002FD#7FFF7F69802600F0
(1790978615.069209) can0 0300FD05#0000000000000000
(1790978615.069477) can0 1200FD05#0570000000000000
(1790978615.069627) can0 028003FD#7FFF7FF87FBE00E6
(1790978615.069768) can0 017FFF01#7FFF7FFF00000000
(1790978615.069927) can0 028001FD#7FFF7F207FE800F0
(1790978615.070069) can0 017FFF02#7FFF7FFF00000000
(1790978615.070218) can0 028004FD#7FFF800B802600F0
(1790978615.070360) can0 017FFF03#7FFF7FFF00000000
(1790978615.070512) can0 028001FD#7FFF80207FE700F0
(1790978615.070654) can0 017FFF04#7FFF7FFF00000000
(1790978615.070801) can0 028002FD#7FFF7FC6802B00F0
(1790978615.070943) can0 017FFF05#7FFF7FFF00000000
(1790978615.071090) can0 028002FD#7FFF7F9B802B00F0
(1790978615.071231) can0 028003FD#7FFF801B7FC700E6
(1790978615.071372) can0 028003FD#7FFF7FE87FC300E6
(1790978615.071516) can0 028004FD#7FFF7FE6802400F0
(1790978615.071659) can0 028004FD#7FFF7FE8803300F0
(1790978615.071803) can0 028005FD#7FFF7FF17F8C00F0
(1790978615.071944) can0 11006001#1970000000000000
(1790978615.072092) can0 028005FD#7FFF800B7EE100F0
(1790978615.072234) can0 017FFF01#7FFF7FFF00000000
(1790978615.072381) can0 11000160#19700000E4B8B238
(1790978615.072522) can0 017FFF02#7FFF7FFF00000000
(1790978615.072672) can0 02800160#7FFF80147FEF00F0
(1790978615.072813) can0 017FFF03#7FFF7FFF00000000
(1790978615.072962) can0 028002FD#7FFF8002801900F0
(1790978615.073104) can0 017FFF04#7FFF7FFF00000000
(1790978615.073254) can0 028003FD#7FFF7FFD7FB000E6
(1790978615.073396) can0 017FFF05#7FFF7FFF00000000
(1790978615.073545) can0 028004FD#7FFF7FFA803800F0
(1790978615.073686) can0 017FFF01#7FFF7FFF00000000
(1790978615.073835) can0 028005FD#7FFF7FE87F1200F0
(1790978615.073976) can0 017FFF02#7FFF7FFF00000000
(1790978615.074124) can0 02800160#800080B27FF900F0
(1790978615.074265) can0 017FFF03#7FFF7FFF00000000
(1790978615.074414) can0 028002FD#7FFF7F25801F00F0
(1790978615.074556) can0 017FFF04#7FFF7FFF00000000
(1790978615.074706) can0 028003FD#7FFF801F7FB200E6
(1790978615.074848) can0 017FFF05#7FFF7FFF00000000
(1790978615.074995) can0 028004FD#7FFF7FB3805200F0
(1790978615.075128) can0 11006101#2870000000000000
(1790978615.075283) can0 028005FD#7FFF800A7EE100F0
(1790978615.075424) can0 017FFF01#7FFF7FFF00000000
(1790978615.075571) can0 028005FD#7FFF80437EBD00F0
(1790978615.075712) can0 017FFF02#7FFF7FFF00000000
(1790978615.075861) can0 02800161#7FFF7FB07FED00F0
(1790978615.076002) can0 017FFF03#7FFF7FFF00000000
(1790978615.076152) can0 028002FD#7FFE7F60801B00F0
(1790978615.076294) can0 017FFF04#7FFF7FFF00000000
(1790978615.076442) can0 028003FD#7FFF80717FAC00E6
(1790978615.076580) can0 017FFF05#7FFF7FFF00000000
(1790978615.076739) can0 028004FD#7FFF7FBF800D00F0
(1790978615.076877) can0 028005FD#7FFF7FED7EF600F0
(1790978615.077021) can0 11000161#2870000058020000
(1790978615.078133) can0 11006202#1970000000000000
(1790978615.078284) can0 11000262#19700000ABAA3238
(1790978615.078425) can0 017FFF01#7FFF7FFF00000000
(1790978615.078626) can0 02800161#7FFF7FE37FEC00F0
(1790978615.078757) can0 017FFF02#7FFF7FFF00000000
(1790978615.078946) can0 02800262#7FFF7F74801600F0
(1790978615.079077) can0 017FFF03#7FFF7FFF00000000
(1790978615.079307) can0 028003FD#7FFF7FFE7FDC00E6
(1790978615.079439) can0 017FFF04#7FFF7FFF00000000
(1790978615.079677) can0 028004FD#7FFF7F7A801300F0
(1790978615.079809) can0 017FFF05#7FFF7FFF00000000
(1790978615.080026) can0 028005FD#800080167F3F00F0
(1790978615.080155) can0 11006302#2870000000000000
(1790978615.080341) can0 11000263#2870000058020000
(1790978615.080474) can0 017FFF01#7FFF7FFF00000000
(1790978615.080677) can0 02800161#7FFF7FBA7FF000F0
(1790978615.080807) can0 017FFF02#7FFF7FFF00000000
(1790978615.080994) can0 02800263#7FFF7EF4803200F0
(1790978615.081124) can0 017FFF03#7FFF7FFF00000000
(1790978615.081357) can0 028003FD#7FFF7FB57FF200E6
(1790978615.081487) can0 017FFF04#7FFF7FFF00000000
(1790978615.081728) can0 028004FD#7FFF800F803600F0
(1790978615.081860) can0 017FFF05#7FFF7FFF00000000
(1790978615.082074) can0 028005FD#800080747F4A00F0
(1790978615.082202) can0 11006403#1970000000000000
(1790978615.082406) can0 11000364#19700000EFBD4F38
(1790978615.082535) can0 017FFF01#7FFF7FFF00000000
(1790978615.082727) can0 02800161#7FFF7FDD7FED00F0
(1790978615.082857) can0 017FFF02#7FFF7FFF00000000
(1790978615.083044) can0 02800263#7FFF7FB0802B00F0
(1790978615.083175) can0 017FFF03#7FFF7FFF00000000
(1790978615.083407) can0 02800364#7FFF7FF67FEE00E6
(1790978615.083539) can0 017FFF04#7FFF7FFF00000000
(1790978615.083777) can0 028004FD#80008004802600F0
(1790978615.083909) can0 017FFF05#7FFF7FFF00000000
(1790978615.084125) can0 028005FD#800180507F7300F0
(1790978615.084252) can0 11006503#2870000000000000
(1790978615.084455) can0 11000365#2870000058020000
(1790978615.084586) can0 017FFF01#7FFF7FFF00000000
(1790978615.084777) can0 02800161#7FFF7FAE7FFD00F0
(1790978615.084909) can0 017FFF02#7FFF7FFF00000000
(1790978615.085094) can0 02800263#7FFE7F977FFB00F0
(1790978615.085224) can0 017FFF03#7FFF7FFF00000000
(1790978615.085455) can0 02800365#80007FF57FFE00E6
(1790978615.085587) can0 017FFF04#7FFF7FFF00000000
(1790978615.085828) can0 028004FD#7FFF7FB47FF200F0
(1790978615.085960) can0 017FFF05#7FFF7FFF00000000
(1790978615.086173) can0 028005FD#800180467F8A00F0
(1790978615.086302) can0 11006604#1970000000000000
(1790978615.086472) can0 11000466#197000006BAD1B39
(1790978615.086613) can0 017FFF01#7FFF7FFF00000000
(1790978615.086773) can0 02800161#7FFF80627FEC00F0
(1790978615.086915) can0 017FFF02#7FFF7FFF00000000
(1790978615.087095) can0 02800263#7FFF7FC27FED00F0
(1790978615.087225) can0 017FFF03#7FFF7FFF00000000
(1790978615.087455) can0 02800365#7FFF8049800600E6
(1790978615.087587) can0 017FFF04#7FFF7FFF00000000
(1790978615.087827) can0 02800466#7FFF801B801100F0
(1790978615.087959) can0 017FFF05#7FFF7FFF00000000
(1790978615.088177) can0 028005FD#800180267F6C00F0
(1790978615.088306) can0 11006704#2870000000000000
(1790978615.088477) can0 11000467#2870000058020000
(1790978615.088619) can0 017FFF01#7FFF7FFF00000000
(1790978615.088774) can0 02800161#7FFF7F8C7FEF00F0
(1790978615.088915) can0 017FFF02#7FFF7FFF00000000
(1790978615.089095) can0 02800263#7FFF80197FDE00F0
(1790978615.089226) can0 017FFF03#7FFF7FFF00000000
(1790978615.089454) can0 02800365#7FFF7FA1800200E6
(1790978615.089586) can0 017FFF04#7FFF7FFF00000000
(1790978615.089825) can0 02800467#7FFF804E801100F0
(1790978615.089957) can0 017FFF05#7FFF7FFF00000000
(1790978615.090173) can0 028005FD#800280697F6200F0
(1790978615.090300) can0 11006805#1970000000000000
(1790978615.090472) can0 11000568#197000006746713A
(1790978615.090615) can0 017FFF01#7FFF7FFF00000000
(1790978615.090771) can0 02800161#7FFF7F3C7FFE00F0
(1790978615.090912) can0 017FFF02#7FFF7FFF00000000
(1790978615.091096) can0 02800263#7FFF7F99801600F0
(1790978615.091227) can0 017FFF03#7FFF7FFF00000000
(1790978615.091454) can0 02800365#7FFF8032801600E6
(1790978615.091586) can0 017FFF04#7FFF7FFF00000000
(1790978615.091829) can0 02800467#7FFF7FF1800300F0
(1790978615.091960) can0 017FFF05#7FFF7FFF00000000
(1790978615.092174) can0 02800568#800280367F9D00F0
(1790978615.092302) can0 11006905#2870000000000000
(1790978615.092476) can0 11000569#2870000058020000
(1790978615.092617) can0 017FFF01#7FFF7FFF00000000
(1790978615.092774) can0 02800161#80008098800000F0
(1790978615.092915) can0 017FFF02#7FFF7FFF00000000
(1790978615.093090) can0 02800263#7FFF7FC27FDA00F0
(1790978615.093231) can0 017FFF03#7FFF7FFF00000000
(1790978615.093455) can0 02800365#7FFF80217FEC00E6
(1790978615.093586) can0 017FFF04#7FFF7FFF00000000
(1790978615.093824) can0 02800467#7FFF7FDE7FFA00F0
(1790978615.093956) can0 017FFF05#7FFF7FFF00000000
(1790978615.094174) can0 02800569#800280197FAB00F0
(1790978615.094305) can0 017FFF01#7FFF7FFF00000000
(1790978615.094472) can0 02800161#7FFF7FB97FFD00F0
(1790978615.094613) can0 017FFF02#7FFF7FFF00000000
(1790978615.094795) can0 02800263#7FFE7F0D7FE700F0
(1790978615.094926) can0 017FFF03#7FFF7FFF00000000
(1790978615.095154) can0 02800365#7FFF7FAB801F00E6
(1790978615.095286) can0 017FFF04#7FFF7FFF00000000
(1790978615.095526) can0 02800467#7FFF80097FFD00F0
(1790978615.095653) can0 017FFF05#7FFF7FFF0F5C3333
(1790978615.095874) can0 02800569#800280287F9F00F0
(1790978615.098201) can0 017FFF01#7FFF7FFF00000000
(1790978615.098372) can0 02800161#7FFF7F697FF200F0
(1790978615.098513) can0 017FFF02#7FFF7FFF00000000
(1790978615.098695) can0 02800263#7FFF804A7FF300F0
(1790978615.098826) can0 017FFF03#7FFF7FFF00000000
(1790978615.099054) can0 02800365#7FFF7F6B7FFD00E6
(1790978615.099186) can0 017FFF04#7FFF7FFF00000000
(1790978615.099435) can0 02800467#7FFF801E801500F0
(1790978615.099553) can0 017FFF05#7FFE7FFF0F5C3333
(1790978615.099773) can0 02800569#800380447F4000F0
(1790978615.103196) can0 017FFF01#7FFF7FFF00000000
(1790978615.103379) can0 02800161#7FFF80057FF200F0
(1790978615.103510) can0 017FFF02#7FFF7FFF00000000
(1790978615.103695) can0 02800263#7FFF7F547FF200F0
(1790978615.103826) can0 017FFF03#7FFF7FFF00000000
(1790978615.104054) can0 02800365#7FFF8026801500E6
(1790978615.104186) can0 017FFF04#7FFF7FFF00000000
(1790978615.104426) can0 02800467#7FFF8002801300F0
(1790978615.104552) can0 017FFF05#7FFE7FFF0F5C3333
(1790978615.104773) can0 02800569#80037FE97F8500F0
(1790978615.108189) can0 017FFF01#7FFF7FFF00000000
(1790978615.108377) can0 02800161#7FFF7F5D7FF500F0
(1790978615.108512) can0 017FFF02#7FFF7FFF00000000
(1790978615.108695) can0 02800263#7FFF805E801100F0
(1790978615.108826) can0 017FFF03#7FFF7FFF00000000
(1790978615.109057) can0 02800365#7FFF7FE17FFE00E6
(1790978615.109189) can0 017FFF04#7FFF7FFF00000000
(1790978615.109425) can0 02800467#7FFF80947FED00F0
(1790978615.109551) can0 017FFF05#7FFD7FFF0F5C3333
(1790978615.109771) can0 02800569#80037FAF7F9E00F0
(1790978615.113189) can0 017FFF01#7FFF7FFF00000000
(1790978615.113380) can0 02800161#7FFF7FF9800400F0
(1790978615.113510) can0 017FFF02#7FFF7FFF00000000
(1790978615.113699) can0 02800263#7FFF7FE57FF400F0
(1790978615.113829) can0 017FFF03#7FFF7FFF00000000
(1790978615.114055) can0 02800365#7FFF80097FFD00E6
(1790978615.114187) can0 017FFF04#7FFF7FFF00000000
(1790978615.114425) can0 02800467#7FFF7FDE7FD700F0
(1790978615.114553) can0 017FFF05#7FFC7FFF0F5C3333
(1790978615.114773) can0 02800569#800380207F9700F0
(1790978615.118191) can0 017FFF01#7FFF7FFF00000000
(1790978615.118379) can0 02800161#7FFF8039800800F0
(1790978615.118509) can0 017FFF02#7FFF7FFF00000000
(1790978615.118695) can0 02800263#7FFF7F72800B00F0
(1790978615.118826) can0 017FFF03#7FFF7FFF00000000
(1790978615.119053) can0 02800365#7FFF7FDC7FD900E6
(1790978615.119185) can0 017FFF04#7FFF7FFF00000000
(1790978615.119425) can0 02800467#7FFF7FA6802200F0
(1790978615.119552) can0 017FFF05#7FFC7FFF0F5C3333
(1790978615.119773) can0 02800569#80037FFC7F6F00F0
(1790978615.123179) can0 017FFF01#7FFF7FFF00000000
(1790978615.123376) can0 02800161#7FFF8018800300F0
(1790978615.123506) can0 017FFF02#7FFF7FFF00000000
(1790978615.123694) can0 02800263#7FFE7F7F800B00F0
(1790978615.123824) can0 017FFF03#7FFF7FFF00000000
(1790978615.124054) can0 02800365#7FFF7FC0800600E6
(1790978615.124193) can0 017FFF04#7FFF7FFF00000000
(1790978615.124427) can0 02800467#7FFF80247FFC00F0
(1790978615.124554) can0 017FFF05#7FFB7FFF0F5C3333
(1790978615.124776) can0 02800569#8003801C7F4000F0
(1790978615.128177) can0 017FFF01#7FFF7FFF00000000
(1790978615.128373) can0 02800161#7FFF7FF67FF600F0
(1790978615.128505) can0 017FFF02#7FFF7FFF00000000
(1790978615.128695) can0 02800263#7FFF80867FFE00F0
(1790978615.128826) can0 017FFF03#7FFF7FFF00000000
(1790978615.129054) can0 02800365#7FFF804F7FF700E6
(1790978615.129186) can0 017FFF04#7FFF7FFF00000000
(1790978615.129428) can0 02800467#7FFF8041801F00F0
(1790978615.129554) can0 017FFF05#7FFA7FFF0F5C3333
(1790978615.129775) can0 02800569#80037FE37F7D00F0
(1790978615.133179) can0 017FFF01#7FFF7FFF00000000
(1790978615.133378) can0 02800161#7FFF8048800C00F0
(1790978615.133508) can0 017FFF02#7FFF7FFF00000000
(1790978615.133694) can0 02800263#7FFF80047FF500F0
(1790978615.133825) can0 017FFF03#7FFF7FFF00000000
(1790978615.134055) can0 02800365#7FFF7FEF800300E6
(1790978615.134193) can0 017FFF04#7FFF7FFF00000000
(1790978615.134426) can0 02800467#7FFF8010802500F0
(1790978615.134552) can0 017FFF05#7FFA7FFF0F5C3333
(1790978615.134772) can0 02800569#80037FFD7F2900F0
(1790978615.138183) can0 017FFF01#7FFF7FFF00000000
(1790978615.138376) can0 02800161#7FFF80227FFE00F0
(1790978615.138507) can0 017FFF02#7FFF7FFF00000000
(1790978615.138693) can0 02800263#7FFF80BB800200F0
(1790978615.138824) can0 017FFF03#7FFF7FFF00000000
(1790978615.139056) can0 02800365#7FFF7F75800400E6
(1790978615.139188) can0 017FFF04#7FFF7FFF00000000
(1790978615.139424) can0 02800467#7FFF7F727FEF00F0
(1790978615.139550) can0 017FFF05#7FF97FFF0F5C3333
(1790978615.139774) can0 02800569#80037FF97F2000F0
(1790978615.143181) can0 017FFF01#7FFF7FFF00000000
(1790978615.143375) can0 02800161#7FFF7FE4800600F0
(1790978615.143506) can0 017FFF02#7FFF7FFF00000000
(1790978615.143695) can0 02800263#7FFF7F5D800C00F0
(1790978615.143826) can0 017FFF03#7FFF7FFF00000000
(1790978615.144055) can0 02800365#7FFF80197FEC00E6
(1790978615.144194) can0 017FFF04#7FFF7FFF00000000
(1790978615.144426) can0 02800467#7FFF80267FE700F0
(1790978615.144552) can0 017FFF05#7FF87FFF0F5C3333
(1790978615.144773) can0 02800569#8003800A7F3700F0
(1790978615.148179) can0 017FFF01#7FFF7FFF00000000
(1790978615.148377) can0 02800161#7FFF7FD47FEC00F0
(1790978615.148511) can0 017FFF02#7FFF7FFF00000000
(1790978615.148693) can0 02800263#7FFF80347FF900F0
(1790978615.148824) can0 017FFF03#7FFF7FFF00000000
(1790978615.149055) can0 02800365#80007F937FF400E6
(1790978615.149187) can0 017FFF04#7FFF7FFF00000000
(1790978615.149425) can0 02800467#7FFF7FC6801600F0
(1790978615.149551) can0 017FFF05#7FF87FFF0F5C3333
(1790978615.149773) can0 02800569#80037FD77EFD00F0
(1790978615.153180) can0 017FFF01#7FFF7FFF00000000
(1790978615.153378) can0 02800161#7FFF80677FFC00F0
(1790978615.153509) can0 017FFF02#7FFF7FFF00000000
(1790978615.153693) can0 02800263#7FFF7FE47FEB00F0
(1790978615.153824) can0 017FFF03#7FFF7FFF00000000
(1790978615.154053) can0 02800365#800080597FE400E6
(1790978615.154192) can0 017FFF04#7FFF7FFF00000000
(1790978615.154424) can0 02800467#7FFF7FD67FD800F0
(1790978615.154551) can0 017FFF05#7FF77FFF0F5C3333
(1790978615.154776) can0 02800569#8003800F7EFA00F0
(1790978615.158180) can0 017FFF01#7FFF7FFF00000000
(1790978615.158376) can0 02800161#7FFF80E27FF900F0
(1790978615.158507) can0 017FFF02#7FFF7FFF00000000
(1790978615.158693) can0 02800263#7FFF8016802700F0
(1790978615.158824) can0 017FFF03#7FFF7FFF00000000
(1790978615.159056) can0 02800365#7FFF7FF07FFE00E6
(1790978615.159195) can0 017FFF04#7FFF7FFF00000000
(1790978615.159425) can0 02800467#7FFE7F92801000F0
(1790978615.159551) can0 017FFF05#7FF77FFF0F5C3333
(1790978615.159771) can0 02800569#80027FEA7F5200F0
(1790978615.163181) can0 017FFF01#7FFF7FFF00000000
(1790978615.163375) can0 02800161#7FFF7F6C7FF600F0
(1790978615.163506) can0 017FFF02#7FFF7FFF00000000
(1790978615.163695) can0 02800263#7FFF8009800B00F0
(1790978615.163826) can0 017FFF03#7FFF7FFF00000000
(1790978615.164053) can0 02800365#7FFF802C7FFD00E6
(1790978615.164192) can0 017FFF04#7FFF7FFF00000000
(1790978615.164424) can0 02800467#7FFF7FE17FDB00F0
(1790978615.164551) can0 017FFF05#7FF67FFF0F5C3333
(1790978615.164772) can0 02800569#80027FD27EF500F0
(1790978615.168181) can0 017FFF01#7FFF7FFF00000000
(1790978615.168377) can0 02800161#7FFF7FFD801800F0
(1790978615.168509) can0 017FFF02#7FFF7FFF00000000
(1790978615.168691) can0 02800263#7FFE7F6E7FDE00F0
(1790978615.168822) can0 017FFF03#7FFF7FFF00000000
(1790978615.169053) can0 02800365#7FFF7FBC800000E6
(1790978615.169185) can0 017FFF04#7FFF7FFF00000000
(1790978615.169424) can0 02800467#7FFF80297FF200F0
(1790978615.169551) can0 017FFF05#7FF57FFF0F5C3333
(1790978615.169772) can0 02800569#80027FF47EC700F0
(1790978615.173173) can0 017FFF01#7FFF7FFF00000000
(1790978615.173370) can0 02800161#7FFF808C800000F0
(1790978615.173501) can0 017FFF02#7FFF7FFF00000000
(1790978615.173694) can0 02800263#7FFE7EFD801F00F0
(1790978615.173825) can0 017FFF03#7FFF7FFF00000000
(1790978615.174053) can0 02800365#7FFF7FDE800900E6
(1790978615.174192) can0 017FFF04#7FFF7FFF00000000
(1790978615.174424) can0 02800467#7FFF7FD9800300F0
(1790978615.174551) can0 017FFF05#7FF57FFF0F5C3333
(1790978615.174772) can0 02800569#80017FB07E9E00F0
(1790978615.178180) can0 017FFF01#7FFF7FFF00000000
(1790978615.178375) can0 02800161#7FFF7FF5800100F0
(1790978615.178506) can0 017FFF02#7FFF7FFF00000000
(1790978615.178693) can0 02800263#7FFE7FFE7FFB00F0
(1790978615.178824) can0 017FFF03#7FFF7FFF00000000
(1790978615.179052) can0 02800365#7FFF7FD4801B00E6
(1790978615.179191) can0 017FFF04#7FFF7FFF00000000
(1790978615.179428) can0 02800467#7FFF7FF9801400F0
(1790978615.179555) can0 017FFF05#7FF47FFF0F5C3333
(1790978615.179772) can0 02800569#800180157E9800F0
(1790978615.183181) can0 017FFF01#7FFF7FFF00000000
(1790978615.183376) can0 02800161#7FFF7FBF7FED00F0
(1790978615.183507) can0 017FFF02#7FFF7FFF00000000
(1790978615.183692) can0 02800263#7FFF803C7FF100F0
(1790978615.183823) can0 017FFF03#7FFF7FFF00000000
(1790978615.184055) can0 02800365#80007FF9800000E6
(1790978615.184193) can0 017FFF04#7FFF7FFF00000000
(1790978615.184425) can0 02800467#7FFF7FEE802800F0
(1790978615.184552) can0 017FFF05#7FF37FFF0F5C3333
(1790978615.184772) can0 02800569#800280137EB700F0
(1790978615.188180) can0 017FFF01#7FFF7FFF00000000
(1790978615.188377) can0 02800161#7FFF7FCC800C00F0
(1790978615.188511) can0 017FFF02#7FFF7FFF00000000
(1790978615.188691) can0 02800263#7FFE8056801100F0
(1790978615.188822) can0 017FFF03#7FFF7FFF00000000
(1790978615.189054) can0 02800365#7FFF7FC67FFC00E6
(1790978615.189186) can0 017FFF04#7FFF7FFF00000000
(1790978615.189425) can0 02800467#7FFF801C7FEE00F0
(1790978615.189552) can0 017FFF05#7FF37FFF0F5C3333
(1790978615.189770) can0 02800569#80017FCA7EE100F0
(1790978615.193181) can0 017FFF01#7FFF7FFF00000000
(1790978615.193376) can0 02800161#7FFF8045800800F0
(1790978615.193506) can0 017FFF02#7FFF7FFF00000000
(1790978615.193693) can0 02800263#7FFE7FBF7FFD00F0
(1790978615.193824) can0 017FFF03#7FFF7FFF00000000
(1790978615.194052) can0 02800365#7FFF8062803000E6
(1790978615.194190) can0 017FFF04#7FFF7FFF00000000
(1790978615.194424) can0 02800467#7FFF7F997FEE00F0
(1790978615.194552) can0 017FFF05#7FF27FFF0F5C3333
(1790978615.194772) can0 02800569#8001800A7E8200F0
(1790978615.198180) can0 017FFF01#7FFF7FFF00000000
(1790978615.198375) can0 02800161#7FFF80027FF900F0
(1790978615.198506) can0 017FFF02#7FFF7FFF00000000
(1790978615.198695) can0 02800263#7FFE80507FFC00F0
(1790978615.198826) can0 017FFF03#7FFF7FFF00000000
(1790978615.199052) can0 02800365#7FFF7FB7800D00E6
(1790978615.199184) can0 017FFF04#7FFF7FFF00000000
(1790978615.199424) can0 02800467#7FFF8038801900F0
(1790978615.199550) can0 017FFF05#7FF17FFF0F5C3333
(1790978615.199771) can0 02800569#800180037E7700F0
(1790978615.203180) can0 017FFF01#7FFF7FFF00000000
(1790978615.203376) can0 02800161#7FFF7FDF7FFE00F0
(1790978615.203506) can0 017FFF02#7FFF7FFF00000000
(1790978615.203694) can0 02800263#7FFE7F877FFC00F0
(1790978615.203825) can0 017FFF03#7FFF7FFF00000000
(1790978615.204053) can0 02800365#7FFF7FCA800500E6
(1790978615.204191) can0 017FFF04#7FFF7FFF00000000
(1790978615.204424) can0 02800467#7FFF7FD97FFB00F0
(1790978615.204550) can0 017FFF05#7FF17FFF0F5C3333
(1790978615.204771) can0 02800569#80017FC67EB900F0
(1790978615.208179) can0 017FFF01#7FFF7FFF00000000
(1790978615.208377) can0 02800161#7FFF80777FFC00F0
(1790978615.208509) can0 017FFF02#7FFF7FFF00000000
(1790978615.208692) can0 02800263#7FFF7F99800600F0
(1790978615.208823) can0 017FFF03#7FFF7FFF00000000
(1790978615.209052) can0 02800365#80008066801200E6
(1790978615.209184) can0 017FFF04#7FFF7FFF00000000
(1790978615.209428) can0 02800467#7FFF801A800C00F0
(1790978615.209554) can0 017FFF05#7FF07FFF0F5C3333
(1790978615.209773) can0 02800569#80007FC77E4900F0
(1790978615.213181) can0 017FFF01#7FFF7FFF00000000
(1790978615.213375) can0 02800161#7FFF800A800100F0
(1790978615.213505) can0 017FFF02#7FFF7FFF00000000
(1790978615.213694) can0 02800263#7FFF7F8E800B00F0
(1790978615.213825) can0 017FFF03#7FFF7FFF00000000
(1790978615.214055) can0 02800365#7FFF803F801E00E6
(1790978615.214187) can0 017FFF04#7FFF7FFF00000000
(1790978615.214428) can0 02800467#7FFF7FD17FEC00F0
(1790978615.214554) can0 017FFF05#7FEF7FFF0F5C3333
(1790978615.214773) can0 02800569#80017FF07E5D00F0
(1790978615.218181) can0 017FFF01#7FFF7FFF00000000
(1790978615.218375) can0 02800161#7FFF80AF800600F0
(1790978615.218505) can0 017FFF02#7FFF7FFF00000000
(1790978615.218693) can0 02800263#7FFE8076800000F0
(1790978615.218824) can0 017FFF03#7FFF7FFF00000000
(1790978615.219052) can0 02800365#7FFF7FCB7FFD00E6
(1790978615.219191) can0 017FFF04#7FFF7FFF00000000
(1790978615.219424) can0 02800467#7FFF8028801F00F0
(1790978615.219550) can0 017FFF05#7FEF7FFF0F5C3333
(1790978615.219771) can0 02800569#80007FD87E6300F0
(1790978615.223190) can0 017FFF01#7FFF7FFF00000000
(1790978615.223375) can0 02800161#80008095800300F0
(1790978615.223506) can0 017FFF02#7FFF7FFF00000000
(1790978615.223693) can0 02800263#7FFF7FE8802900F0
(1790978615.223824) can0 017FFF03#7FFF7FFF00000000
(1790978615.224054) can0 02800365#7FFF7F767FF300E6
(1790978615.224186) can0 017FFF04#7FFF7FFF00000000
(1790978615.224424) can0 02800467#7FFF7FA1802100F0
(1790978615.224551) can0 017FFF05#7FEE7FFF0F5C3333
(1790978615.224773) can0 02800569#80007FDA7E4000F0
(1790978615.228187) can0 017FFF01#7FFF7FFF00000000
(1790978615.228377) can0 02800161#7FFF8035800C00F0
(1790978615.228510) can0 017FFF02#7FFF7FFF00000000
(1790978615.228693) can0 02800263#7FFF7FBA801000F0
(1790978615.228824) can0 017FFF03#7FFF7FFF00000000
(1790978615.229055) can0 02800365#7FFF7FA27FF400E6
(1790978615.229187) can0 017FFF04#7FFF7FFF00000000
(1790978615.229426) can0 02800467#7FFF7FB97FF000F0
(1790978615.229553) can0 017FFF05#7FED7FFF0F5C3333
(1790978615.229774) can0 02800569#800080007E4700F0
(1790978615.233192) can0 017FFF01#7FFF7FFF00000000
(1790978615.233375) can0 02800161#7FFF8059801100F0
(1790978615.233506) can0 017FFF02#7FFF7FFF00000000
(1790978615.233693) can0 02800263#7FFF80B4801200F0
(1790978615.233824) can0 017FFF03#7FFF7FFF00000000
(1790978615.234055) can0 02800365#800080077FF400E6
(1790978615.234187) can0 017FFF04#7FFF7FFF00000000
(1790978615.234425) can0 02800467#7FFF7FDD7FFF00F0
(1790978615.234552) can0 017FFF05#7FED7FFF0F5C3333
(1790978615.234772) can0 02800569#800080197E4600F0
(1790978615.238191) can0 017FFF01#7FFF7FFF00000000
(1790978615.238373) can0 02800161#7FFF7F6B800700F0
(1790978615.238504) can0 017FFF02#7FFF7FFF00000000
(1790978615.238697) can0 02800263#7FFF80037FF400F0
(1790978615.238828) can0 017FFF03#7FFF7FFF00000000
(1790978615.239053) can0 02800365#7FFF7FDC7FF900E6
(1790978615.239185) can0 017FFF04#7FFF7FFF00000000
(1790978615.239423) can0 02800467#7FFF804A800700F0
(1790978615.239549) can0 017FFF05#7FEC7FFF0F5C3333
(1790978615.239775) can0 02800569#80007FF07DF500F0
(1790978615.243190) can0 017FFF01#7FFF7FFF00000000
(1790978615.243376) can0 02800161#7FFF7F00800300F0
(1790978615.243507) can0 017FFF02#7FFF7FFF00000000
(1790978615.243694) can0 02800263#7FFF806A801000F0
(1790978615.243825) can0 017FFF03#7FFF7FFF00000000
(1790978615.244053) can0 02800365#800080147FF500E6
(1790978615.244186) can0 017FFF04#7FFF7FFF00000000
(1790978615.244426) can0 02800467#7FFF7FE4800000F0
(1790978615.244552) can0 017FFF05#7FEB7FFF0F5C3333
(1790978615.244773) can0 02800569#7FFF80167EA900F0
(1790978615.248187) can0 017FFF01#7FFF7FFF00000000
(1790978615.248377) can0 02800161#7FFF7F917FFC00F0
(1790978615.248512) can0 017FFF02#7FFF7FFF00000000
(1790978615.248696) can0 02800263#7FFF801F7FF000F0
(1790978615.248827) can0 017FFF03#7FFF7FFF00000000
(1790978615.249054) can0 02800365#80008067800800E6
(1790978615.249186) can0 017FFF04#7FFF7FFF00000000
(1790978615.249423) can0 02800467#7FFF8026801700F0
(1790978615.249549) can0 017FFF05#7FEB7FFF0F5C3333
(1790978615.249773) can0 02800569#7FFF7FCD7E0F00F0
(1790978615.253190) can0 017FFF01#7FFF7FFF00000000
(1790978615.253376) can0 02800161#7FFF7F63800300F0
(1790978615.253507) can0 017FFF02#7FFF7FFF00000000
(1790978615.253695) can0 02800263#7FFF8034801000F0
(1790978615.253825) can0 017FFF03#7FFF7FFF00000000
(1790978615.254054) can0 02800365#7FFF8007800500E6
(1790978615.254185) can0 017FFF04#7FFF7FFF00000000
(1790978615.254426) can0 02800467#7FFF7FFF7FE600F0
(1790978615.254553) can0 017FFF05#7FEA7FFF0F5C3333
(1790978615.254773) can0 02800569#7FFE7FF57E3700F0
(1790978615.258190) can0 017FFF01#7FFF7FFF00000000
(1790978615.258375) can0 02800161#7FFF7F9D7FFE00F0
(1790978615.258506) can0 017FFF02#7FFF7FFF00000000
(1790978615.258692) can0 02800263#7FFF80407FFD00F0
(1790978615.258823) can0 017FFF03#7FFF7FFF00000000
(1790978615.259055) can0 02800365#7FFF800B800600E6
(1790978615.259187) can0 017FFF04#7FFF7FFF00000000
(1790978615.259424) can0 02800467#7FFF7FF5802200F0
(1790978615.259550) can0 017FFF05#7FE97FFF0F5C3333
(1790978615.259775) can0 02800569#7FFE7FD27E0400F0
(1790978615.263189) can0 017FFF01#7FFF7FFF00000000
(1790978615.263377) can0 02800161#7FFF80D27FEC00F0
(1790978615.263508) can0 017FFF02#7FFF7FFF00000000
(1790978615.263695) can0 02800263#7FFE8022801400F0
(1790978615.263826) can0 017FFF03#7FFF7FFF00000000
(1790978615.264056) can0 02800365#8000800F800100E6
(1790978615.264188) can0 017FFF04#7FFF7FFF00000000
(1790978615.264427) can0 02800467#7FFF7FF07FE500F0
(1790978615.264554) can0 017FFF05#7FE97FFF0F5C3333
(1790978615.264772) can0 02800569#7FFE80287E3900F0
(1790978615.268190) can0 017FFF01#7FFF7FFF00000000
(1790978615.268377) can0 02800161#7FFF7FD47FFD00F0
(1790978615.268510) can0 017FFF02#7FFF7FFF00000000
(1790978615.268693) can0 02800263#7FFF802E7FF600F0
(1790978615.268824) can0 017FFF03#7FFF7FFF00000000
(1790978615.269055) can0 02800365#7FFF80107FFC00E6
(1790978615.269187) can0 017FFF04#7FFF7FFF00000000
(1790978615.269425) can0 02800467#7FFF7FEA800700F0
(1790978615.269552) can0 017FFF05#7FE87FFF0F5C3333
(1790978615.269775) can0 02800569#7FFE80107DFE00F0
(1790978615.273189) can0 017FFF01#7FFF7FFF00000000
(1790978615.273375) can0 02800161#7FFF7F787FFB00F0
(1790978615.273506) can0 017FFF02#7FFF7FFF00000000
(1790978615.273693) can0 02800263#7FFF8009800E00F0
(1790978615.273824) can0 017FFF03#7FFF7FFF00000000
(1790978615.274052) can0 02800365#8000802B800300E6
(1790978615.274184) can0 017FFF04#7FFF7FFF00000000
(1790978615.274426) can0 02800467#7FFF800E7FF900F0
(1790978615.274553) can0 017FFF05#7FE87FFF0F5C3333
(1790978615.274772) can0 02800569#7FFD7FAD7DD500F0
(1790978615.278188) can0 017FFF01#7FFF7FFF00000000
(1790978615.278376) can0 02800161#7FFF80A67FFF00F0
(1790978615.278507) can0 017FFF02#7FFF7FFF00000000
(1790978615.278692) can0 02800263#7FFF801D800B00F0
(1790978615.278823) can0 017FFF03#7FFF7FFF00000000
(1790978615.279053) can0 02800365#7FFF80267FFF00E6
(1790978615.279185) can0 017FFF04#7FFF7FFF00000000
(1790978615.279425) can0 02800467#7FFF80077FAE00F0
(1790978615.279552) can0 017FFF05#7FE77FFF0F5C3333
(1790978615.279771) can0 02800569#7FFD7FDE7DCF00F0
(1790978615.283190) can0 017FFF01#7FFF7FFF00000000
(1790978615.283374) can0 02800161#7FFF7FBD7FF300F0
(1790978615.283505) can0 017FFF02#7FFF7FFF00000000
(1790978615.283692) can0 02800263#7FFF8011801100F0
(1790978615.283823) can0 017FFF03#7FFF7FFF00000000
(1790978615.284052) can0 02800365#800080357FFA00E6
(1790978615.284184) can0 017FFF04#7FFF7FFF00000000
(1790978615.284426) can0 02800467#7FFF803B7FFC00F0
(1790978615.284553) can0 017FFF05#7FE67FFF0F5C3333
(1790978615.284771) can0 02800569#7FFD7FC57E1E00F0
(1790978615.288189) can0 017FFF01#7FFF7FFF00000000
(1790978615.288375) can0 02800161#7FFF7F6E7FF800F0
(1790978615.288509) can0 017FFF02#7FFF7FFF00000000
(1790978615.288691) can0 02800263#7FFE802A800700F0
(1790978615.288822) can0 017FFF03#7FFF7FFF00000000
(1790978615.289054) can0 02800365#7FFF7FAA7FF000E6
(1790978615.289186) can0 017FFF04#7FFF7FFF00000000
(1790978615.289424) can0 02800467#7FFF7FE3801200F0
(1790978615.289551) can0 017FFF05#7FE67FFF0F5C3333
(1790978615.289775) can0 02800569#7FFD80077D8D00F0
(1790978615.293188) can0 017FFF01#7FFF7FFF00000000
(1790978615.293373) can0 02800161#7FFF8131800E00F0
(1790978615.293504) can0 017FFF02#7FFF7FFF00000000
(1790978615.293693) can0 02800263#7FFF8004800A00F0
(1790978615.293824) can0 017FFF03#7FFF7FFF00000000
(1790978615.294056) can0 02800365#8000800E7FE400E6
(1790978615.294188) can0 017FFF04#7FFF7FFF00000000
(1790978615.294425) can0 02800467#7FFF7FF67FD700F0
(1790978615.294551) can0 017FFF05#7FE57FFF0F5C3333
(1790978615.294770) can0 02800569#7FFC7FE57DCF00F0
(1790978615.298188) can0 017FFF01#7FFF7FFF00000000
(1790978615.298375) can0 02800161#7FFF7FB1800E00F0
(1790978615.298506) can0 017FFF02#7FFF7FFF00000000
(1790978615.298693) can0 02800263#7FFE7FD9800800F0
(1790978615.298824) can0 017FFF03#7FFF7FFF00000000
(1790978615.299054) can0 02800365#7FFF7FD9800400E6
(1790978615.299186) can0 017FFF04#7FFF7FFF00000000
(1790978615.299424) can0 02800467#7FFF802D7FE200F0
(1790978615.299552) can0 017FFF05#7FE47FFF0F5C3333
(1790978615.299772) can0 02800569#7FFC7FD07DBA00F0
(1790978615.303190) can0 017FFF01#7FFF7FFF00000000
(1790978615.303375) can0 02800161#7FFF7F29800A00F0
(1790978615.303506) can0 017FFF02#7FFF7FFF00000000
(1790978615.303692) can0 02800263#7FFE7EF97FEE00F0
(1790978615.303823) can0 017FFF03#7FFF7FFF00000000
(1790978615.304053) can0 02800365#80007FCE7FFC00E6
(1790978615.304185) can0 017FFF04#7FFF7FFF00000000
(1790978615.304424) can0 02800467#7FFF801B802D00F0
(1790978615.304552) can0 017FFF05#7FE47FFF0F5C3333
(1790978615.304771) can0 02800569#7FFB7FEE7DD600F0
(1790978615.308189) can0 017FFF01#7FFF7FFF00000000
(1790978615.308374) can0 02800161#7FFF7F37800500F0
(1790978615.308508) can0 017FFF02#7FFF7FFF00000000
(1790978615.308693) can0 02800263#7FFF80FE801600F0
(1790978615.308824) can0 017FFF03#7FFF7FFF00000000
(1790978615.309053) can0 02800365#7FFF801B800900E6
(1790978615.309185) can0 017FFF04#7FFF7FFF00000000
(1790978615.309424) can0 02800467#7FFF7FEC7FE700F0
(1790978615.309553) can0 017FFF05#7FE37FFF0F5C3333
(1790978615.309774) can0 02800569#7FFB7FBD7D7400F0
(1790978615.313188) can0 017FFF01#7FFF7FFF00000000
(1790978615.313373) can0 02800161#800080657FFE00F0
(1790978615.313503) can0 017FFF02#7FFF7FFF00000000
(1790978615.313691) can0 02800263#7FFF7FD1803600F0
(1790978615.313822) can0 017FFF03#7FFF7FFF00000000
(1790978615.314054) can0 02800365#7FFF8007800000E6
(1790978615.314186) can0 017FFF04#7FFF7FFF00000000
(1790978615.314425) can0 02800467#7FFF7FDC7FEA00F0
(1790978615.314551) can0 017FFF05#7FE27FFF0F5C3333
(1790978615.314771) can0 02800569#7FFA7FBD7D6800F0
(1790978615.318189) can0 017FFF01#7FFF7FFF00000000
(1790978615.318374) can0 02800161#7FFF7F7D800600F0
(1790978615.318504) can0 017FFF02#7FFF7FFF00000000
(1790978615.318691) can0 02800263#7FFF80A8800600F0
(1790978615.318822) can0 017FFF03#7FFF7FFF00000000
(1790978615.319054) can0 02800365#7FFF80077FEF00E6
(1790978615.319186) can0 017FFF04#7FFF7FFF00000000
(1790978615.319427) can0 02800467#7FFF7FD07FF900F0
(1790978615.319553) can0 017FFF05#7FE27FFF0F5C3333
(1790978615.319772) can0 02800569#7FFA7FEE7DD100F0
(1790978615.323189) can0 017FFF01#7FFF7FFF00000000
(1790978615.323376) can0 02800161#7FFF7FC67FFC00F0
(1790978615.323507) can0 017FFF02#7FFF7FFF00000000
(1790978615.323692) can0 02800263#7FFE7F3A800100F0
(1790978615.323823) can0 017FFF03#7FFF7FFF00000000
(1790978615.324052) can0 02800365#80007F6F7FF600E6
(1790978615.324184) can0 017FFF04#7FFF7FFF00000000
(1790978615.324424) can0 02800467#7FFF8014800B00F0
(1790978615.324552) can0 017FFF05#7FE17FFF0F5C3333
(1790978615.324769) can0 02800569#7FFA7FBA7DCE00F0
(1790978615.328177) can0 017FFF01#7FFF7FFF00000000
(1790978615.328373) can0 02800161#7FFF7FD37FF200F0
(1790978615.328504) can0 017FFF02#7FFF7FFF00000000
(1790978615.328691) can0 02800263#7FFE7F8A7FFF00F0
(1790978615.328822) can0 017FFF03#7FFF7FFF00000000
(1790978615.329053) can0 02800365#7FFF80187FF500E6
(1790978615.329185) can0 017FFF04#7FFF7FFF00000000
(1790978615.329421) can0 02800467#7FFF80337FDB00F0
(1790978615.329549) can0 017FFF05#7FE07FFF0F5C3333
(1790978615.329772) can0 02800569#7FFA7FE07D8600F0
(1790978615.333181) can0 017FFF01#7FFF7FFF00000000
(1790978615.333375) can0 02800161#7FFF7FDE800000F0
(1790978615.333505) can0 017FFF02#7FFF7FFF00000000
(1790978615.333689) can0 02800263#7FFF8054802600F0
(1790978615.333820) can0 017FFF03#7FFF7FFF00000000
(1790978615.334052) can0 02800365#7FFF7FC67FE600E6
(1790978615.334184) can0 017FFF04#7FFF7FFF00000000
(1790978615.334423) can0 02800467#7FFF7FD7800F00F0
(1790978615.334551) can0 017FFF05#7FE07FFF0F5C3333
(1790978615.334772) can0 02800569#7FFA800A7D8300F0
(1790978615.338183) can0 017FFF01#7FFF7FFF00000000
(1790978615.338373) can0 02800161#7FFF8031800100F0
(1790978615.338504) can0 017FFF02#7FFF7FFF00000000
(1790978615.338693) can0 02800263#7FFF802C7FF800F0
(1790978615.338825) can0 017FFF03#7FFF7FFF00000000
(1790978615.339052) can0 02800365#7FFF7F9D7FF700E6
(1790978615.339184) can0 017FFF04#7FFF7FFF00000000
(1790978615.339425) can0 02800467#7FFF7FCF800600F0
(1790978615.339551) can0 017FFF05#7FDF7FFF0F5C3333
(1790978615.339772) can0 02800569#7FF97FD17D8500F0
(1790978615.343191) can0 017FFF01#7FFF7FFF00000000
(1790978615.343374) can0 02800161#7FFF80597FFE00F0
(1790978615.343504) can0 017FFF02#7FFF7FFF00000000
(1790978615.343693) can0 02800263#7FFE80377FF400F0
(1790978615.343824) can0 017FFF03#7FFF7FFF00000000
(1790978615.344053) can0 02800365#7FFF7FBC801000E6
(1790978615.344185) can0 017FFF04#7FFF7FFF00000000
(1790978615.344423) can0 02800467#7FFF7FC0800300F0
(1790978615.344548) can0 017FFF05#7FDE7FFF0F5C3333
(1790978615.344770) can0 02800569#7FF87FB67D6F00F0
(1790978615.348189) can0 017FFF01#7FFF7FFF00000000
(1790978615.348374) can0 02800161#7FFF7F927FF800F0
(1790978615.348506) can0 017FFF02#7FFF7FFF00000000
(1790978615.348690) can0 02800263#7FFE80537FF900F0
(1790978615.348821) can0 017FFF03#7FFF7FFF00000000
(1790978615.349054) can0 02800365#7FFF7F807FFC00E6
(1790978615.349186) can0 017FFF04#7FFF7FFF00000000
(1790978615.349423) can0 02800467#7FFF8037801000F0
(1790978615.349548) can0 017FFF05#7FDE7FFF0F5C3333
(1790978615.349771) can0 02800569#7FF87FC17DA200F0
(1790978615.353191) can0 017FFF01#7FFF7FFF00000000
(1790978615.353377) can0 02800161#7FFF7F9A800400F0
(1790978615.353507) can0 017FFF02#7FFF7FFF00000000
(1790978615.353691) can0 02800263#7FFF8058800100F0
(1790978615.353822) can0 017FFF03#7FFF7FFF00000000
(1790978615.354052) can0 02800365#800080677FE500E6
(1790978615.354183) can0 017FFF04#7FFF7FFF00000000
(1790978615.354424) can0 02800467#7FFF800A7FF700F0
(1790978615.354549) can0 017FFF05#7FDD7FFF0F5C3333
(1790978615.354773) can0 02800569#7FF87FE07DAB00F0
(1790978615.358192) can0 017FFF01#7FFF7FFF00000000
(1790978615.358372) can0 02800161#7FFF7F9B800200F0
(1790978615.358503) can0 017FFF02#7FFF7FFF00000000
(1790978615.358694) can0 02800263#7FFE8085801E00F0
(1790978615.358825) can0 017FFF03#7FFF7FFF00000000
(1790978615.359051) can0 02800365#7FFF8037800D00E6
(1790978615.359183) can0 017FFF04#7FFF7FFF00000000
(1790978615.359426) can0 02800467#7FFF802A801100F0
(1790978615.359551) can0 017FFF05#7FDC7FFF0F5C3333
(1790978615.359773) can0 02800569#7FF77FD47D9C00F0
(1790978615.363190) can0 017FFF01#7FFF7FFF00000000
(1790978615.363373) can0 02800161#7FFF806A7FEF00F0
(1790978615.363504) can0 017FFF02#7FFF7FFF00000000
(1790978615.363690) can0 02800263#7FFF80367FEE00F0
(1790978615.363821) can0 017FFF03#7FFF7FFF00000000
(1790978615.364052) can0 02800365#8000802B801000E6
(1790978615.364185) can0 017FFF04#7FFF7FFF00000000
(1790978615.364425) can0 02800467#7FFF80367FFB00F0
(1790978615.364550) can0 017FFF05#7FDC7FFF0F5C3333
(1790978615.364772) can0 02800569#7FF77FB17D7E00F0
(1790978615.368194) can0 017FFF01#7FFF7FFF00000000
(1790978615.368373) can0 02800161#7FFF809B7FFE00F0
(1790978615.368504) can0 017FFF02#7FFF7FFF00000000
(1790978615.368691) can0 02800263#7FFE8054800800F0
(1790978615.368822) can0 017FFF03#7FFF7FFF00000000
(1790978615.369052) can0 02800365#7FFF7FBB7FE300E6
(1790978615.369184) can0 017FFF04#7FFF7FFF00000000
(1790978615.369422) can0 02800467#7FFF80337FB200F0
(1790978615.369548) can0 017FFF05#7FDB7FFF0F5C3333
(1790978615.369772) can0 02800569#7FF67F8E7D6300F0
(1790978615.373193) can0 017FFF01#7FFF7FFF00000000
(1790978615.373374) can0 02800161#7FFF7FE4800800F0
(1790978615.373505) can0 017FFF02#7FFF7FFF00000000
(1790978615.373693) can0 02800263#7FFF7FFA801300F0
(1790978615.373824) can0 017FFF03#7FFF7FFF00000000
(1790978615.374053) can0 02800365#7FFF802F801000E6
(1790978615.374185) can0 017FFF04#7FFF7FFF00000000
(1790978615.374426) can0 02800467#7FFF80257FE400F0
(1790978615.374551) can0 017FFF05#7FDA7FFF0F5C3333
(1790978615.374774) can0 02800569#7FF57FDC7DAC00F0
(1790978615.378192) can0 017FFF01#7FFF7FFF00000000
(1790978615.378372) can0 02800161#7FFF7FA3800700F0
(1790978615.378503) can0 017FFF02#7FFF7FFF00000000
(1790978615.378690) can0 02800263#7FFE7FC67FFB00F0
(1790978615.378821) can0 017FFF03#7FFF7FFF00000000
(1790978615.379053) can0 02800365#7FFF7FED7FF800E6
(1790978615.379185) can0 017FFF04#7FFF7FFF00000000
(1790978615.379423) can0 02800467#7FFF7FF47FCD00F0
(1790978615.379547) can0 017FFF05#7FDA7FFF0F5C3333
(1790978615.379771) can0 02800569#7FF57FF67DB700F0
(1790978615.383190) can0 017FFF01#7FFF7FFF00000000
(1790978615.383372) can0 02800161#7FFF7FD3800200F0
(1790978615.383503) can0 017FFF02#7FFF7FFF00000000
(1790978615.383693) can0 02800263#7FFE7F507FFA00F0
(1790978615.383824) can0 017FFF03#7FFF7FFF00000000
(1790978615.384053) can0 02800365#7FFF800D7FFC00E6
(1790978615.384185) can0 017FFF04#7FFF7FFF00000000
(1790978615.384422) can0 02800467#7FFF7FEE802700F0
(1790978615.384548) can0 017FFF05#7FD97FFF0F5C3333
(1790978615.384772) can0 02800569#7FF47FA77D7900F0
(1790978615.388191) can0 017FFF01#7FFF7FFF00000000
(1790978615.388374) can0 02800161#7FFF7F81801100F0
(1790978615.388506) can0 017FFF02#7FFF7FFF00000000
(1790978615.388693) can0 02800263#7FFE8005800400F0
(1790978615.388824) can0 017FFF03#7FFF7FFF00000000
(1790978615.389051) can0 02800365#7FFF804B7FFA00E6
(1790978615.389183) can0 017FFF04#7FFF7FFF00000000
(1790978615.389427) can0 02800467#7FFF801B804C00F0
(1790978615.389552) can0 017FFF05#7FD97FFF0F5C3333
(1790978615.389771) can0 02800569#7FF47FD37D5700F0
(1790978615.393193) can0 017FFF01#7FFF7FFF00000000
(1790978615.393373) can0 02800161#7FFF7F777FF100F0
(1790978615.393504) can0 017FFF02#7FFF7FFF00000000
(1790978615.393691) can0 02800263#7FFE805F801900F0
(1790978615.393822) can0 017FFF03#7FFF7FFF00000000
(1790978615.394052) can0 02800365#7FFF7F977FF000E6
(1790978615.394184) can0 017FFF04#7FFF7FFF00000000
(1790978615.394424) can0 02800467#7FFF7F957FF800F0
(1790978615.394550) can0 017FFF05#7FD87FFF0F5C3333
(1790978615.394771) can0 02800569#7FF47FD97D8200F0
(1790978615.398192) can0 017FFF01#7FFF7FFF00000000
(1790978615.398375) can0 02800161#7FFF7FE37FFF00F0
(1790978615.398505) can0 017FFF02#7FFF7FFF00000000
(1790978615.398692) can0 02800263#7FFF80D67FE800F0
(1790978615.398823) can0 017FFF03#7FFF7FFF00000000
(1790978615.399053) can0 02800365#7FFF7FA57FFF00E6
(1790978615.399185) can0 017FFF04#7FFF7FFF00000000
(1790978615.399425) can0 02800467#7FFF80027FC100F0
(1790978615.399550) can0 017FFF05#7FD77FFF0F5C3333
(1790978615.399770) can0 02800569#7FF37FBE7D9600F0
(1790978615.403197) can0 017FFF01#7FFF7FFF00000000
(1790978615.403375) can0 02800161#7FFF80007FF500F0
(1790978615.403505) can0 017FFF02#7FFF7FFF00000000
(1790978615.403690) can0 02800263#7FFE7F5B800300F0
(1790978615.403821) can0 017FFF03#7FFF7FFF00000000
(1790978615.404053) can0 02800365#7FFF801E800F00E6
(1790978615.404185) can0 017FFF04#7FFF7FFF00000000
(1790978615.404423) can0 02800467#7FFF80237FE900F0
(1790978615.404548) can0 017FFF05#7FD77FFF0F5C3333
(1790978615.404770) can0 02800569#7FF37FDB7DB800F0
(1790978615.408194) can0 017FFF01#7FFF7FFF00000000
(1790978615.408373) can0 02800161#7FFF7F9E7FFD00F0
(1790978615.408505) can0 017FFF02#7FFF7FFF00000000
(1790978615.408690) can0 02800263#7FFE7F74800000F0
(1790978615.408821) can0 017FFF03#7FFF7FFF00000000
(1790978615.409053) can0 02800365#7FFF7FED7FFD00E6
(1790978615.409185) can0 017FFF04#7FFF7FFF00000000
(1790978615.409422) can0 02800467#7FFF8027804A00F0
(1790978615.409548) can0 017FFF05#7FD67FFF0F5C3333
(1790978615.409769) can0 02800569#7FF27F9A7DB600F0
(1790978615.413192) can0 017FFF01#7FFF7FFF00000000
(1790978615.413373) can0 02800161#7FFF7FF97FFD00F0
(1790978615.413504) can0 017FFF02#7FFF7FFF00000000
(1790978615.413690) can0 02800263#7FFE7FED7FFA00F0
(1790978615.413821) can0 017FFF03#7FFF7FFF00000000
(1790978615.414051) can0 02800365#7FFF7FDC7FF600E6
(1790978615.414183) can0 017FFF04#7FFF7FFF00000000
(1790978615.414423) can0 02800467#7FFF7FED7FE600F0
(1790978615.414548) can0 017FFF05#7FD57FFF0F5C3333
(1790978615.414770) can0 02800569#7FF17FB47D9900F0
(1790978615.418191) can0 017FFF01#7FFF7FFF00000000
(1790978615.418375) can0 02800161#7FFF7FDC800400F0
(1790978615.418505) can0 017FFF02#7FFF7FFF00000000
(1790978615.418690) can0 02800263#7FFE7F657FF100F0
(1790978615.418821) can0 017FFF03#7FFF7FFF00000000
(1790978615.419052) can0 02800365#7FFF7FAD801900E6
(1790978615.419184) can0 017FFF04#7FFF7FFF00000000
(1790978615.419426) can0 02800467#7FFF7FF67FFF00F0
(1790978615.419551) can0 017FFF05#7FD57FFF0F5C3333
(1790978615.419771) can0 02800569#7FF07F657DCA00F0
(1790978615.423190) can0 017FFF01#7FFF7FFF00000000
(1790978615.423372) can0 02800161#7FFF807A7FF700F0
(1790978615.423503) can0 017FFF02#7FFF7FFF00000000
(1790978615.423691) can0 02800263#7FFF7FD37FF900F0
(1790978615.423822) can0 017FFF03#7FFF7FFF00000000
(1790978615.424051) can0 02800365#7FFF8056800600E6
(1790978615.424183) can0 017FFF04#7FFF7FFF00000000
(1790978615.424422) can0 02800467#7FFF80617FE900F0
(1790978615.424548) can0 017FFF05#7FD47FFF0F5C3333
(1790978615.424771) can0 02800569#7FEF7FAA7E1D00F0
(1790978615.428190) can0 017FFF01#7FFF7FFF00000000
(1790978615.428376) can0 02800161#7FFF7FAF800C00F0
(1790978615.428510) can0 017FFF02#7FFF7FFF00000000
(1790978615.428691) can0 02800263#7FFF7FDA800E00F0
(1790978615.428821) can0 017FFF03#7FFF7FFF00000000
(1790978615.429053) can0 02800365#7FFF80107FF900E6
(1790978615.429185) can0 017FFF04#7FFF7FFF00000000
(1790978615.429421) can0 02800467#7FFF7F9A802900F0
(1790978615.429547) can0 017FFF05#7FD37FFF0F5C3333
(1790978615.429773) can0 02800569#7FED7FCC7E1400F0
(1790978615.433192) can0 017FFF01#7FFF7FFF00000000
(1790978615.433372) can0 02800161#7FFF80607FFA00F0
(1790978615.433503) can0 017FFF02#7FFF7FFF00000000
(1790978615.433689) can0 02800263#7FFF805B800B00F0
(1790978615.433820) can0 017FFF03#7FFF7FFF00000000
(1790978615.434054) can0 02800365#7FFF7FFC7FFA00E6
(1790978615.434186) can0 017FFF04#7FFF7FFF00000000
(1790978615.434424) can0 02800467#7FFF7FEE7FD000F0
(1790978615.434550) can0 017FFF05#7FD37FFF0F5C3333
(1790978615.434769) can0 02800569#7FEC7F787E9E00F0
(1790978615.438197) can0 017FFF01#7FFF7FFF00000000
(1790978615.438370) can0 02800161#7FFF7FBC800400F0
(1790978615.438511) can0 017FFF02#7FFF7FFF00000000
(1790978615.438694) can0 02800263#7FFF7FFC801C00F0
(1790978615.438825) can0 017FFF03#7FFF7FFF00000000
(1790978615.439053) can0 02800365#7FFF7FCD800500E6
(1790978615.439185) can0 017FFF04#7FFF7FFF00000000
(1790978615.439423) can0 02800467#7FFF7FFD7FFD00F0
(1790978615.439549) can0 017FFF05#7FD27FFF0F5C3333
(1790978615.439769) can0 02800569#7FEA7F967E5900F0
(1790978615.443195) can0 017FFF01#7FFF7FFF00000000
(1790978615.443366) can0 02800161#7FFF8045800500F0
(1790978615.443507) can0 017FFF02#7FFF7FFF00000000
(1790978615.443692) can0 02800263#7FFF800C7FE300F0
(1790978615.443823) can0 017FFF03#7FFF7FFF00000000
(1790978615.444051) can0 02800365#7FFF804A7FF600E6
(1790978615.444184) can0 017FFF04#7FFF7FFF00000000
(1790978615.444427) can0 02800467#7FFF8004800C00F0
(1790978615.444552) can0 017FFF05#7FD17FFF0F5C3333
(1790978615.444769) can0 02800569#7FE87FAE7E6F00F0
(1790978615.448188) can0 017FFF01#7FFF7FFF00000000
(1790978615.448371) can0 02800161#7FFF7F8C7FF100F0
(1790978615.448503) can0 017FFF02#7FFF7FFF00000000
(1790978615.448692) can0 02800263#7FFF7FE4800900F0
(1790978615.448823) can0 017FFF03#7FFF7FFF00000000
(1790978615.449053) can0 02800365#8000802C800900E6
(1790978615.449185) can0 017FFF04#7FFF7FFF00000000
(1790978615.449424) can0 02800467#7FFF7FE4801F00F0
(1790978615.449548) can0 017FFF05#7FD17FFF0F5C3333
(1790978615.449769) can0 02800569#7FE77FB27E9500F0
(1790978615.453190) can0 017FFF01#7FFF7FFF00000000
(1790978615.453372) can0 02800161#7FFF80217FF100F0
(1790978615.453503) can0 017FFF02#7FFF7FFF00000000
(1790978615.453691) can0 02800263#7FFF7F8D7FE800F0
(1790978615.453822) can0 017FFF03#7FFF7FFF00000000
(1790978615.454052) can0 02800365#7FFF7FF9800A00E6
(1790978615.454184) can0 017FFF04#7FFF7FFF00000000
(1790978615.454421) can0 02800467#7FFF803B7FF900F0
(1790978615.454547) can0 017FFF05#7FD07FFF0F5C3333
(1790978615.454772) can0 02800569#7FE67F7E7EB000F0
(1790978615.458190) can0 017FFF01#7FFF7FFF00000000
(1790978615.458375) can0 02800161#7FFF80187FFC00F0
(1790978615.458506) can0 017FFF02#7FFF7FFF00000000
(1790978615.458690) can0 02800263#7FFF80657FDF00F0
(1790978615.458821) can0 017FFF03#7FFF7FFF00000000
(1790978615.459051) can0 02800365#7FFF8025800200E6
(1790978615.459183) can0 017FFF04#7FFF7FFF00000000
(1790978615.459423) can0 02800467#7FFF7FFC7FDE00F0
(1790978615.459548) can0 017FFF05#7FCF7FFF0F5C3333
(1790978615.459770) can0 02800569#7FE47FB77ECE00F0
(1790978615.463190) can0 017FFF01#7FFF7FFF00000000
(1790978615.463371) can0 02800161#7FFF806E800E00F0
(1790978615.463502) can0 017FFF02#7FFF7FFF00000000
(1790978615.463690) can0 02800263#7FFF802C7FFB00F0
(1790978615.463821) can0 017FFF03#7FFF7FFF00000000
(1790978615.464051) can0 02800365#80007FB17FD000E6
(1790978615.464183) can0 017FFF04#7FFF7FFF00000000
(1790978615.464422) can0 02800467#7FFF7FDF7FF200F0
(1790978615.464548) can0 017FFF05#7FCF7FFF0F5C3333
(1790978615.464770) can0 02800569#7FE37F897EDA00F0
(1790978615.468195) can0 017FFF01#7FFF7FFF00000000
(1790978615.468367) can0 02800161#7FFF7EEF7FF800F0
(1790978615.468511) can0 017FFF02#7FFF7FFF00000000
(1790978615.468691) can0 02800263#7FFE7FEC800000F0
(1790978615.468822) can0 017FFF03#7FFF7FFF00000000
(1790978615.469053) can0 02800365#7FFF7FF07FF300E6
(1790978615.469185) can0 017FFF04#7FFF7FFF00000000
(1790978615.469423) can0 02800467#7FFF8072800700F0
(1790978615.469549) can0 017FFF05#7FCE7FFF0F5C3333
(1790978615.469770) can0 02800569#7FE27F987EED00F0
(1790978615.473188) can0 017FFF01#7FFF7FFF00000000
(1790978615.473374) can0 02800161#7FFF7F55800000F0
(1790978615.473505) can0 017FFF02#7FFF7FFF00000000
(1790978615.473689) can0 02800263#7FFE7F567FF000F0
(1790978615.473820) can0 017FFF03#7FFF7FFF00000000
(1790978615.474051) can0 02800365#7FFF7F97800E00E6
(1790978615.474183) can0 017FFF04#7FFF7FFF00000000
(1790978615.474424) can0 02800467#7FFF7FDE7FF200F0
(1790978615.474548) can0 017FFF05#7FCD7FFF0F5C3333
(1790978615.474771) can0 02800569#7FE17FE27ED000F0
(1790978615.478189) can0 017FFF01#7FFF7FFF00000000
(1790978615.478374) can0 02800161#7FFF80077FF500F0
(1790978615.478505) can0 017FFF02#7FFF7FFF00000000
(1790978615.478690) can0 02800263#7FFF7FA77FFD00F0
(1790978615.478821) can0 017FFF03#7FFF7FFF00000000
(1790978615.479052) can0 02800365#7FFF7FA6801000E6
(1790978615.479184) can0 017FFF04#7FFF7FFF00000000
(1790978615.479422) can0 02800467#7FFF7FD5801D00F0
(1790978615.479547) can0 017FFF05#7FCD7FFF0F5C3333
(1790978615.479769) can0 02800569#7FE07FC77EAB00F0
(1790978615.483178) can0 017FFF01#7FFF7FFF00000000
(1790978615.483373) can0 02800161#7FFF801C7FFB00F0
(1790978615.483504) can0 017FFF02#7FFF7FFF00000000
(1790978615.483690) can0 02800263#7FFE7FD97FE000F0
(1790978615.483821) can0 017FFF03#7FFF7FFF00000000
(1790978615.484051) can0 02800365#7FFF7FCD7FED00E6
(1790978615.484183) can0 017FFF04#7FFF7FFF00000000
(1790978615.484426) can0 02800467#7FFF801D7FFC00F0
(1790978615.484552) can0 017FFF05#7FCC7FFF0F5C3333
(1790978615.484770) can0 02800569#7FDF7F917EB700F0
(1790978615.488208) can0 017FFF01#7FFF7FFF00000000
(1790978615.488367) can0 02800161#7FFF7F6B7FF900F0
(1790978615.488512) can0 017FFF02#7FFF7FFF00000000
(1790978615.488685) can0 02800263#7FFE8070801300F0
(1790978615.488826) can0 017FFF03#7FFF7FFF00000000
(1790978615.489052) can0 02800365#7FFF80057FFA00E6
(1790978615.489184) can0 017FFF04#7FFF7FFF00000000
(1790978615.489423) can0 02800467#7FFF800B7FF200F0
(1790978615.489548) can0 017FFF05#7FCB7FFF0F5C3333
(1790978615.489772) can0 02800569#7FDE7FBD7E8C00F0
(1790978615.493212) can0 017FFF01#7FFF7FFF00000000
(1790978615.493369) can0 02800161#7FFF7FB07FF000F0
(1790978615.493510) can0 017FFF02#7FFF7FFF00000000
(1790978615.493691) can0 02800263#7FFF80B37FFF00F0
(1790978615.493822) can0 017FFF03#7FFF7FFF00000000
(1790978615.494053) can0 02800365#7FFF7FEA7FFC00E6
(1790978615.494185) can0 017FFF04#7FFF7FFF00000000
(1790978615.494423) can0 02800467#7FFF7FE7800200F0
(1790978615.494548) can0 017FFF05#7FCB7FFF0F5C3333
(1790978615.494769) can0 02800569#7FDD7FC87EA600F0
(1790978615.498193) can0 017FFF01#7FFF7FFF00000000
(1790978615.498371) can0 02800161#7FFF8019800F00F0
(1790978615.498502) can0 017FFF02#7FFF7FFF00000000
(1790978615.498692) can0 02800263#7FFF7F4A7FFC00F0
(1790978615.498823) can0 017FFF03#7FFF7FFF00000000
(1790978615.499051) can0 02800365#7FFF7F89802000E6
(1790978615.499183) can0 017FFF04#7FFF7FFF00000000
(1790978615.499423) can0 02800467#7FFF801D805300F0
(1790978615.499548) can0 017FFF05#7FCC7FFF0F5C3333
(1790978615.499767) can0 02800569#7FDC7F897EAE00F0
(1790978615.503192) can0 017FFF01#7FFF7FFF00000000
(1790978615.503373) can0 02800161#7FFF7FC1800300F0
(1790978615.503503) can0 017FFF02#7FFF7FFF00000000
(1790978615.503689) can0 02800263#7FFF806B7FE700F0
(1790978615.503820) can0 017FFF03#7FFF7FFF00000000
(1790978615.504052) can0 02800365#80008045800300E6
(1790978615.504184) can0 017FFF04#7FFF7FFF00000000
(1790978615.504423) can0 02800467#7FFF80307FE200F0
(1790978615.504548) can0 017FFF05#7FCC7FFF0F5C3333
(1790978615.504770) can0 02800569#7FDB7FA47F2C00F0
(1790978615.508189) can0 017FFF01#7FFF7FFF00000000
(1790978615.508375) can0 02800161#7FFF7FFD800400F0
(1790978615.508509) can0 017FFF02#7FFF7FFF00000000
(1790978615.508691) can0 02800263#7FFE800C800500F0
(1790978615.508822) can0 017FFF03#7FFF7FFF00000000
(1790978615.509052) can0 02800365#800080427FF200E6
(1790978615.509184) can0 017FFF04#7FFF7FFF00000000
(1790978615.509420) can0 02800467#7FFE7FDB7FF100F0
(1790978615.509545) can0 017FFF05#7FCD7FFF0F5C3333
(1790978615.509770) can0 02800569#7FDA7F9D7F4000F0
(1790978615.513190) can0 017FFF01#7FFF7FFF00000000
(1790978615.513371) can0 02800161#7FFF80647FF800F0
(1790978615.513502) can0 017FFF02#7FFF7FFF00000000
(1790978615.513687) can0 02800263#7FFE7FCE800900F0
(1790978615.513818) can0 017FFF03#7FFF7FFF00000000
(1790978615.514053) can0 02800365#7FFF7FDB7FF300E6
(1790978615.514185) can0 017FFF04#7FFF7FFF00000000
(1790978615.514422) can0 02800467#7FFF80117FF600F0
(1790978615.514547) can0 017FFF05#7FCD7FFF0F5C3333
(1790978615.514769) can0 02800569#7FD97F997F7300F0
(1790978615.518192) can0 017FFF01#7FFF7FFF00000000
(1790978615.518374) can0 02800161#7FFF80687FFC00F0
(1790978615.518504) can0 017FFF02#7FFF7FFF00000000
(1790978615.518690) can0 02800263#7FFE80827FE800F0
(1790978615.518820) can0 017FFF03#7FFF7FFF00000000
(1790978615.519052) can0 02800365#7FFF7FFD800500E6
(1790978615.519184) can0 017FFF04#7FFF7FFF00000000
(1790978615.519422) can0 02800467#7FFF804F7FCB00F0
(1790978615.519548) can0 017FFF05#7FCE7FFF0F5C3333
(1790978615.519769) can0 02800569#7FD87FC07F9200F0
(1790978615.523193) can0 017FFF01#7FFF7FFF00000000
(1790978615.523373) can0 02800161#7FFF7FAD7FE400F0
(1790978615.523504) can0 017FFF02#7FFF7FFF00000000
(1790978615.523690) can0 02800263#7FFF80217FFF00F0
(1790978615.523821) can0 017FFF03#7FFF7FFF00000000
(1790978615.524054) can0 02800365#7FFF7FF7800400E6
(1790978615.524185) can0 017FFF04#7FFF7FFF00000000
(1790978615.524424) can0 02800467#7FFF80447FEC00F0
(1790978615.524549) can0 017FFF05#7FCF7FFF0F5C3333
(1790978615.524770) can0 02800569#7FD77F977F6E00F0
(1790978615.528191) can0 017FFF01#7FFF7FFF00000000
(1790978615.528371) can0 02800161#7FFF80237FED00F0
(1790978615.528502) can0 017FFF02#7FFF7FFF00000000
(1790978615.528688) can0 02800263#7FFE80497FE300F0
(1790978615.528819) can0 017FFF03#7FFF7FFF00000000
(1790978615.529051) can0 02800365#7FFF7FF8802D00E6
(1790978615.529183) can0 017FFF04#7FFF7FFF00000000
(1790978615.529425) can0 02800467#7FFF800D7FE000F0
(1790978615.529550) can0 017FFF05#7FCF7FFF0F5C3333
(1790978615.529770) can0 02800569#7FD67FC17F7F00F0
(1790978615.533192) can0 017FFF01#7FFF7FFF00000000
(1790978615.533370) can0 02800161#7FFF8031801600F0
(1790978615.533501) can0 017FFF02#7FFF7FFF00000000
(1790978615.533688) can0 02800263#7FFE801D800600F0
(1790978615.533819) can0 017FFF03#7FFF7FFF00000000
(1790978615.534051) can0 02800365#80008014801D00E6
(1790978615.534183) can0 017FFF04#7FFF7FFF00000000
(1790978615.534422) can0 02800467#7FFF807F802900F0
(1790978615.534547) can0 017FFF05#7FD07FFF0F5C3333
(1790978615.534768) can0 02800569#7FD67FB67F6F00F0
(1790978615.538193) can0 017FFF01#7FFF7FFF00000000
(1790978615.538372) can0 02800161#7FFF7F86800E00F0
(1790978615.538501) can0 017FFF02#7FFF7FFF00000000
(1790978615.538688) can0 02800263#7FFF8057800900F0
(1790978615.538819) can0 017FFF03#7FFF7FFF00000000
(1790978615.539052) can0 02800365#7FFF80067FF700E6
(1790978615.539183) can0 017FFF04#7FFF7FFF00000000
(1790978615.539423) can0 02800467#7FFF80087FEA00F0
(1790978615.539548) can0 017FFF05#7FD17FFF0F5C3333
(1790978615.539768) can0 02800569#7FD67FCC7F5500F0
(1790978615.543194) can0 017FFF01#7FFF7FFF00000000
(1790978615.543367) can0 02800161#7FFF7F417FFA00F0
(1790978615.543508) can0 017FFF02#7FFF7FFF00000000
(1790978615.543688) can0 02800263#7FFF80CC7FFA00F0
(1790978615.543819) can0 017FFF03#7FFF7FFF00000000
(1790978615.544052) can0 02800365#7FFF807B800000E6
(1790978615.544183) can0 017FFF04#7FFF7FFF00000000
(1790978615.544422) can0 02800467#7FFF7FD9800300F0
(1790978615.544547) can0 017FFF05#7FD17FFF0F5C3333
(1790978615.544769) can0 02800569#7FD67FE37FAD00F0
(1790978615.548188) can0 017FFF01#7FFF7FFF00000000
(1790978615.548372) can0 02800161#7FFF818B7FFF00F0
(1790978615.548504) can0 017FFF02#7FFF7FFF00000000
(1790978615.548691) can0 02800263#7FFE7F53800400F0
(1790978615.548822) can0 017FFF03#7FFF7FFF00000000
(1790978615.549053) can0 02800365#80008026800000E6
(1790978615.549185) can0 017FFF04#7FFF7FFF00000000
(1790978615.549421) can0 02800467#7FFF804D7FB900F0
(1790978615.549547) can0 017FFF05#7FD27FFF0F5C3333
(1790978615.549767) can0 02800569#7FD5802F7F5600F0
(1790978615.553190) can0 017FFF01#7FFF7FFF00000000
(1790978615.553371) can0 02800161#7FFF7FE9800B00F0
(1790978615.553502) can0 017FFF02#7FFF7FFF00000000
(1790978615.553692) can0 02800263#7FFF80527FE400F0
(1790978615.553823) can0 017FFF03#7FFF7FFF00000000
(1790978615.554051) can0 02800365#80007FF6801300E6
(1790978615.554183) can0 017FFF04#7FFF7FFF00000000
(1790978615.554422) can0 02800467#7FFF80357FEF00F0
(1790978615.554548) can0 017FFF05#7FD37FFF0F5C3333
(1790978615.554767) can0 02800569#7FD57FD67F8700F0
(1790978615.558190) can0 017FFF01#7FFF7FFF00000000
(1790978615.558371) can0 02800161#7FFF8029800F00F0
(1790978615.558502) can0 017FFF02#7FFF7FFF00000000
(1790978615.558688) can0 02800263#7FFE7FDE800B00F0
(1790978615.558819) can0 017FFF03#7FFF7FFF00000000
(1790978615.559051) can0 02800365#7FFF80247FF600E6
(1790978615.559183) can0 017FFF04#7FFF7FFF00000000
(1790978615.559426) can0 02800467#7FFF7FE17FFA00F0
(1790978615.559551) can0 017FFF05#7FD37FFF0F5C3333
(1790978615.559769) can0 02800569#7FD67FEF7F8D00F0
(1790978615.563194) can0 017FFF01#7FFF7FFF00000000
(1790978615.563373) can0 02800161#7FFF800E7FF900F0
(1790978615.563502) can0 017FFF02#7FFF7FFF00000000
(1790978615.563688) can0 02800263#7FFE8049801D00F0
(1790978615.563819) can0 017FFF03#7FFF7FFF00000000
(1790978615.564052) can0 02800365#7FFF7FC0800200E6
(1790978615.564184) can0 017FFF04#7FFF7FFF00000000
(1790978615.564424) can0 02800467#7FFF7FF27FF800F0
(1790978615.564550) can0 017FFF05#7FD47FFF0F5C3333
(1790978615.564770) can0 02800569#7FD57FED7FA600F0
(1790978615.568196) can0 017FFF01#7FFF7FFF00000000
(1790978615.568368) can0 02800161#7FFF7FE17FFE00F0
(1790978615.568510) can0 017FFF02#7FFF7FFF00000000
(1790978615.568691) can0 02800263#7FFE7F837FF700F0
(1790978615.568820) can0 017FFF03#7FFF7FFF00000000
(1790978615.569053) can0 02800365#7FFF7FD57FFC00E6
(1790978615.569184) can0 017FFF04#7FFF7FFF00000000
(1790978615.569423) can0 02800467#7FFF7F927FF500F0
(1790978615.569547) can0 017FFF05#7FD57FFF0F5C3333
(1790978615.569772) can0 02800569#7FD6801E7FC300F0
(1790978615.573191) can0 017FFF01#7FFF7FFF00000000
(1790978615.573372) can0 02800161#7FFF801A7FF200F0
(1790978615.573503) can0 017FFF02#7FFF7FFF00000000
(1790978615.573689) can0 02800263#7FFE7F68800800F0
(1790978615.573820) can0 017FFF03#7FFF7FFF00000000
(1790978615.574053) can0 02800365#8000801C7FFC00E6
(1790978615.574185) can0 017FFF04#7FFF7FFF00000000
(1790978615.574422) can0 02800467#7FFF7FB57FBF00F0
(1790978615.574546) can0 017FFF05#7FD57FFF0F5C3333
(1790978615.574771) can0 02800569#7FD680107FA800F0
(1790978615.578190) can0 017FFF01#7FFF7FFF00000000
(1790978615.578373) can0 02800161#800080407FF600F0
(1790978615.578504) can0 017FFF02#7FFF7FFF00000000
(1790978615.578690) can0 02800263#7FFE804D801C00F0
(1790978615.578821) can0 017FFF03#7FFF7FFF00000000
(1790978615.579054) can0 02800365#80008000800800E6
(1790978615.579185) can0 017FFF04#7FFF7FFF00000000
(1790978615.579422) can0 02800467#7FFF7FFE803600F0
(1790978615.579547) can0 017FFF05#7FD67FFF0F5C3333
(1790978615.579767) can0 02800569#7FD67FD47FC600F0
(1790978615.583191) can0 017FFF01#7FFF7FFF00000000
(1790978615.583373) can0 02800161#7FFF7FE17FF900F0
(1790978615.583504) can0 017FFF02#7FFF7FFF00000000
(1790978615.583688) can0 02800263#7FFE80297FF900F0
(1790978615.583819) can0 017FFF03#7FFF7FFF00000000
(1790978615.584051) can0 02800365#7FFF7FD27FEF00E6
(1790978615.584183) can0 017FFF04#7FFF7FFF00000000
(1790978615.584422) can0 02800467#7FFF80267FF700F0
(1790978615.584547) can0 017FFF05#7FD77FFF0F5C3333
(1790978615.584769) can0 02800569#7FD57FC07FD700F0
(1790978615.588189) can0 017FFF01#7FFF7FFF00000000
(1790978615.588373) can0 02800161#7FFF80A0800600F0
(1790978615.588505) can0 017FFF02#7FFF7FFF00000000
(1790978615.588690) can0 02800263#7FFF80BC7FF800F0
(1790978615.588821) can0 017FFF03#7FFF7FFF00000000
(1790978615.589051) can0 02800365#80008022801100E6
(1790978615.589183) can0 017FFF04#7FFF7FFF00000000
(1790978615.589422) can0 02800467#7FFF7FB27FFD00F0
(1790978615.589546) can0 017FFF05#7FD77FFF0F5C3333
(1790978615.589770) can0 02800569#7FD6801E7FE200F0
(1790978615.593191) can0 017FFF01#7FFF7FFF00000000
(1790978615.593373) can0 02800161#7FFF7F07800E00F0
(1790978615.593504) can0 017FFF02#7FFF7FFF00000000
(1790978615.593688) can0 02800263#7FFE8033800D00F0
(1790978615.593819) can0 017FFF03#7FFF7FFF00000000
(1790978615.594051) can0 02800365#7FFF80237FF100E6
(1790978615.594183) can0 017FFF04#7FFF7FFF00000000
(1790978615.594423) can0 02800467#7FFF801D800800F0
(1790978615.594549) can0 017FFF05#7FD87FFF0F5C3333
(1790978615.594769) can0 02800569#7FD67FDE7FED00F0
(1790978615.598190) can0 017FFF01#7FFF7FFF00000000
(1790978615.598370) can0 02800161#7FFF80447FFE00F0
(1790978615.598501) can0 017FFF02#7FFF7FFF00000000
(1790978615.598688) can0 02800263#7FFE7F5F801300F0
(1790978615.598818) can0 017FFF03#7FFF7FFF00000000
(1790978615.599051) can0 02800365#80007FB87FEF00E6
(1790978615.599183) can0 017FFF04#7FFF7FFF00000000
(1790978615.599423) can0 02800467#7FFF806B801000F0
(1790978615.599549) can0 017FFF05#7FD97FFF0F5C3333
(1790978615.599767) can0 02800569#7FD67FBB7FFB00F0
(1790978615.603188) can0 017FFF01#7FFF7FFF00000000
(1790978615.603371) can0 02800161#7FFF7F667FF000F0
(1790978615.603501) can0 017FFF02#7FFF7FFF00000000
(1790978615.603690) can0 02800263#7FFE7FEF802100F0
(1790978615.603821) can0 017FFF03#7FFF7FFF00000000
(1790978615.604051) can0 02800365#80007FDD7FF400E6
(1790978615.604183) can0 017FFF04#7FFF7FFF00000000
(1790978615.604421) can0 02800467#7FFF8067800D00F0
(1790978615.604548) can0 017FFF05#7FD97FFF0F5C3333
(1790978615.604769) can0 02800569#7FD680157FFE00F0
(1790978615.608189) can0 017FFF01#7FFF7FFF00000000
(1790978615.608371) can0 02800161#7FFF80247FFD00F0
(1790978615.608503) can0 017FFF02#7FFF7FFF00000000
(1790978615.608689) can0 02800263#7FFE7F4D7FE000F0
(1790978615.608820) can0 017FFF03#7FFF7FFF00000000
(1790978615.609050) can0 02800365#800080267FF900E6
(1790978615.609182) can0 017FFF04#7FFF7FFF00000000
(1790978615.609421) can0 02800467#7FFF805D7FF900F0
(1790978615.609546) can0 017FFF05#7FDA7FFF0F5C3333
(1790978615.609727) can0 02800569#7FD68017800A00F0
(1790978615.613189) can0 017FFF01#7FFF7FFF00000000
(1790978615.613371) can0 02800161#7FFF7FAA800700F0
(1790978615.613501) can0 017FFF02#7FFF7FFF00000000
(1790978615.613688) can0 02800263#7FFE7F847FF700F0
(1790978615.613818) can0 017FFF03#7FFF7FFF00000000
(1790978615.614051) can0 02800365#80008074800400E6
(1790978615.614183) can0 017FFF04#7FFF7FFF00000000
(1790978615.614419) can0 02800467#7FFF7FD77FC300F0
(1790978615.614545) can0 017FFF05#7FDB7FFF0F5C3333
(1790978615.614727) can0 02800569#7FD6802A803F00F0
(1790978615.618189) can0 017FFF01#7FFF7FFF00000000
(1790978615.618371) can0 02800161#7FFF80ED801300F0
(1790978615.618501) can0 017FFF02#7FFF7FFF00000000
(1790978615.618688) can0 02800263#7FFE7F9A7FF000F0
(1790978615.618819) can0 017FFF03#7FFF7FFF00000000
(1790978615.619050) can0 02800365#800080317FF300E6
(1790978615.619182) can0 017FFF04#7FFF7FFF00000000
(1790978615.619421) can0 02800467#7FFF7FB9800300F0
(1790978615.619547) can0 017FFF05#7FDB7FFF0F5C3333
(1790978615.619770) can0 02800569#7FD67FD8802400F0
(1790978615.623188) can0 017FFF01#7FFF7FFF00000000
(1790978615.623372) can0 02800161#7FFF806D800400F0
(1790978615.623503) can0 017FFF02#7FFF7FFF00000000
(1790978615.623689) can0 02800263#7FFF80307FED00F0
(1790978615.623820) can0 017FFF03#7FFF7FFF00000000
(1790978615.624051) can0 02800365#7FFF802B7FF800E6
(1790978615.624182) can0 017FFF04#7FFF7FFF00000000
(1790978615.624422) can0 02800467#7FFF800C7FF200F0
(1790978615.624547) can0 017FFF05#7FDC7FFF0F5C3333
(1790978615.624731) can0 02800569#7FD77FFF801400F0
(1790978615.628190) can0 017FFF01#7FFF7FFF00000000
(1790978615.628372) can0 02800161#7FFF810B7FF500F0
(1790978615.628505) can0 017FFF02#7FFF7FFF00000000
(1790978615.628687) can0 02800263#7FFE80AE801200F0
(1790978615.628818) can0 017FFF03#7FFF7FFF00000000
(1790978615.629052) can0 02800365#80008055800C00E6
(1790978615.629183) can0 017FFF04#7FFF7FFF00000000
(1790978615.629421) can0 02800467#7FFF7FD57FF100F0
(1790978615.629546) can0 017FFF05#7FDC7FFF0F5C3333
(1790978615.629765) can0 02800569#7FD78038804500F0
(1790978615.633190) can0 017FFF01#7FFF7FFF00000000
(1790978615.633371) can0 02800161#7FFF8017801000F0
(1790978615.633502) can0 017FFF02#7FFF7FFF00000000
(1790978615.633689) can0 02800263#7FFE7FA87FFD00F0
(1790978615.633820) can0 017FFF03#7FFF7FFF00000000
(1790978615.634051) can0 02800365#7FFF7FFA800600E6
(1790978615.634183) can0 017FFF04#7FFF7FFF00000000
(1790978615.634421) can0 02800467#7FFF8039804800F0
(1790978615.634546) can0 017FFF05#7FDD7FFF0F5C3333
(1790978615.634727) can0 02800569#7FD77FE0804200F0
(1790978615.638181) can0 017FFF01#7FFF7FFF00000000
(1790978615.638369) can0 02800161#7FFF7F687FF900F0
(1790978615.638500) can0 017FFF02#7FFF7FFF00000000
(1790978615.638688) can0 02800263#7FFF7FC3801D00F0
(1790978615.638819) can0 017FFF03#7FFF7FFF00000000
(1790978615.639051) can0 02800365#80007FE5800900E6
(1790978615.639183) can0 017FFF04#7FFF7FFF00000000
(1790978615.639421) can0 02800467#7FFF7FEE7FFA00F0
(1790978615.639545) can0 017FFF05#7FDE7FFF0F5C3333
(1790978615.639726) can0 02800569#7FD77FD6806700F0
(1790978615.643188) can0 017FFF01#7FFF7FFF00000000
(1790978615.643370) can0 02800161#7FFF7FAA800900F0
(1790978615.643501) can0 017FFF02#7FFF7FFF00000000
(1790978615.643685) can0 02800263#7FFE7F297FDA00F0
(1790978615.643816) can0 017FFF03#7FFF7FFF00000000
(1790978615.644051) can0 02800365#7FFF80127FDF00E6
(1790978615.644182) can0 017FFF04#7FFF7FFF00000000
(1790978615.644419) can0 02800467#7FFF7FDA800B00F0
(1790978615.644545) can0 017FFF05#7FDE7FFF0F5C3333
(1790978615.644726) can0 02800569#7FD88034806200F0
(1790978615.648189) can0 017FFF01#7FFF7FFF00000000
(1790978615.648370) can0 02800161#7FFF8042800100F0
(1790978615.648504) can0 017FFF02#7FFF7FFF00000000
(1790978615.648687) can0 02800263#7FFE7FA57FE000F0
(1790978615.648818) can0 017FFF03#7FFF7FFF00000000
(1790978615.649051) can0 02800365#7FFF7FF7800B00E6
(1790978615.649183) can0 017FFF04#7FFF7FFF00000000
(1790978615.649421) can0 02800467#7FFF7FDF7FED00F0
(1790978615.649546) can0 017FFF05#7FDF7FFF0F5C3333
(1790978615.649730) can0 02800569#7FD8800480A900F0
(1790978615.653189) can0 017FFF01#7FFF7FFF00000000
(1790978615.653370) can0 02800161#7FFF7FF2800200F0
(1790978615.653501) can0 017FFF02#7FFF7FFF00000000
(1790978615.653689) can0 02800263#7FFF808C800D00F0
(1790978615.653820) can0 017FFF03#7FFF7FFF00000000
(1790978615.654052) can0 02800365#7FFF800B800C00E6
(1790978615.654184) can0 017FFF04#7FFF7FFF00000000
(1790978615.654423) can0 02800467#7FFF7FCC7FDF00F0
(1790978615.654551) can0 017FFF05#7FE07FFF0F5C3333
(1790978615.654726) can0 02800569#7FD77FE7806A00F0
(1790978615.658189) can0 017FFF01#7FFF7FFF00000000
(1790978615.658370) can0 02800161#7FFF7F427FFF00F0
(1790978615.658500) can0 017FFF02#7FFF7FFF00000000
(1790978615.658689) can0 02800263#7FFE80967FE400F0
(1790978615.658820) can0 017FFF03#7FFF7FFF00000000
(1790978615.659051) can0 02800365#7FFF802A800C00E6
(1790978615.659183) can0 017FFF04#7FFF7FFF00000000
(1790978615.659422) can0 02800467#7FFF802D7FEC00F0
(1790978615.659550) can0 017FFF05#7FE07FFF0F5C3333
(1790978615.659727) can0 02800569#7FD77FD4807900F0
(1790978615.663189) can0 017FFF01#7FFF7FFF00000000
(1790978615.663371) can0 02800161#7FFF8030801400F0
(1790978615.663502) can0 017FFF02#7FFF7FFF00000000
(1790978615.663689) can0 02800263#7FFF7FFD7FFF00F0
(1790978615.663820) can0 017FFF03#7FFF7FFF00000000
(1790978615.664052) can0 02800365#8000800E800D00E6
(1790978615.664184) can0 017FFF04#7FFF7FFF00000000
(1790978615.664420) can0 02800467#7FFF8013801600F0
(1790978615.664548) can0 017FFF05#7FE17FFF0F5C3333
(1790978615.664727) can0 02800569#7FD88049808100F0
(1790978615.668189) can0 017FFF01#7FFF7FFF00000000
(1790978615.668370) can0 02800161#7FFF7FFE800200F0
(1790978615.668504) can0 017FFF02#7FFF7FFF00000000
(1790978615.668691) can0 02800263#7FFF80A67FFC00F0
(1790978615.668822) can0 017FFF03#7FFF7FFF00000000
(1790978615.669051) can0 02800365#7FFF805A800800E6
(1790978615.669183) can0 017FFF04#7FFF7FFF00000000
(1790978615.669419) can0 02800467#7FFF7FB37FC900F0
(1790978615.669545) can0 017FFF05#7FE27FFF0F5C3333
(1790978615.669729) can0 02800569#7FD88017807D00F0
(1790978615.673192) can0 017FFF01#7FFF7FFF00000000
(1790978615.673364) can0 02800161#7FFF8021800600F0
(1790978615.673504) can0 017FFF02#7FFF7FFF00000000
(1790978615.673688) can0 02800263#7FFE7F6E7FFA00F0
(1790978615.673818) can0 017FFF03#7FFF7FFF00000000
(1790978615.674051) can0 02800365#7FFF7FA47FF300E6
(1790978615.674183) can0 017FFF04#7FFF7FFF00000000
(1790978615.674419) can0 02800467#7FFF803C800B00F0
(1790978615.674545) can0 017FFF05#7FE27FFF0F5C3333
(1790978615.674768) can0 02800569#7FD8801380A000F0
(1790978615.678190) can0 017FFF01#7FFF7FFF00000000
(1790978615.678371) can0 02800161#7FFF7F8D7FFF00F0
(1790978615.678502) can0 017FFF02#7FFF7FFF00000000
(1790978615.678686) can0 02800263#7FFE7F887FEE00F0
(1790978615.678817) can0 017FFF03#7FFF7FFF00000000
(1790978615.679052) can0 02800365#7FFF800C7FFE00E6
(1790978615.679183) can0 017FFF04#7FFF7FFF00000000
(1790978615.679422) can0 02800467#7FFF80037FF000F0
(1790978615.679551) can0 017FFF05#7FE37FFF0F5C3333
(1790978615.679768) can0 02800569#7FD9805680A200F0
(1790978615.683188) can0 017FFF01#7FFF7FFF00000000
(1790978615.683369) can0 02800161#7FFF7F987FFE00F0
(1790978615.683500) can0 017FFF02#7FFF7FFF00000000
(1790978615.683686) can0 02800263#7FFE803F800B00F0
(1790978615.683817) can0 017FFF03#7FFF7FFF00000000
(1790978615.684051) can0 02800365#7FFF7FAF801600E6
(1790978615.684183) can0 017FFF04#7FFF7FFF00000000
(1790978615.684422) can0 02800467#7FFF7FF67FEE00F0
(1790978615.684553) can0 017FFF05#7FE47FFF0F5C3333
(1790978615.684727) can0 02800569#7FD9800B80A600F0
(1790978615.688191) can0 017FFF01#7FFF7FFF00000000
(1790978615.688363) can0 02800161#7FFF7FD1800900F0
(1790978615.688506) can0 017FFF02#7FFF7FFF00000000
(1790978615.688688) can0 02800263#7FFF8110800200F0
(1790978615.688818) can0 017FFF03#7FFF7FFF00000000
(1790978615.689050) can0 02800365#7FFF7F8D800100E6
(1790978615.689182) can0 017FFF04#7FFF7FFF00000000
(1790978615.689421) can0 02800467#7FFF7FF8803800F0
(1790978615.689549) can0 017FFF05#7FE47FFF0F5C3333
(1790978615.689728) can0 02800569#7FDA802280C800F0
(1790978615.693190) can0 017FFF01#7FFF7FFF00000000
(1790978615.693370) can0 02800161#7FFF7FD0800000F0
(1790978615.693501) can0 017FFF02#7FFF7FFF00000000
(1790978615.693687) can0 02800263#7FFF8028800800F0
(1790978615.693818) can0 017FFF03#7FFF7FFF00000000
(1790978615.694050) can0 02800365#7FFF7FA47FFC00E6
(1790978615.694182) can0 017FFF04#7FFF7FFF00000000
(1790978615.694419) can0 02800467#7FFF80487FF300F0
(1790978615.694544) can0 017FFF05#7FE57FFF0F5C3333
(1790978615.694727) can0 02800569#7FDA7FE980B500F0
(1790978615.698188) can0 017FFF01#7FFF7FFF00000000
(1790978615.698370) can0 02800161#7FFF7F67800600F0
(1790978615.698501) can0 017FFF02#7FFF7FFF00000000
(1790978615.698686) can0 02800263#7FFE80577FF500F0
(1790978615.698817) can0 017FFF03#7FFF7FFF00000000
(1790978615.699050) can0 02800365#8000802B800800E6
(1790978615.699182) can0 017FFF04#7FFF7FFF00000000
(1790978615.699424) can0 02800467#7FFF7FB87FE400F0
(1790978615.699551) can0 017FFF05#7FE67FFF0F5C3333
(1790978615.699727) can0 02800569#7FDA803080C500F0
(1790978615.703188) can0 017FFF01#7FFF7FFF00000000
(1790978615.703369) can0 02800161#7FFF7FD8800200F0
(1790978615.703500) can0 017FFF02#7FFF7FFF00000000
(1790978615.703686) can0 02800263#7FFE7FD37FE900F0
(1790978615.703817) can0 017FFF03#7FFF7FFF00000000
(1790978615.704049) can0 02800365#7FFF7FD97FFE00E6
(1790978615.704181) can0 017FFF04#7FFF7FFF00000000
(1790978615.704421) can0 02800467#7FFF7FF9800A00F0
(1790978615.704548) can0 017FFF05#7FE67FFF0F5C3333
(1790978615.704726) can0 02800569#7FDB805380A300F0
(1790978615.708187) can0 017FFF01#7FFF7FFF00000000
(1790978615.708369) can0 02800161#7FFF811D800E00F0
(1790978615.708501) can0 017FFF02#7FFF7FFF00000000
(1790978615.708689) can0 02800263#7FFE7EFC7FF500F0
(1790978615.708820) can0 017FFF03#7FFF7FFF00000000
(1790978615.709049) can0 02800365#7FFF8024800500E6
(1790978615.709181) can0 017FFF04#7FFF7FFF00000000
(1790978615.709423) can0 02800467#7FFF7FC8802C00F0
(1790978615.709550) can0 017FFF05#7FE77FFF0F5C3333
(1790978615.709729) can0 02800569#7FDB8020809C00F0
(1790978615.713189) can0 017FFF01#7FFF7FFF00000000
(1790978615.713368) can0 02800161#7FFF7F8B7FF500F0
(1790978615.713499) can0 017FFF02#7FFF7FFF00000000
(1790978615.713688) can0 02800263#7FFF80EE7FF800F0
(1790978615.713819) can0 017FFF03#7FFF7FFF00000000
(1790978615.714048) can0 02800365#80008033803100E6
(1790978615.714180) can0 017FFF04#7FFF7FFF00000000
(1790978615.714419) can0 02800467#7FFF7FD3801500F0
(1790978615.714546) can0 017FFF05#7FE87FFF0F5C3333
(1790978615.714727) can0 02800569#7FDC803C809000F0
(1790978615.718191) can0 017FFF01#7FFF7FFF00000000
(1790978615.718364) can0 02800161#7FFF7FB2800000F0
(1790978615.718506) can0 017FFF02#7FFF7FFF00000000
(1790978615.718690) can0 02800263#7FFE804F801C00F0
(1790978615.718821) can0 017FFF03#7FFF7FFF00000000
(1790978615.719051) can0 02800365#8000806D800700E6
(1790978615.719182) can0 017FFF04#7FFF7FFF00000000
(1790978615.719423) can0 02800467#7FFF7FFF7FE300F0
(1790978615.719550) can0 017FFF05#7FE87FFF0F5C3333
(1790978615.719726) can0 02800569#7FDD805C806900F0
(1790978615.723190) can0 017FFF01#7FFF7FFF00000000
(1790978615.723370) can0 02800161#7FFF7F4E800B00F0
(1790978615.723501) can0 017FFF02#7FFF7FFF00000000
(1790978615.723686) can0 02800263#7FFE802E7FFE00F0
(1790978615.723817) can0 017FFF03#7FFF7FFF00000000
(1790978615.724050) can0 02800365#7FFF8079800000E6
(1790978615.724182) can0 017FFF04#7FFF7FFF00000000
(1790978615.724423) can0 02800467#7FFF7FEF7FF800F0
(1790978615.724551) can0 017FFF05#7FE97FFF0F5C3333
(1790978615.724726) can0 02800569#7FDE804C803B00F0
(1790978615.728188) can0 017FFF01#7FFF7FFF00000000
(1790978615.728369) can0 02800161#7FFF804F7FFB00F0
(1790978615.728500) can0 017FFF02#7FFF7FFF00000000
(1790978615.728688) can0 02800263#7FFE7F8C802C00F0
(1790978615.728819) can0 017FFF03#7FFF7FFF00000000
(1790978615.729048) can0 02800365#7FFF7FCB802700E6
(1790978615.729180) can0 017FFF04#7FFF7FFF00000000
(1790978615.729421) can0 02800467#7FFF8011800500F0
(1790978615.729548) can0 017FFF05#7FE97FFF0F5C3333
(1790978615.729728) can0 02800569#7FDF8036801D00F0
(1790978615.733189) can0 017FFF01#7FFF7FFF00000000
(1790978615.733368) can0 02800161#800080B27FED00F0
(1790978615.733499) can0 017FFF02#7FFF7FFF00000000
(1790978615.733686) can0 02800263#7FFE80B17FFF00F0
(1790978615.733817) can0 017FFF03#7FFF7FFF00000000
(1790978615.734051) can0 02800365#7FFF7FB27FF000E6
(1790978615.734183) can0 017FFF04#7FFF7FFF00000000
(1790978615.734420) can0 02800467#7FFF80217FF200F0
(1790978615.734547) can0 017FFF05#7FEA7FFF0F5C3333
(1790978615.734730) can0 02800569#7FE08036800B00F0
(1790978615.738188) can0 017FFF01#7FFF7FFF00000000
(1790978615.738368) can0 02800161#7FFF7F987FF200F0
(1790978615.738498) can0 017FFF02#7FFF7FFF00000000
(1790978615.738688) can0 02800263#7FFF8092800E00F0
(1790978615.738819) can0 017FFF03#7FFF7FFF00000000
(1790978615.739050) can0 02800365#80008002800900E6
(1790978615.739182) can0 017FFF04#7FFF7FFF00000000
(1790978615.739418) can0 02800467#7FFF7FB27FB100F0
(1790978615.739544) can0 017FFF05#7FEB7FFF0F5C3333
(1790978615.739729) can0 02800569#7FE18059804400F0
(1790978615.743181) can0 017FFF01#7FFF7FFF00000000
(1790978615.743369) can0 02800161#7FFF80287FF700F0
(1790978615.743499) can0 017FFF02#7FFF7FFF00000000
(1790978615.743685) can0 02800263#7FFE8029800300F0
(1790978615.743816) can0 017FFF03#7FFF7FFF00000000
(1790978615.744053) can0 02800365#7FFF8002800C00E6
(1790978615.744185) can0 017FFF04#7FFF7FFF00000000
(1790978615.744421) can0 02800467#7FFF7FBE802700F0
(1790978615.744547) can0 017FFF05#7FEB7FFF0F5C3333
(1790978615.744726) can0 02800569#7FE28030805F00F0
(1790978615.748207) can0 017FFF01#7FFF7FFF00000000
(1790978615.748365) can0 02800161#7FFF7FEE7FFD00F0
(1790978615.748508) can0 017FFF02#7FFF7FFF00000000
(1790978615.748688) can0 02800263#7FFE7F857FF300F0
(1790978615.748817) can0 017FFF03#7FFF7FFF00000000
(1790978615.749049) can0 02800365#7FFF7FB27FF900E6
(1790978615.749181) can0 017FFF04#7FFF7FFF00000000
(1790978615.749423) can0 02800467#7FFF8065801C00F0
(1790978615.749549) can0 017FFF05#7FEC7FFF0F5C3333
(1790978615.749726) can0 02800569#7FE27FEB805900F0
(1790978615.753181) can0 017FFF01#7FFF7FFF00000000
(1790978615.753369) can0 02800161#7FFF7FAD7FFD00F0
(1790978615.753499) can0 017FFF02#7FFF7FFF00000000
(1790978615.753685) can0 02800263#7FFE8035800D00F0
(1790978615.753816) can0 017FFF03#7FFF7FFF00000000
(1790978615.754051) can0 02800365#7FFF7FDC800C00E6
(1790978615.754183) can0 017FFF04#7FFF7FFF00000000
(1790978615.754423) can0 02800467#7FFF800A800400F0
(1790978615.754550) can0 017FFF05#7FED7FFF0F5C3333
(1790978615.754726) can0 02800569#7FE3802D808100F0
(1790978615.758183) can0 017FFF01#7FFF7FFF00000000
(1790978615.758368) can0 02800161#7FFF80BC800300F0
(1790978615.758498) can0 017FFF02#7FFF7FFF00000000
(1790978615.758688) can0 02800263#7FFE7FD47FF400F0
(1790978615.758818) can0 017FFF03#7FFF7FFF00000000
(1790978615.759052) can0 02800365#7FFF800F800100E6
(1790978615.759183) can0 017FFF04#7FFF7FFF00000000
(1790978615.759421) can0 02800467#7FFF7FF27FF000F0
(1790978615.759548) can0 017FFF05#7FED7FFF0F5C3333
(1790978615.759727) can0 02800569#7FE3803A807100F0
(1790978615.763190) can0 017FFF01#7FFF7FFF00000000
(1790978615.763369) can0 02800161#7FFF80037FF700F0
(1790978615.763500) can0 017FFF02#7FFF7FFF00000000
(1790978615.763686) can0 02800263#7FFE807E800100F0
(1790978615.763817) can0 017FFF03#7FFF7FFF00000000
(1790978615.764051) can0 02800365#80008019800100E6
(1790978615.764183) can0 017FFF04#7FFF7FFF00000000
(1790978615.764420) can0 02800467#7FFF804B800800F0
(1790978615.764547) can0 017FFF05#7FEE7FFF0F5C3333
(1790978615.764727) can0 02800569#7FE4803C807D00F0
(1790978615.768187) can0 017FFF01#7FFF7FFF00000000
(1790978615.768368) can0 02800161#800080AB7FFA00F0
(1790978615.768501) can0 017FFF02#7FFF7FFF00000000
(1790978615.768687) can0 02800263#7FFE7F947FFC00F0
(1790978615.768818) can0 017FFF03#7FFF7FFF00000000
(1790978615.769049) can0 02800365#8000807A802600E6
(1790978615.769181) can0 017FFF04#7FFF7FFF00000000
(1790978615.769418) can0 02800467#7FFF7FBB7FD800F0
(1790978615.769544) can0 017FFF05#7FEF7FFF0F5C3333
(1790978615.769725) can0 02800569#7FE48027809700F0
(1790978615.773190) can0 017FFF01#7FFF7FFF00000000
(1790978615.773368) can0 02800161#7FFF7FA6800600F0
(1790978615.773498) can0 017FFF02#7FFF7FFF00000000
(1790978615.773685) can0 02800263#7FFF806F7FFD00F0
(1790978615.773816) can0 017FFF03#7FFF7FFF00000000
(1790978615.774050) can0 02800365#7FFF80177FF500E6
(1790978615.774182) can0 017FFF04#7FFF7FFF00000000
(1790978615.774422) can0 02800467#7FFF7FFC7FE000F0
(1790978615.774548) can0 017FFF05#7FEF7FFF0F5C3333
(1790978615.774729) can0 02800569#7FE48031809400F0
(1790978615.778192) can0 017FFF01#7FFF7FFF00000000
(1790978615.778370) can0 02800161#7FFF80AD7FFA00F0
(1790978615.778500) can0 017FFF02#7FFF7FFF00000000
(1790978615.778686) can0 02800263#7FFF80D1801A00F0
(1790978615.778817) can0 017FFF03#7FFF7FFF00000000
(1790978615.779049) can0 02800365#7FFF7FB7800000E6
(1790978615.779181) can0 017FFF04#7FFF7FFF00000000
(1790978615.779419) can0 02800467#7FFF80377FF000F0
(1790978615.779544) can0 017FFF05#7FF07FFF0F5C3333
(1790978615.779728) can0 02800569#7FE5800C807200F0
(1790978615.783191) can0 017FFF01#7FFF7FFF00000000
(1790978615.783362) can0 02800161#7FFF80257FF500F0
(1790978615.783503) can0 017FFF02#7FFF7FFF00000000
(1790978615.783686) can0 02800263#7FFE806A7FFB00F0
(1790978615.783817) can0 017FFF03#7FFF7FFF00000000
(1790978615.784048) can0 02800365#7FFF802D7FE700E6
(1790978615.784181) can0 017FFF04#7FFF7FFF00000000
(1790978615.784420) can0 02800467#7FFF7FDE803400F0
(1790978615.784546) can0 017FFF05#7FF17FFF0F5C3333
(1790978615.784768) can0 02800569#7FE6807C807600F0
(1790978615.788189) can0 017FFF01#7FFF7FFF00000000
(1790978615.788370) can0 02800161#7FFF7F877FEC00F0
(1790978615.788502) can0 017FFF02#7FFF7FFF00000000
(1790978615.788685) can0 02800263#7FFE7F5F7FDE00F0
(1790978615.788816) can0 017FFF03#7FFF7FFF00000000
(1790978615.789051) can0 02800365#80007FE9800500E6
(1790978615.789183) can0 017FFF04#7FFF7FFF00000000
(1790978615.789420) can0 02800467#7FFF7FCE7FFD00F0
(1790978615.789545) can0 017FFF05#7FF17FFF0F5C3333
(1790978615.789727) can0 02800569#7FE68014807D00F0
(1790978615.793190) can0 017FFF01#7FFF7FFF00000000
(1790978615.793369) can0 02800161#7FFF804F7FFB00F0
(1790978615.793499) can0 017FFF02#7FFF7FFF00000000
(1790978615.793685) can0 02800263#7FFE7F297FF200F0
(1790978615.793816) can0 017FFF03#7FFF7FFF00000000
(1790978615.794051) can0 02800365#80007FEC800A00E6
(1790978615.794183) can0 017FFF04#7FFF7FFF00000000
(1790978615.794424) can0 02800467#7FFF801C7FF400F0
(1790978615.794551) can0 017FFF05#7FF27FFF0F5C3333
(1790978615.794766) can0 02800569#7FE78066805200F0
(1790978615.798186) can0 017FFF01#7FFF7FFF00000000
(1790978615.798370) can0 02800161#7FFF8012800100F0
(1790978615.798501) can0 017FFF02#7FFF7FFF00000000
(1790978615.798685) can0 02800263#7FFE7F98801000F0
(1790978615.798816) can0 017FFF03#7FFF7FFF00000000
(1790978615.799050) can0 02800365#7FFF7F807FED00E6
(1790978615.799182) can0 017FFF04#7FFF7FFF00000000
(1790978615.799418) can0 02800467#7FFF7F9E7FCB00F0
(1790978615.799544) can0 017FFF05#7FF37FFF0F5C3333
(1790978615.799727) can0 02800569#7FE8805C804100F0
(1790978615.803188) can0 017FFF01#7FFF7FFF00000000
(1790978615.803369) can0 02800161#7FFF7FAE7FFF00F0
(1790978615.803500) can0 017FFF02#7FFF7FFF00000000
(1790978615.803685) can0 02800263#7FFE7FB0803000F0
(1790978615.803816) can0 017FFF03#7FFF7FFF00000000
(1790978615.804051) can0 02800365#7FFF7FFB7FDF00E6
(1790978615.804183) can0 017FFF04#7FFF7FFF00000000
(1790978615.804417) can0 02800467#7FFF7FB47FD100F0
(1790978615.804545) can0 017FFF05#7FF37FFF0F5C3333
(1790978615.804727) can0 02800569#7FE98072805B00F0
(1790978615.808189) can0 017FFF01#7FFF7FFF00000000
(1790978615.808370) can0 02800161#7FFF7F82800000F0
(1790978615.808505) can0 017FFF02#7FFF7FFF00000000
(1790978615.808685) can0 02800263#7FFE7F7C801A00F0
(1790978615.808816) can0 017FFF03#7FFF7FFF00000000
(1790978615.809048) can0 02800365#7FFF7FBC7FF200E6
(1790978615.809180) can0 017FFF04#7FFF7FFF00000000
(1790978615.809420) can0 02800467#7FFF801B802D00F0
(1790978615.809546) can0 017FFF05#7FF47FFF0F5C3333
(1790978615.809727) can0 02800569#7FEA8065802900F0
(1790978615.813189) can0 017FFF01#7FFF7FFF00000000
(1790978615.813368) can0 02800161#7FFF7EC27FFB00F0
(1790978615.813499) can0 017FFF02#7FFF7FFF00000000
(1790978615.813689) can0 02800263#7FFF801D7FF400F0
(1790978615.813820) can0 017FFF03#7FFF7FFF00000000
(1790978615.814048) can0 02800365#80008027800600E6
(1790978615.814180) can0 017FFF04#7FFF7FFF00000000
(1790978615.814419) can0 02800467#7FFE7FE2801600F0
(1790978615.814546) can0 017FFF05#7FF57FFF0F5C3333
(1790978615.814766) can0 02800569#7FEB8041801900F0
(1790978615.818189) can0 017FFF01#7FFF7FFF00000000
(1790978615.818368) can0 02800161#7FFF8056800200F0
(1790978615.818498) can0 017FFF02#7FFF7FFF00000000
(1790978615.818686) can0 02800263#7FFE803B7FE800F0
(1790978615.818817) can0 017FFF03#7FFF7FFF00000000
(1790978615.819053) can0 02800365#800080407FFC00E6
(1790978615.819185) can0 017FFF04#7FFF7FFF00000000
(1790978615.819418) can0 02800467#7FFF7FCF801D00F0
(1790978615.819545) can0 017FFF05#7FF57FFF0F5C3333
(1790978615.819767) can0 02800569#7FEC803E7FFA00F0
(1790978615.823188) can0 017FFF01#7FFF7FFF00000000
(1790978615.823368) can0 02800161#7FFF7EDE800D00F0
(1790978615.823499) can0 017FFF02#7FFF7FFF00000000
(1790978615.823685) can0 02800263#7FFF80D17FEB00F0
(1790978615.823816) can0 017FFF03#7FFF7FFF00000000
(1790978615.824052) can0 02800365#7FFF7FE07FFF00E6
(1790978615.824184) can0 017FFF04#7FFF7FFF00000000
(1790978615.824419) can0 02800467#7FFF803C7FDC00F0
(1790978615.824545) can0 017FFF05#7FF67FFF0F5C3333
(1790978615.824768) can0 02800569#7FED80717FE300F0
(1790978615.828189) can0 017FFF01#7FFF7FFF00000000
(1790978615.828371) can0 02800161#7FFF7F63801400F0
(1790978615.828505) can0 017FFF02#7FFF7FFF00000000
(1790978615.828687) can0 02800263#7FFE7F927FEC00F0
(1790978615.828818) can0 017FFF03#7FFF7FFF00000000
(1790978615.829049) can0 02800365#7FFF8023800100E6
(1790978615.829181) can0 017FFF04#7FFF7FFF00000000
(1790978615.829419) can0 02800467#7FFF800D801600F0
(1790978615.829546) can0 017FFF05#7FF77FFF0F5C3333
(1790978615.829767) can0 02800569#7FEE80227FE800F0
(1790978615.833189) can0 017FFF01#7FFF7FFF00000000
(1790978615.833368) can0 02800161#7FFF7FCB7FFB00F0
(1790978615.833498) can0 017FFF02#7FFF7FFF00000000
(1790978615.833686) can0 02800263#7FFE7EFA7FDF00F0
(1790978615.833817) can0 017FFF03#7FFF7FFF00000000
(1790978615.834049) can0 02800365#7FFF7FAC800200E6
(1790978615.834181) can0 017FFF04#7FFF7FFF00000000
(1790978615.834418) can0 02800467#7FFF7FDB802900F0
(1790978615.834545) can0 017FFF05#7FF77FFF0F5C3333
(1790978615.834768) can0 02800569#7FEF80507F8F00F0
(1790978615.838191) can0 017FFF01#7FFF7FFF00000000
(1790978615.838362) can0 02800161#7FFF7FB0800200F0
(1790978615.838504) can0 017FFF02#7FFF7FFF00000000
(1790978615.838686) can0 02800263#7FFE7FB47FF500F0
(1790978615.838817) can0 017FFF03#7FFF7FFF00000000
(1790978615.839051) can0 02800365#7FFF7FE7800E00E6
(1790978615.839183) can0 017FFF04#7FFF7FFF00000000
(1790978615.839420) can0 02800467#7FFF804B800000F0
(1790978615.839546) can0 017FFF05#7FF87FFF0F5C3333
(1790978615.839766) can0 02800569#7FF180967F6F00F0
(1790978615.843191) can0 017FFF01#7FFF7FFF00000000
(1790978615.843369) can0 02800161#7FFF7FE3800100F0
(1790978615.843499) can0 017FFF02#7FFF7FFF00000000
(1790978615.843687) can0 02800263#7FFE805B7FE100F0
(1790978615.843818) can0 017FFF03#7FFF7FFF00000000
(1790978615.844050) can0 02800365#7FFF7FEB7FF600E6
(1790978615.844182) can0 017FFF04#7FFF7FFF00000000
(1790978615.844418) can0 02800467#7FFF803D800500F0
(1790978615.844544) can0 017FFF05#7FF87FFF0F5C3333
(1790978615.844766) can0 02800569#7FF280BD7F2700F0
(1790978615.848457) can0 1200FD01#0A70000000000000
(1790978615.848613) can0 028001FD#7FFF7F97800500F0
(1790978615.848755) can0 017FFF01#7FFF7FFF00000000
(1790978615.848915) can0 028001FD#7FFF80747FF400F0
(1790978615.849056) can0 0400FD01#0000000000000000
(1790978615.849324) can0 1200FD02#0A70000000000000
(1790978615.849479) can0 028002FD#7FFE7F767FF700F0
(1790978615.849620) can0 017FFF02#7FFF7FFF00000000
(1790978615.849780) can0 028002FD#7FFE7F8D7FFA00F0
(1790978615.849921) can0 0400FD02#0000000000000000
(1790978615.850188) can0 1200FD03#0A70000000000000
(1790978615.850352) can0 028003FD#7FFF7FF97FF100E6
(1790978615.850494) can0 017FFF03#7FFF7FFF00000000
(1790978615.850701) can0 028003FD#800080057FF200E6
(1790978615.850833) can0 0400FD03#0000000000000000
(1790978615.851102) can0 1200FD04#0A70000000000000
(1790978615.851271) can0 028004FD#7FFF80447FEA00F0
(1790978615.851413) can0 017FFF04#7FFF7FFF00000000
(1790978615.851619) can0 028004FD#7FFF7FEF7FF600F0
(1790978615.851760) can0 0400FD04#0000000000000000
(1790978615.852028) can0 1200FD05#0A70000000000000
(1790978615.852226) can0 028005FD#7FF6807B7F3100F0
(1790978615.852358) can0 017FFF05#7FFF7FFF00000000
(1790978615.852569) can0 028005FD#7FF680A67F1800F0
(1790978615.852699) can0 0400FD05#0000000000000000
(1790978615.871172) can0 020002FD#7FFF801E7FFF00F0
(1790978615.871492) can0 020003FD#7FFF7FCA7FFF00E6
(1790978615.871631) can0 020001FD#7FFF802E7FFF00F0
(1790978615.874612) can0 020004FD#7FFF802A7FFF00F0
(1790978615.875568) can0 020005FD#7FF680B17FFF00F0
