(1790974975.198231) can0 1200FD01#0A70000000000000
(1790974975.198401) can0 020001FD#8043800D7FFF00DC
(1790974975.198537) can0 017FFF01#7FFF7FFF00000000
(1790974975.198705) can0 020001FD#804380047FFF00DC
(1790974975.198840) can0 0400FD01#0000000000000000
(1790974975.199008) can0 020001FD#80427FA57FFF00DC
(1790974975.199140) can0 1200FD02#0A70000000000000
(1790974975.199322) can0 020002FD#80287F8E7FFF00E6
(1790974975.199458) can0 017FFF02#7FFF7FFF00000000
(1790974975.199618) can0 020002FD#80287FCB7FFF00E6
(1790974975.199759) can0 0400FD02#0000000000000000
(1790974975.199927) can0 020002FD#802980A57FFF00E6
(1790974975.200059) can0 1200FD03#0A70000000000000
(1790974975.200214) can0 020003FD#7FEE80377FFF00D2
(1790974975.200355) can0 017FFF03#7FFF7FFF00000000
(1790974975.200513) can0 020003FD#7FEE7FF67FFF00D2
(1790974975.200654) can0 0400FD03#0000000000000000
(1790974975.200812) can0 020003FD#7FEE80367FFF00D2
(1790974975.200951) can0 1200FD04#0A70000000000000
(1790974975.201112) can0 020004FD#7FDC802B7FFF00DC
(1790974975.201255) can0 017FFF04#7FFF7FFF00000000
(1790974975.201413) can0 020004FD#7FDC80117FFF00DC
(1790974975.201558) can0 0400FD04#0000000000000000
(1790974975.201711) can0 020004FD#7FDC802F7FFF00DC
(1790974975.201850) can0 1200FD05#0A70000000000000
(1790974975.202031) can0 020005FD#AA827F9C7FFF00DC
(1790974975.202168) can0 017FFF05#7FFF7FFF00000000
(1790974975.202338) can0 020005FD#AA8380267FFF00DC
(1790974975.202474) can0 0400FD05#0000000000000000
(1790974975.202635) can0 020005FD#AA82803B7FFF00DC
(1790974975.202773) can0 1800FD01#0102030405060000
(1790974975.202954) can0 020001FD#8042807A7FFF00DC
(1790974975.203089) can0 1800FD02#0102030405060000
(1790974975.203273) can0 020002FD#802880197FFF00E6
(1790974975.203406) can0 1800FD03#0102030405060000
(1790974975.203562) can0 020003FD#7FEE7FD87FFF00D2
(1790974975.203701) can0 1800FD04#0102030405060000
(1790974975.203869) can0 020004FD#7FDC7FA97FFF00DC
(1790974975.204000) can0 1800FD05#0102030405060000
(1790974975.204182) can0 020005FD#AA8280027FFF00DC
(1790974975.204317) can0 04008001#00C4000000000000
(1790974975.204474) can0 02000180#00C4560003012A07
(1790974975.205719) can0 00008101#0000000000000000
(1790974975.205896) can0 000001FE#457B30020C323817
(1790974975.206775) can0 11008201#0570000000000000
(1790974975.206958) can0 11000182#0570000000000000
(1790974975.207835) can0 11008301#1970000000000000
(1790974975.208004) can0 11000183#1970000007E2D33C
(1790974975.208893) can0 11008401#1B70000000000000
(1790974975.209058) can0 11000184#1B70000000000000
(1790974975.209953) can0 11008501#2870000000000000
(1790974975.210111) can0 11000185#2870000000000000
(1790974975.211010) can0 11008601#2970000000000000
(1790974975.211171) can0 11000186#2970000000000000
(1790974975.212070) can0 11008701#2B70000000000000
(1790974975.212251) can0 11000187#2B70000000000000
(1790974975.213132) can0 04008802#00C4000000000000
(1790974975.213287) can0 02000288#00C4560003012A07
(1790974975.214194) can0 00008902#0000000000000000
(1790974975.214369) can0 000002FE#785630020C343701
(1790974975.215247) can0 11008A02#0570000000000000
(1790974975.215425) can0 1100028A#0570000000000000
(1790974975.216305) can0 11008B02#1970000000000000
(1790974975.216472) can0 1100028B#1970000039DA813C
(1790974975.217365) can0 11008C02#1B70000000000000
(1790974975.217526) can0 1100028C#1B70000000000000
(1790974975.218425) can0 11008D02#2870000000000000
(1790974975.218584) can0 1100028D#2870000000000000
(1790974975.219482) can0 11008E02#2970000000000000
(1790974975.219640) can0 1100028E#2970000000000000
(1790974975.220541) can0 11008F02#2B70000000000000
(1790974975.220724) can0 1100028F#2B70000000000000
(1790974975.221603) can0 04009003#00C4000000000000
(1790974975.221764) can0 02000390#00C4560002032207
(1790974975.222663) can0 00009103#0000000000000000
(1790974975.222815) can0 000003FE#9D6A3B859C023019
(1790974975.223718) can0 11009203#0570000000000000
(1790974975.223877) can0 11000392#0570000000000000
(1790974975.224776) can0 11009303#1970000000000000
(1790974975.224929) can0 11000393#1970000052CAD2BB
(1790974975.225837) can0 11009403#1B70000000000000
(1790974975.226012) can0 11000394#1B70000006E636BD
(1790974975.226894) can0 11009503#2870000000000000
(1790974975.227066) can0 11000395#2870000000000000
(1790974975.227953) can0 11009603#2970000000000000
(1790974975.228115) can0 11000396#2970000000000000
(1790974975.229014) can0 11009703#2B70000000000000
(1790974975.229173) can0 11000397#2B70000000000000
(1790974975.230074) can0 04009804#00C4000000000000
(1790974975.230230) can0 02000498#00C4560002032207
(1790974975.231134) can0 00009904#0000000000000000
(1790974975.231308) can0 000004FE#8A063B8F2450B00D
(1790974975.232189) can0 11009A04#0570000000000000
(1790974975.232368) can0 1100049A#0570000000000000
(1790974975.233250) can0 11009B04#1970000000000000
(1790974975.233413) can0 1100049B#197000006BB55BBC
(1790974975.234307) can0 11009C04#1B70000000000000
(1790974975.234465) can0 1100049C#1B700000D977B03D
(1790974975.235365) can0 11009D04#2870000000000000
(1790974975.235524) can0 1100049D#2870000000000000
(1790974975.236425) can0 11009E04#2970000000000000
(1790974975.236584) can0 1100049E#2970000000000000
(1790974975.237484) can0 11009F04#2B70000000000000
(1790974975.237666) can0 1100049F#2B70000000000000
(1790974975.238544) can0 0400A005#00C4000000000000
(1790974975.238703) can0 020005A0#00C4560000032007
(1790974975.239604) can0 0000A105#0000000000000000
(1790974975.239758) can0 000005FE#622C30020C343701
(1790974975.240659) can0 1100A205#0570000000000000
(1790974975.240839) can0 110005A2#0570000000000000
(1790974975.241719) can0 1100A305#1970000000000000
(1790974975.241885) can0 110005A3#1970000044998540
(1790974975.242777) can0 1100A405#1B70000000000000
(1790974975.242935) can0 110005A4#1B7000002E6B833B
(1790974975.243834) can0 1100A505#2870000000000000
(1790974975.243992) can0 110005A5#2870000000000000
(1790974975.244896) can0 1100A605#2970000000000000
(1790974975.245054) can0 110005A6#2970000000000000
(1790974975.245954) can0 1100A705#2B70000000000000
(1790974975.246113) can0 110005A7#2B70000000000000
(1790974975.247033) can0 1200FD01#0A70000000000000
(1790974975.247204) can0 020001FD#804380717FFF00DC
(1790974975.247340) can0 017FFF01#7FFF7FFF00000000
(1790974975.247499) can0 020001FD#80427FEE7FFF00DC
(1790974975.247640) can0 0400FD01#0000000000000000
(1790974975.247807) can0 020001FD#80437F707FFF00DC
(1790974975.247940) can0 1200FD02#0A70000000000000
(1790974975.248123) can0 020002FD#80287FFB7FFF00E6
(1790974975.248260) can0 017FFF02#7FFF7FFF00000000
(1790974975.248417) can0 020002FD#80287F697FFF00E6
(1790974975.248558) can0 0400FD02#0000000000000000
(1790974975.248719) can0 020002FD#80297FDC7FFF00E6
(1790974975.248857) can0 1200FD03#0A70000000000000
(1790974975.249012) can0 020003FD#7FEE80257FFF00D2
(1790974975.249153) can0 017FFF03#7FFF7FFF00000000
(1790974975.249311) can0 020003FD#7FEE80367FFF00D2
(1790974975.249453) can0 0400FD03#0000000000000000
(1790974975.249611) can0 020003FD#7FEE80127FFF00D2
(1790974975.249751) can0 1200FD04#0A70000000000000
(1790974975.249912) can0 020004FD#7FDC7FBB7FFF00DC
(1790974975.250054) can0 017FFF04#7FFF7FFF00000000
(1790974975.250211) can0 020004FD#7FDC7F8C7FFF00DC
(1790974975.250355) can0 0400FD04#0000000000000000
(1790974975.250513) can0 020004FD#7FDC801A7FFF00DC
(1790974975.250651) can0 1200FD05#0A70000000000000
(1790974975.250834) can0 020005FD#AA82800E7FFF00DC
(1790974975.250972) can0 017FFF05#7FFF7FFF00000000
(1790974975.251132) can0 020005FD#AA8380537FFF00DC
(1790974975.251274) can0 0400FD05#0000000000000000
(1790974975.251441) can0 020005FD#AA8280277FFF00DC
(1790974975.251572) can0 1200FD01#2870000058020000
(1790974975.251754) can0 020001FD#80437FD07FFF00DC
(1790974975.251888) can0 1100B001#2870000000000000
(1790974975.252054) can0 110001B0#2870000058020000
(1790974975.252334) can0 1200FD02#2870000058020000
(1790974975.252516) can0 020002FD#80297FA17FFF00E6
(1790974975.252649) can0 1100B102#2870000000000000
(1790974975.252822) can0 110002B1#2870000058020000
(1790974975.253400) can0 1200FD03#2870000058020000
(1790974975.253568) can0 020003FD#7FEE80217FFF00D2
(1790974975.253700) can0 1100B203#2870000000000000
(1790974975.253865) can0 110003B2#2870000058020000
(1790974975.254464) can0 1200FD04#2870000058020000
(1790974975.254617) can0 020004FD#7FDC7FE57FFF00DC
(1790974975.254755) can0 1100B304#2870000000000000
(1790974975.254916) can0 110004B3#2870000058020000
(1790974975.255526) can0 1200FD05#2870000058020000
(1790974975.255683) can0 020005FD#AA8380527FFF00DC
(1790974975.255820) can0 1100B405#2870000000000000
(1790974975.255988) can0 110005B4#2870000058020000
(1790974975.256589) can0 0600D001#0100000000000000
(1790974975.256753) can0 020001D0#7FFF7FF07FFF00DC
(1790974975.257648) can0 1100E001#1970000000000000
(1790974975.257802) can0 110001E0#19700000E4B83238
(1790974975.258709) can0 0600D102#0100000000000000
(1790974975.258873) can0 020002D1#7FFF7FCD7FFF00E6
(1790974975.259766) can0 1100E102#1970000000000000
(1790974975.259919) can0 110002E1#19700000E4B832B9
(1790974975.260828) can0 0600D203#0100000000000000
(1790974975.261213) can0 020003D2#7FFF80017FFF00D2
(1790974975.261887) can0 1100E203#1970000000000000
(1790974975.262062) can0 110003E2#19700000E79CCF38
(1790974975.262950) can0 0600D304#0100000000000000
(1790974975.263118) can0 020004D3#7FFF80147FFF00DC
(1790974975.264006) can0 1100E304#1970000000000000
(1790974975.264165) can0 110004E3#19700000EFBD4FB8
(1790974975.265068) can0 0600D405#0100000000000000
(1790974975.265241) can0 020005D4#7FFF7FED7FFF00DC
(1790974975.266124) can0 1100E405#1970000000000000
(1790974975.266290) can0 110005E4#1970000000000000
(1790974975.267184) can0 1100C001#2870000000000000
(1790974975.267355) can0 110001C0#2870000058020000
(1790974975.268243) can0 1100C102#2870000000000000
(1790974975.268423) can0 110002C1#2870000058020000
(1790974975.269302) can0 1100C203#2870000000000000
(1790974975.269465) can0 110003C2#2870000058020000
(1790974975.270361) can0 1100C304#2870000000000000
(1790974975.270517) can0 110004C3#2870000058020000
(1790974975.271418) can0 1100C405#2870000000000000
(1790974975.271588) can0 110005C4#2870000058020000
(1790974975.272764) can0 1200FD01#0A70000000000000
(1790974975.272919) can0 020001FD#7FFF808D7FFF00DC
(1790974975.273060) can0 017FFF01#7FFF7FFF00000000
(1790974975.273215) can0 020001FD#7FFF80EE7FFF00DC
(1790974975.273356) can0 0400FD01#0000000000000000
(1790974975.273511) can0 020001FD#7FFF808E7FFF00DC
(1790974975.273650) can0 1200FD02#0A70000000000000
(1790974975.273828) can0 020002FD#7FFF7FFF7FFF00E6
(1790974975.273964) can0 017FFF02#7FFF7FFF00000000
(1790974975.274119) can0 020002FD#7FFF80A67FFF00E6
(1790974975.274259) can0 0400FD02#0000000000000000
(1790974975.274427) can0 020002FD#7FFF7FC07FFF00E6
(1790974975.274558) can0 1200FD03#0A70000000000000
(1790974975.274715) can0 020003FD#800080837FFF00D2
(1790974975.274857) can0 017FFF03#7FFF7FFF00000000
(1790974975.275011) can0 020003FD#7FFF80687FFF00D2
(1790974975.275153) can0 0400FD03#0000000000000000
(1790974975.275313) can0 020003FD#7FFF803C7FFF00D2
(1790974975.275452) can0 1200FD04#0A70000000000000
(1790974975.275620) can0 020004FD#7FFF7FD77FFF00DC
(1790974975.275755) can0 017FFF04#7FFF7FFF00000000
(1790974975.275915) can0 020004FD#7FFF7FB07FFF00DC
(1790974975.276060) can0 0400FD04#0000000000000000
(1790974975.276216) can0 020004FD#7FFF7FF97FFF00DC
(1790974975.276355) can0 1200FD05#0A70000000000000
(1790974975.276539) can0 020005FD#7FFF7FFE7FFF00DC
(1790974975.276676) can0 017FFF05#7FFF7FFF00000000
(1790974975.276835) can0 020005FD#7FFF7FA57FFF00DC
(1790974975.276976) can0 0400FD05#0000000000000000
(1790974975.277140) can0 020005FD#7FFF7FD87FFF00DC
