(1790976939.640002) can0 1200FD01#0A70000000000000
(1790976939.640163) can0 020001FD#7FFF7FC17FFF00E6
(1790976939.640304) can0 017FFF01#7FFF7FFF00000000
(1790976939.640459) can0 020001FD#7FFF7FCE7FFF00E6
(1790976939.640594) can0 0400FD01#0000000000000000
(1790976939.640761) can0 020001FD#7FFF7FF07FFF00E6
(1790976939.640894) can0 1200FD02#0A70000000000000
(1790976939.641056) can0 020002FD#7FFE7EFD7FFF00E6
(1790976939.641197) can0 017FFF02#7FFF7FFF00000000
(1790976939.641352) can0 020002FD#7FFF7F757FFF00E6
(1790976939.641494) can0 0400FD02#0000000000000000
(1790976939.641648) can0 020002FD#7FFF810D7FFF00E6
(1790976939.641781) can0 1200FD03#0A70000000000000
(1790976939.641942) can0 020003FD#7FFF7FAB7FFF00DC
(1790976939.642084) can0 017FFF03#7FFF7FFF00000000
(1790976939.642239) can0 020003FD#7FFF80247FFF00DC
(1790976939.642381) can0 0400FD03#0000000000000000
(1790976939.642537) can0 020003FD#7FFF802D7FFF00DC
(1790976939.642679) can0 1200FD04#0A70000000000000
(1790976939.642861) can0 020004FD#7FFF7FD27FFF00E6
(1790976939.642993) can0 017FFF04#7FFF7FFF00000000
(1790976939.643156) can0 020004FD#7FFF7FC57FFF00E6
(1790976939.643301) can0 0400FD04#0000000000000000
(1790976939.643458) can0 020004FD#7FFF7FAE7FFF00E6
(1790976939.643591) can0 1200FD05#0A70000000000000
(1790976939.643778) can0 020005FD#7FFF80147FFF00E6
(1790976939.643910) can0 017FFF05#7FFF7FFF00000000
(1790976939.644072) can0 020005FD#800080347FFF00E6
(1790976939.644213) can0 0400FD05#0000000000000000
(1790976939.644373) can0 020005FD#7FFF80417FFF00E6
(1790976939.644506) can0 1800FD01#0102030405060000
(1790976939.644665) can0 020001FD#7FFF802D7FFF00E6
(1790976939.644806) can0 1800FD02#0102030405060000
(1790976939.644991) can0 020002FD#7FFF7FFE7FFF00E6
(1790976939.645119) can0 1800FD03#0102030405060000
(1790976939.645281) can0 020003FD#7FFF80257FFF00DC
(1790976939.645415) can0 1800FD04#0102030405060000
(1790976939.645576) can0 020004FD#7FFF801D7FFF00E6
(1790976939.645708) can0 1800FD05#0102030405060000
(1790976939.645873) can0 020005FD#7FFF80097FFF00E6
(1790976939.646007) can0 04008001#00C4000000000000
(1790976939.646170) can0 02000180#00C4560003012A07
(1790976939.646548) can0 00008101#0000000000000000
(1790976939.646707) can0 000001FE#457B30020C323817
(1790976939.647609) can0 11008201#0570000000000000
(1790976939.647768) can0 11000182#0570000000000000
(1790976939.648673) can0 11008301#1970000000000000
(1790976939.648826) can0 11000183#19700000AB0A0639
(1790976939.649734) can0 11008401#1B70000000000000
(1790976939.649916) can0 11000184#1B70000000000000
(1790976939.650821) can0 11008501#2870000000000000
(1790976939.650977) can0 11000185#2870000058020000
(1790976939.651881) can0 11008601#2970000000000000
(1790976939.652064) can0 11000186#2970000000000000
(1790976939.652948) can0 11008701#2B70000000000000
(1790976939.653113) can0 11000187#2B70000000000000
(1790976939.654010) can0 04008802#00C4000000000000
(1790976939.654188) can0 02000288#00C4560003012A07
(1790976939.655078) can0 00008902#0000000000000000
(1790976939.655237) can0 000002FE#785630020C343701
(1790976939.656135) can0 11008A02#0570000000000000
(1790976939.656294) can0 1100028A#0570000000000000
(1790976939.657201) can0 11008B02#1970000000000000
(1790976939.657359) can0 1100028B#1970000000000000
(1790976939.658263) can0 11008C02#1B70000000000000
(1790976939.658444) can0 1100028C#1B70000000000000
(1790976939.659327) can0 11008D02#2870000000000000
(1790976939.659490) can0 1100028D#2870000058020000
(1790976939.660389) can0 11008E02#2970000000000000
(1790976939.660547) can0 1100028E#2970000000000000
(1790976939.661454) can0 11008F02#2B70000000000000
(1790976939.661614) can0 1100028F#2B70000000000000
(1790976939.662518) can0 04009003#00C4000000000000
(1790976939.662677) can0 02000390#00C4560002032207
(1790976939.663584) can0 00009103#0000000000000000
(1790976939.663735) can0 000003FE#9D6A3B859C023019
(1790976939.664645) can0 11009203#0570000000000000
(1790976939.664824) can0 11000392#0570000000000000
(1790976939.665708) can0 11009303#1970000000000000
(1790976939.665876) can0 11000393#19700000E79CCF38
(1790976939.666772) can0 11009403#1B70000000000000
(1790976939.666925) can0 11000394#1B700000E135713D
(1790976939.667833) can0 11009503#2870000000000000
(1790976939.667989) can0 11000395#2870000058020000
(1790976939.668900) can0 11009603#2970000000000000
(1790976939.669078) can0 11000396#2970000000000000
(1790976939.669962) can0 11009703#2B70000000000000
(1790976939.670129) can0 11000397#2B70000000000000
(1790976939.671039) can0 04009804#00C4000000000000
(1790976939.671209) can0 02000498#00C4560002032207
(1790976939.672103) can0 00009904#0000000000000000
(1790976939.672254) can0 000004FE#8A063B8F2450B00D
(1790976939.673165) can0 11009A04#0570000000000000
(1790976939.673324) can0 1100049A#0570000000000000
(1790976939.674229) can0 11009B04#1970000000000000
(1790976939.674406) can0 1100049B#19700000DF7B4F38
(1790976939.675291) can0 11009C04#1B70000000000000
(1790976939.675455) can0 1100049C#1B700000ED85A3BC
(1790976939.676354) can0 11009D04#2870000000000000
(1790976939.676511) can0 1100049D#2870000058020000
(1790976939.677420) can0 11009E04#2970000000000000
(1790976939.677577) can0 1100049E#2970000000000000
(1790976939.678484) can0 11009F04#2B70000000000000
(1790976939.678662) can0 1100049F#2B70000000000000
(1790976939.679548) can0 0400A005#00C4000000000000
(1790976939.679726) can0 020005A0#00C4560000032007
(1790976939.680614) can0 0000A105#0000000000000000
(1790976939.680771) can0 000005FE#622C30020C343701
(1790976939.681675) can0 1100A205#0570000000000000
(1790976939.681833) can0 110005A2#0570000000000000
(1790976939.682738) can0 1100A305#1970000000000000
(1790976939.682891) can0 110005A3#19700000CDCC2038
(1790976939.683802) can0 1100A405#1B70000000000000
(1790976939.683973) can0 110005A4#1B7000004D0584BD
(1790976939.684865) can0 1100A505#2870000000000000
(1790976939.685024) can0 110005A5#2870000058020000
(1790976939.685929) can0 1100A605#2970000000000000
(1790976939.686087) can0 110005A6#2970000000000000
(1790976939.686992) can0 1100A705#2B70000000000000
(1790976939.687172) can0 110005A7#2B70000000000000
(1790976939.688085) can0 1200FD01#0A70000000000000
(1790976939.688266) can0 020001FD#7FFF7F4C7FFF00E6
(1790976939.688396) can0 017FFF01#7FFF7FFF00000000
(1790976939.688558) can0 020001FD#7FFF7FA17FFF00E6
(1790976939.688700) can0 0400FD01#0000000000000000
(1790976939.688858) can0 020001FD#7FFF809A7FFF00E6
(1790976939.688991) can0 1200FD02#0A70000000000000
(1790976939.689153) can0 020002FD#7FFF802E7FFF00E6
(1790976939.689294) can0 017FFF02#7FFF7FFF00000000
(1790976939.689451) can0 020002FD#7FFF80087FFF00E6
(1790976939.689592) can0 0400FD02#0000000000000000
(1790976939.689747) can0 020002FD#7FFF7FDE7FFF00E6
(1790976939.689881) can0 1200FD03#0A70000000000000
(1790976939.690044) can0 020003FD#7FFF801E7FFF00DC
(1790976939.690185) can0 017FFF03#7FFF7FFF00000000
(1790976939.690341) can0 020003FD#7FFF7FBD7FFF00DC
(1790976939.690483) can0 0400FD03#0000000000000000
(1790976939.690639) can0 020003FD#7FFF800A7FFF00DC
(1790976939.690773) can0 1200FD04#0A70000000000000
(1790976939.690963) can0 020004FD#7FFF7F987FFF00E6
(1790976939.691095) can0 017FFF04#7FFF7FFF00000000
(1790976939.691257) can0 020004FD#7FFF7FAB7FFF00E6
(1790976939.691402) can0 0400FD04#0000000000000000
(1790976939.691557) can0 020004FD#7FFF80287FFF00E6
(1790976939.691690) can0 1200FD05#0A70000000000000
(1790976939.691878) can0 020005FD#7FFF80017FFF00E6
(1790976939.692010) can0 017FFF05#7FFF7FFF00000000
(1790976939.692172) can0 020005FD#7FFF7FA77FFF00E6
(1790976939.692313) can0 0400FD05#0000000000000000
(1790976939.692472) can0 020005FD#7FFF7FD97FFF00E6
(1790976939.692603) can0 1200FD01#2870000058020000
(1790976939.692764) can0 020001FD#7FFF80077FFF00E6
(1790976939.692899) can0 1100B001#2870000000000000
(1790976939.693062) can0 110001B0#2870000058020000
(1790976939.693478) can0 1200FD02#2870000058020000
(1790976939.693638) can0 020002FD#7FFF7F177FFF00E6
(1790976939.693771) can0 1100B102#2870000000000000
(1790976939.693941) can0 110002B1#2870000058020000
(1790976939.694544) can0 1200FD03#2870000058020000
(1790976939.694727) can0 020003FD#7FFF80A97FFF00DC
(1790976939.694854) can0 1100B203#2870000000000000
(1790976939.695027) can0 110003B2#2870000058020000
(1790976939.695613) can0 1200FD04#2870000058020000
(1790976939.695767) can0 020004FD#7FFF7FBB7FFF00E6
(1790976939.695900) can0 1100B304#2870000000000000
(1790976939.696063) can0 110004B3#2870000058020000
(1790976939.696684) can0 1200FD05#2870000058020000
(1790976939.696839) can0 020005FD#7FFF80057FFF00E6
(1790976939.696971) can0 1100B405#2870000000000000
(1790976939.697134) can0 110005B4#2870000058020000
(1790976939.697750) can0 0600D001#0100000000000000
(1790976939.697914) can0 020001D0#7FFF80817FFF00E6
(1790976939.698812) can0 1100E001#1970000000000000
(1790976939.698965) can0 110001E0#19700000E4B8B238
(1790976939.699877) can0 0600D102#0100000000000000
(1790976939.700042) can0 020002D1#7FFF7F787FFF00E6
(1790976939.700943) can0 1100E102#1970000000000000
(1790976939.701093) can0 110002E1#19700000ABAA3238
(1790976939.702008) can0 0600D203#0100000000000000
(1790976939.702178) can0 020003D2#7FFF80447FFF00DC
(1790976939.703072) can0 1100E203#1970000000000000
(1790976939.703225) can0 110003E2#19700000638C4F39
(1790976939.704138) can0 0600D304#0100000000000000
(1790976939.704311) can0 020004D3#7FFF80327FFF00E6
(1790976939.705203) can0 1100E304#1970000000000000
(1790976939.705356) can0 110004E3#19700000DF7B4FB8
(1790976939.706265) can0 0600D405#0100000000000000
(1790976939.706430) can0 020005D4#7FFF801F7FFF00E6
(1790976939.707329) can0 1100E405#1970000000000000
(1790976939.707483) can0 110005E4#1970000067E620B8
(1790976939.708394) can0 1100C001#2870000000000000
(1790976939.708564) can0 110001C0#2870000058020000
(1790976939.709458) can0 1100C102#2870000000000000
(1790976939.709638) can0 110002C1#2870000058020000
(1790976939.710521) can0 1100C203#2870000000000000
(1790976939.710678) can0 110003C2#2870000058020000
(1790976939.711583) can0 1100C304#2870000000000000
(1790976939.711758) can0 110004C3#2870000058020000
(1790976939.712646) can0 1100C405#2870000000000000
(1790976939.712824) can0 110005C4#2870000058020000
(1790976939.714673) can0 1200FD01#0A70000000000000
(1790976939.714825) can0 020001FD#7FFF7FDD7FFF00E6
(1790976939.714966) can0 017FFF01#7FFF7FFF00000000
(1790976939.715121) can0 020001FD#7FFF80347FFF00E6
(1790976939.715262) can0 0400FD01#0000000000000000
(1790976939.715417) can0 020001FD#7FFF805A7FFF00E6
(1790976939.715550) can0 1200FD02#0A70000000000000
(1790976939.715739) can0 020002FD#7FFF7F867FFF00E6
(1790976939.715870) can0 017FFF02#7FFF7FFF00000000
(1790976939.716038) can0 020002FD#7FFF7FE97FFF00E6
(1790976939.716179) can0 0400FD02#0000000000000000
(1790976939.716338) can0 020002FD#7FFF802D7FFF00E6
(1790976939.716473) can0 1200FD03#0A70000000000000
(1790976939.716634) can0 020003FD#7FFF80137FFF00DC
(1790976939.716776) can0 017FFF03#7FFF7FFF00000000
(1790976939.716932) can0 020003FD#7FFF7FB57FFF00DC
(1790976939.717074) can0 0400FD03#0000000000000000
(1790976939.717230) can0 020003FD#7FFF7FBD7FFF00DC
(1790976939.717364) can0 1200FD04#0A70000000000000
(1790976939.717554) can0 020004FD#7FFF7FF97FFF00E6
(1790976939.717686) can0 017FFF04#7FFF7FFF00000000
(1790976939.717856) can0 020004FD#7FFF7FE77FFF00E6
(1790976939.718001) can0 0400FD04#0000000000000000
(1790976939.718158) can0 020004FD#7FFF801E7FFF00E6
(1790976939.718292) can0 1200FD05#0A70000000000000
(1790976939.718479) can0 020005FD#7FFF80287FFF00E6
(1790976939.718611) can0 017FFF05#7FFF7FFF00000000
(1790976939.718773) can0 020005FD#7FFF7FE57FFF00E6
(1790976939.718914) can0 0400FD05#0000000000000000
(1790976939.719077) can0 020005FD#7FFF7FC77FFF00E6
(1790976939.743340) can0 11004001#1970000000000000
(1790976939.743506) can0 11000140#19700000E4B83238
(1790976939.744424) can0 11004101#2870000000000000
(1790976939.744582) can0 11000141#2870000058020000
(1790976939.745487) can0 11004202#1970000000000000
(1790976939.745638) can0 11000242#19700000ABAA3238
(1790976939.746549) can0 11004302#2870000000000000
(1790976939.746706) can0 11000243#2870000058020000
(1790976939.747612) can0 11004403#1970000000000000
(1790976939.747773) can0 11000344#19700000E79CCF38
(1790976939.748676) can0 11004503#2870000000000000
(1790976939.748831) can0 11000345#2870000058020000
(1790976939.749738) can0 11004604#1970000000000000
(1790976939.749903) can0 11000446#197000006BAD1B39
(1790976939.750799) can0 11004704#2870000000000000
(1790976939.750957) can0 11000447#2870000058020000
(1790976939.751861) can0 11004805#1970000000000000
(1790976939.752021) can0 11000548#197000000040F138
(1790976939.752926) can0 11004905#2870000000000000
(1790976939.753082) can0 11000549#2870000058020000
(1790976939.754376) can0 0300FD01#0000000000000000
(1790976939.754646) can0 1200FD01#0570000000000000
(1790976939.754914) can0 0300FD02#0000000000000000
(1790976939.755180) can0 1200FD02#0570000000000000
(1790976939.755450) can0 0300FD03#0000000000000000
(1790976939.755717) can0 1200FD03#0570000000000000
(1790976939.755866) can0 028001FD#7FFF7F767FE300E6
(1790976939.756007) can0 0300FD04#0000000000000000
(1790976939.756154) can0 028001FD#7FFE7F597FDC00E6
(1790976939.756294) can0 1200FD04#0570000000000000
(1790976939.756443) can0 028002FD#7FFF7FBF7FE900E6
(1790976939.756578) can0 0300FD05#0000000000000000
(1790976939.756806) can0 028002FD#7FFF80647FF800E6
(1790976939.756944) can0 028003FD#7FFF80287FD000DC
(1790976939.757083) can0 1200FD05#0570000000000000
(1790976939.757230) can0 028003FD#7FFF80387FC900DC
(1790976939.757371) can0 017FFF01#7FFF7FFF00000000
(1790976939.757519) can0 028004FD#7FFF805D805A00E6
(1790976939.757660) can0 017FFF02#7FFF7FFF00000000
(1790976939.757811) can0 028001FD#7FFF801E7FC100E6
(1790976939.757952) can0 017FFF03#7FFF7FFF00000000
(1790976939.758101) can0 028002FD#7FFF800D800900E6
(1790976939.758243) can0 017FFF04#7FFF7FFF00000000
(1790976939.758390) can0 028003FD#800080437FC900DC
(1790976939.758533) can0 017FFF05#7FFF7FFF00000000
(1790976939.758680) can0 028004FD#7FFF8015805100E6
(1790976939.758823) can0 028005FD#7FFF7FB67FA800E6
(1790976939.758963) can0 11006001#1970000000000000
(1790976939.759111) can0 028005FD#7FFF7FE47F9A00E6
(1790976939.759252) can0 017FFF01#7FFF7FFF00000000
(1790976939.759399) can0 028005FD#7FFF7FDC7F3500E6
(1790976939.759540) can0 017FFF02#7FFF7FFF00000000
(1790976939.759687) can0 02800160#7FFF7FDD7FD500E6
(1790976939.759828) can0 017FFF03#7FFF7FFF00000000
(1790976939.759978) can0 028002FD#7FFF7F6E800C00E6
(1790976939.760120) can0 017FFF04#7FFF7FFF00000000
(1790976939.760269) can0 028003FD#800080267FC700DC
(1790976939.760412) can0 017FFF05#7FFF7FFF00000000
(1790976939.760559) can0 028004FD#7FFF802D804600E6
(1790976939.760701) can0 017FFF01#7FFF7FFF00000000
(1790976939.760849) can0 028005FD#7FFF7FEA7F3300E6
(1790976939.760991) can0 017FFF02#7FFF7FFF00000000
(1790976939.761138) can0 02800160#7FFF805E7FD900E6
(1790976939.761279) can0 017FFF03#7FFF7FFF00000000
(1790976939.761427) can0 028002FD#7FFF7F63801900E6
(1790976939.761569) can0 017FFF04#7FFF7FFF00000000
(1790976939.761718) can0 028003FD#7FFF801D7FB000DC
(1790976939.761861) can0 017FFF05#7FFF7FFF00000000
(1790976939.762015) can0 028004FD#7FFF7FF3804000E6
(1790976939.762153) can0 028004FD#7FFF7FE7800E00E6
(1790976939.762295) can0 028005FD#7FFF80137F5E00E6
(1790976939.762437) can0 11000160#19700000AB0A06B9
(1790976939.763183) can0 11006101#2870000000000000
(1790976939.763373) can0 11000161#2870000058020000
(1790976939.763504) can0 017FFF01#7FFF7FFF00000000
(1790976939.763670) can0 02800161#7FFF80EA7FE300E6
(1790976939.763811) can0 017FFF02#7FFF7FFF00000000
(1790976939.764004) can0 028002FD#7FFF7EE3802300E6
(1790976939.764135) can0 017FFF03#7FFF7FFF00000000
(1790976939.764344) can0 028003FD#7FFF7FBF7FE400DC
(1790976939.764479) can0 017FFF04#7FFF7FFF00000000
(1790976939.764720) can0 028004FD#7FFF7FD2803300E6
(1790976939.764852) can0 017FFF05#7FFF7FFF00000000
(1790976939.765083) can0 028005FD#8000804C7F6B00E6
(1790976939.765210) can0 11006202#1970000000000000
(1790976939.765398) can0 11000262#19700000E4B832B9
(1790976939.765529) can0 017FFF01#7FFF7FFF00000000
(1790976939.765724) can0 02800161#7FFF7FF97FBD00E6
(1790976939.765855) can0 017FFF02#7FFF7FFF00000000
(1790976939.766054) can0 02800262#7FFF8062800D00E6
(1790976939.766185) can0 017FFF03#7FFF7FFF00000000
(1790976939.766395) can0 028003FD#800080687FE400DC
(1790976939.766527) can0 017FFF04#7FFF7FFF00000000
(1790976939.766769) can0 028004FD#7FFE7FC2803300E6
(1790976939.766901) can0 017FFF05#7FFF7FFF00000000
(1790976939.767134) can0 028005FD#800080147F2C00E6
(1790976939.767263) can0 11006302#2870000000000000
(1790976939.767451) can0 11000263#2870000058020000
(1790976939.767582) can0 017FFF01#7FFF7FFF00000000
(1790976939.767777) can0 02800161#7FFF7FF07FD300E6
(1790976939.767908) can0 017FFF02#7FFF7FFF00000000
(1790976939.768107) can0 02800263#7FFF800F800C00E6
(1790976939.768237) can0 017FFF03#7FFF7FFF00000000
(1790976939.768491) can0 028003FD#8000801B7FE100DC
(1790976939.768623) can0 017FFF04#7FFF7FFF00000000
(1790976939.768872) can0 028004FD#7FFF8009800900E6
(1790976939.769004) can0 017FFF05#7FFF7FFF00000000
(1790976939.769234) can0 028005FD#8000807F7F5900E6
(1790976939.769362) can0 11006403#1970000000000000
(1790976939.769542) can0 11000364#19700000DF7BE939
(1790976939.769673) can0 017FFF01#7FFF7FFF00000000
(1790976939.769878) can0 02800161#7FFF7FF97FD800E6
(1790976939.770010) can0 017FFF02#7FFF7FFF00000000
(1790976939.770204) can0 02800263#7FFF7F5D802000E6
(1790976939.770336) can0 017FFF03#7FFF7FFF00000000
(1790976939.770544) can0 02800364#7FFF7F77800500DC
(1790976939.770676) can0 017FFF04#7FFF7FFF00000000
(1790976939.770919) can0 028004FD#7FFF8052802200E6
(1790976939.771051) can0 017FFF05#7FFF7FFF00000000
(1790976939.771283) can0 028005FD#800080567F6C00E6
(1790976939.771410) can0 11006503#2870000000000000
(1790976939.771592) can0 11000365#2870000058020000
(1790976939.771723) can0 017FFF01#7FFF7FFF00000000
(1790976939.771925) can0 02800161#7FFF7FAA7FEB00E6
(1790976939.772056) can0 017FFF02#7FFF7FFF00000000
(1790976939.772254) can0 02800263#7FFF7F9C7FFA00E6
(1790976939.772385) can0 017FFF03#7FFF7FFF00000000
(1790976939.772592) can0 02800365#800080597FEA00DC
(1790976939.772723) can0 017FFF04#7FFF7FFF00000000
(1790976939.772972) can0 028004FD#7FFF7FE3800300E6
(1790976939.773111) can0 017FFF05#7FFF7FFF00000000
(1790976939.773332) can0 028005FD#8001804C7F8700E6
(1790976939.773461) can0 11006604#1970000000000000
(1790976939.773616) can0 11000466#19700000E79CCFB8
(1790976939.773758) can0 017FFF01#7FFF7FFF00000000
(1790976939.773920) can0 02800161#7FFF7FF27FEF00E6
(1790976939.774062) can0 017FFF02#7FFF7FFF00000000
(1790976939.774254) can0 02800263#7FFF7FAC7FEF00E6
(1790976939.774385) can0 017FFF03#7FFF7FFF00000000
(1790976939.774592) can0 02800365#8000803D7FED00DC
(1790976939.774731) can0 017FFF04#7FFF7FFF00000000
(1790976939.774971) can0 02800466#7FFF7FC1800800E6
(1790976939.775110) can0 017FFF05#7FFF7FFF00000000
(1790976939.775334) can0 028005FD#800180197F6C00E6
(1790976939.775463) can0 11006704#2870000000000000
(1790976939.775621) can0 11000467#2870000058020000
(1790976939.775763) can0 017FFF01#7FFF7FFF00000000
(1790976939.775918) can0 02800161#7FFF80767FD900E6
(1790976939.776060) can0 017FFF02#7FFF7FFF00000000
(1790976939.776252) can0 02800263#7FFE7F677FD300E6
(1790976939.776383) can0 017FFF03#7FFF7FFF00000000
(1790976939.776591) can0 02800365#80008032800D00DC
(1790976939.776721) can0 017FFF04#7FFF7FFF00000000
(1790976939.776972) can0 02800467#7FFF7FE07FEA00E6
(1790976939.777103) can0 017FFF05#7FFF7FFF00000000
(1790976939.777332) can0 028005FD#8002807C7F6D00E6
(1790976939.777459) can0 11006805#1970000000000000
(1790976939.777637) can0 11000568#1970000033537B3A
(1790976939.777768) can0 017FFF01#7FFF7FFF00000000
(1790976939.777971) can0 02800161#7FFF801D7FE500E6
(1790976939.778102) can0 017FFF02#7FFF7FFF00000000
(1790976939.778304) can0 02800263#7FFF7FA77FF300E6
(1790976939.778435) can0 017FFF03#7FFF7FFF00000000
(1790976939.778643) can0 02800365#80007FF2800000DC
(1790976939.778782) can0 017FFF04#7FFF7FFF00000000
(1790976939.779020) can0 02800467#7FFF7FE87FF100E6
(1790976939.779151) can0 017FFF05#7FFF7FFF00000000
(1790976939.779384) can0 02800568#8002807E7F7A00E6
(1790976939.779512) can0 11006905#2870000000000000
(1790976939.779689) can0 11000569#2870000058020000
(1790976939.779820) can0 017FFF01#7FFF7FFF00000000
(1790976939.780023) can0 02800161#7FFF7FD57FCC00E6
(1790976939.780154) can0 017FFF02#7FFF7FFF00000000
(1790976939.780353) can0 02800263#7FFF7F57800F00E6
(1790976939.780487) can0 017FFF03#7FFF7FFF00000000
(1790976939.780692) can0 02800365#80007FF1800300DC
(1790976939.780824) can0 017FFF04#7FFF7FFF00000000
(1790976939.781070) can0 02800467#7FFE7FC8801E00E6
(1790976939.781202) can0 017FFF05#7FFF7FFF00000000
(1790976939.781432) can0 02800569#800280297FC000E6
(1790976939.781563) can0 017FFF01#7FFF7FFF00000000
(1790976939.781764) can0 02800161#7FFF80457FDE00E6
(1790976939.781895) can0 017FFF02#7FFF7FFF00000000
(1790976939.782098) can0 02800263#7FFF80627FFE00E6
(1790976939.782229) can0 017FFF03#7FFF7FFF00000000
(1790976939.782436) can0 02800365#80007FC2801100DC
(1790976939.782568) can0 017FFF04#7FFF7FFF00000000
(1790976939.782774) can0 02800467#7FFF7FDE801200E6
(1790976939.782913) can0 017FFF05#7FFF7FFF00000000
(1790976939.783131) can0 02800569#8003805E7FBF00E6
(1790976939.785490) can0 017FFF01#7FFF7FFF00000000
(1790976939.785675) can0 02800161#7FFF7FB0800500E6
(1790976939.785806) can0 017FFF02#7FFF7FFF00000000
(1790976939.786003) can0 02800263#7FFF80BA7FE900E6
(1790976939.786134) can0 017FFF03#7FFF7FFF00000000
(1790976939.786343) can0 02800365#80007FD47FFA00DC
(1790976939.786475) can0 017FFF04#7FFF7FFF00000000
(1790976939.786721) can0 02800467#7FFF80067FF000E6
(1790976939.786860) can0 017FFF05#7FFF7FFF00000000
(1790976939.787081) can0 02800569#8004805C7F7200E6
(1790976939.790480) can0 017FFF01#7FFF7FFF00000000
(1790976939.790674) can0 02800161#7FFF7FB57FF200E6
(1790976939.790805) can0 017FFF02#7FFF7FFF00000000
(1790976939.791003) can0 02800263#7FFF7F85803100E6
(1790976939.791134) can0 017FFF03#7FFF7FFF00000000
(1790976939.791342) can0 02800365#80007FF37FFC00DC
(1790976939.791481) can0 017FFF04#7FFF7FFF00000000
(1790976939.791720) can0 02800467#7FFF80387FF000E6
(1790976939.791859) can0 017FFF05#7FFF7FFF00000000
(1790976939.792082) can0 02800569#800580377F8000E6
(1790976939.795478) can0 017FFF01#7FFF7FFF00000000
(1790976939.795674) can0 02800161#7FFF803E7FDF00E6
(1790976939.795804) can0 017FFF02#7FFF7FFF00000000
(1790976939.796004) can0 02800263#7FFF7FFB801300E6
(1790976939.796135) can0 017FFF03#7FFF7FFF00000000
(1790976939.796342) can0 02800365#80007FD47FE700DC
(1790976939.796475) can0 017FFF04#7FFF7FFF00000000
(1790976939.796720) can0 02800467#7FFF7FDC7FF000E6
(1790976939.796852) can0 017FFF05#7FFF7FFF00000000
(1790976939.797082) can0 02800569#800780947FD400E6
(1790976939.800479) can0 017FFF01#7FFF7FFF00000000
(1790976939.800672) can0 02800161#7FFF7FB17FF300E6
(1790976939.800803) can0 017FFF02#7FFF7FFF00000000
(1790976939.801003) can0 02800263#7FFF8058801500E6
(1790976939.801134) can0 017FFF03#7FFF7FFF00000000
(1790976939.801343) can0 02800365#8000801E800D00DC
(1790976939.801475) can0 017FFF04#7FFF7FFF00000000
(1790976939.801716) can0 02800467#7FFE803B7FDA00E6
(1790976939.801848) can0 017FFF05#7FFF7FFF00000000
(1790976939.802042) can0 02800569#80088038801700E6
(1790976939.805479) can0 017FFF01#7FFF7FFF00000000
(1790976939.805676) can0 02800161#7FFF7FCF801200E6
(1790976939.805807) can0 017FFF02#7FFF7FFF00000000
(1790976939.806004) can0 02800263#7FFF7FD7800300E6
(1790976939.806135) can0 017FFF03#7FFF7FFF00000000
(1790976939.806344) can0 02800365#800080007FEB00DC
(1790976939.806476) can0 017FFF04#7FFF7FFF00000000
(1790976939.806720) can0 02800467#7FFF80427FFC00E6
(1790976939.806852) can0 017FFF05#7FFF7FFF00000000
(1790976939.807083) can0 02800569#80097FF47FA800E6
(1790976939.810478) can0 017FFF01#7FFF7FFF00000000
(1790976939.810674) can0 02800161#7FFF807E7FFE00E6
(1790976939.810805) can0 017FFF02#7FFF7FFF00000000
(1790976939.811004) can0 02800263#7FFF80637FF400E6
(1790976939.811135) can0 017FFF03#7FFF7FFF00000000
(1790976939.811341) can0 02800365#80007FD87FE500DC
(1790976939.811473) can0 017FFF04#7FFF7FFF00000000
(1790976939.811718) can0 02800467#7FFF7FD9800D00E6
(1790976939.811857) can0 017FFF05#7FFF7FFF00000000
(1790976939.812040) can0 02800569#800A806B802300E6
(1790976939.815478) can0 017FFF01#7FFF7FFF00000000
(1790976939.815675) can0 02800161#7FFF7FE67FEB00E6
(1790976939.815806) can0 017FFF02#7FFF7FFF00000000
(1790976939.816004) can0 02800263#7FFF7F80802400E6
(1790976939.816135) can0 017FFF03#7FFF7FFF00000000
(1790976939.816344) can0 02800365#8000801D7FEC00DC
(1790976939.816483) can0 017FFF04#7FFF7FFF00000000
(1790976939.816719) can0 02800467#7FFF7FF27FE200E6
(1790976939.816858) can0 017FFF05#7FFF7FFF00000000
(1790976939.817082) can0 02800569#800B805F7FE100E6
(1790976939.820480) can0 017FFF01#7FFF7FFF00000000
(1790976939.820676) can0 02800161#7FFF80197FF000E6
(1790976939.820807) can0 017FFF02#7FFF7FFF00000000
(1790976939.821004) can0 02800263#7FFF803C801D00E6
(1790976939.821135) can0 017FFF03#7FFF7FFF00000000
(1790976939.821340) can0 02800365#800180227FFD00DC
(1790976939.821472) can0 017FFF04#7FFF7FFF00000000
(1790976939.821718) can0 02800467#7FFE7FEA7FD400E6
(1790976939.821850) can0 017FFF05#7FFF7FFF00000000
(1790976939.822080) can0 02800569#800B803D801200E6
(1790976939.825478) can0 017FFF01#7FFF7FFF00000000
(1790976939.825674) can0 02800161#7FFF80377FFE00E6
(1790976939.825805) can0 017FFF02#7FFF7FFF00000000
(1790976939.826003) can0 02800263#7FFF7FD67FE700E6
(1790976939.826134) can0 017FFF03#7FFF7FFF00000000
(1790976939.826343) can0 02800365#80007FE57FF800DC
(1790976939.826475) can0 017FFF04#7FFF7FFF00000000
(1790976939.826718) can0 02800467#7FFF8035800E00E6
(1790976939.826857) can0 017FFF05#7FFF7FFF00000000
(1790976939.827040) can0 02800569#800B7FC4802600E6
(1790976939.830480) can0 017FFF01#7FFF7FFF00000000
(1790976939.830674) can0 02800161#7FFF7FCB801000E6
(1790976939.830805) can0 017FFF02#7FFF7FFF00000000
(1790976939.831004) can0 02800263#7FFF8053801200E6
(1790976939.831135) can0 017FFF03#7FFF7FFF00000000
(1790976939.831344) can0 02800365#800080377FEB00DC
(1790976939.831476) can0 017FFF04#7FFF7FFF00000000
(1790976939.831719) can0 02800467#7FFF80107FBA00E6
(1790976939.831858) can0 017FFF05#7FFF7FFF00000000
(1790976939.832041) can0 02800569#800C801A801A00E6
(1790976939.835481) can0 017FFF01#7FFF7FFF00000000
(1790976939.835674) can0 02800161#7FFF7FC57FF600E6
(1790976939.835804) can0 017FFF02#7FFF7FFF00000000
(1790976939.836003) can0 02800263#7FFF8046800300E6
(1790976939.836134) can0 017FFF03#7FFF7FFF00000000
(1790976939.836341) can0 02800365#80008005800200DC
(1790976939.836473) can0 017FFF04#7FFF7FFF00000000
(1790976939.836719) can0 02800467#7FFF7FFD802B00E6
(1790976939.836858) can0 017FFF05#7FFF7FFF00000000
(1790976939.837080) can0 02800569#800C8011803500E6
(1790976939.840481) can0 017FFF01#7FFF7FFF00000000
(1790976939.840675) can0 02800161#7FFF7FE6800600E6
(1790976939.840806) can0 017FFF02#7FFF7FFF00000000
(1790976939.841004) can0 02800263#7FFF8161800800E6
(1790976939.841135) can0 017FFF03#7FFF7FFF00000000
(1790976939.841342) can0 02800365#80007FE4800900DC
(1790976939.841474) can0 017FFF04#7FFF7FFF00000000
(1790976939.841719) can0 02800467#7FFF7FCE7FFC00E6
(1790976939.841851) can0 017FFF05#7FFF7FFF00000000
(1790976939.842040) can0 02800569#800C8044801300E6
(1790976939.845473) can0 017FFF01#7FFF7FFF00000000
(1790976939.845670) can0 02800161#80007FFF7FE700E6
(1790976939.845802) can0 017FFF02#7FFF7FFF00000000
(1790976939.846002) can0 02800263#7FFF7FD8801300E6
(1790976939.846134) can0 017FFF03#7FFF7FFF00000000
(1790976939.846342) can0 02800365#800080037FF800DC
(1790976939.846481) can0 017FFF04#7FFF7FFF00000000
(1790976939.846717) can0 02800467#7FFE7FC9801200E6
(1790976939.846856) can0 017FFF05#7FFF7FFF00000000
(1790976939.847041) can0 02800569#800C7FEB801300E6
(1790976939.850484) can0 017FFF01#7FFF7FFF00000000
(1790976939.850676) can0 02800161#7FFF7FA37FEE00E6
(1790976939.850806) can0 017FFF02#7FFF7FFF00000000
(1790976939.851004) can0 02800263#7FFF7F19800600E6
(1790976939.851135) can0 017FFF03#7FFF7FFF00000000
(1790976939.851342) can0 02800365#80007FA87FF600DC
(1790976939.851474) can0 017FFF04#7FFF7FFF00000000
(1790976939.851718) can0 02800467#7FFF8014802E00E6
(1790976939.851850) can0 017FFF05#7FFF7FFF00000000
(1790976939.852083) can0 02800569#800C7FFE7FE800E6
(1790976939.855480) can0 017FFF01#7FFF7FFF00000000
(1790976939.855674) can0 02800161#80007FFD7FF200E6
(1790976939.855805) can0 017FFF02#7FFF7FFF00000000
(1790976939.856002) can0 02800263#7FFF7FF67FD900E6
(1790976939.856134) can0 017FFF03#7FFF7FFF00000000
(1790976939.856341) can0 02800365#80007FC87FF600DC
(1790976939.856474) can0 017FFF04#7FFF7FFF00000000
(1790976939.856718) can0 02800467#7FFF80277FDD00E6
(1790976939.856850) can0 017FFF05#7FFF7FFF00000000
(1790976939.857083) can0 02800569#800C7FFB7FF400E6
(1790976939.860483) can0 017FFF01#7FFF7FFF00000000
(1790976939.860676) can0 02800161#7FFF802F800A00E6
(1790976939.860807) can0 017FFF02#7FFF7FFF00000000
(1790976939.861005) can0 02800263#7FFF7FFF800700E6
(1790976939.861136) can0 017FFF03#7FFF7FFF00000000
(1790976939.861345) can0 02800365#80008010800200DC
(1790976939.861477) can0 017FFF04#7FFF7FFF00000000
(1790976939.861719) can0 02800467#7FFF7FE87FF600E6
(1790976939.861851) can0 017FFF05#7FFF7FFF00000000
(1790976939.862079) can0 02800569#800C7FDA7FDB00E6
(1790976939.865480) can0 017FFF01#7FFF7FFF00000000
(1790976939.865675) can0 02800161#7FFF7FF1800600E6
(1790976939.865806) can0 017FFF02#7FFF7FFF00000000
(1790976939.866003) can0 02800263#7FFF7FE5800D00E6
(1790976939.866134) can0 017FFF03#7FFF7FFF00000000
(1790976939.866343) can0 02800365#800080097FF400DC
(1790976939.866475) can0 017FFF04#7FFF7FFF00000000
(1790976939.866717) can0 02800467#7FFE7FE6803B00E6
(1790976939.866849) can0 017FFF05#7FFF7FFF00000000
(1790976939.867081) can0 02800569#800C7FC0800E00E6
(1790976939.870480) can0 017FFF01#7FFF7FFF00000000
(1790976939.870675) can0 02800161#8000805F7FFF00E6
(1790976939.870806) can0 017FFF02#7FFF7FFF00000000
(1790976939.871002) can0 02800263#7FFF7FB57FE700E6
(1790976939.871133) can0 017FFF03#7FFF7FFF00000000
(1790976939.871342) can0 02800365#800080067FFF00DC
(1790976939.871481) can0 017FFF04#7FFF7FFF00000000
(1790976939.871718) can0 02800467#7FFE7FD27FC500E6
(1790976939.871856) can0 017FFF05#7FFF7FFF00000000
(1790976939.872084) can0 02800569#800C7FF6800900E6
(1790976939.875480) can0 017FFF01#7FFF7FFF00000000
(1790976939.875674) can0 02800161#800080D2800800E6
(1790976939.875805) can0 017FFF02#7FFF7FFF00000000
(1790976939.876003) can0 02800263#7FFF80547FFA00E6
(1790976939.876134) can0 017FFF03#7FFF7FFF00000000
(1790976939.876340) can0 02800365#8000803A7FF100DC
(1790976939.876475) can0 017FFF04#7FFF7FFF00000000
(1790976939.876720) can0 02800467#7FFF7FEE7FA400E6
(1790976939.876859) can0 017FFF05#7FFF7FFF00000000
(1790976939.877081) can0 02800569#800C7FFB7FFE00E6
(1790976939.880482) can0 017FFF01#7FFF7FFF00000000
(1790976939.880672) can0 02800161#8000802D802700E6
(1790976939.880803) can0 017FFF02#7FFF7FFF00000000
(1790976939.881005) can0 02800263#7FFF8003800800E6
(1790976939.881136) can0 017FFF03#7FFF7FFF00000000
(1790976939.881344) can0 02800365#8000802A800C00DC
(1790976939.881476) can0 017FFF04#7FFF7FFF00000000
(1790976939.881718) can0 02800467#7FFE7FB1800C00E6
(1790976939.881850) can0 017FFF05#7FFF7FFF00000000
(1790976939.882081) can0 02800569#800C7FC27FDC00E6
(1790976939.885480) can0 017FFF01#7FFF7FFF00000000
(1790976939.885674) can0 02800161#7FFF7F537FED00E6
(1790976939.885805) can0 017FFF02#7FFF7FFF00000000
(1790976939.886003) can0 02800263#7FFF8013801200E6
(1790976939.886134) can0 017FFF03#7FFF7FFF00000000
(1790976939.886342) can0 02800365#8001808D800100DC
(1790976939.886474) can0 017FFF04#7FFF7FFF00000000
(1790976939.886717) can0 02800467#7FFE7F95800A00E6
(1790976939.886849) can0 017FFF05#7FFF7FFF00000000
(1790976939.887043) can0 02800569#800C7FFF801300E6
(1790976939.890481) can0 017FFF01#7FFF7FFF00000000
(1790976939.890675) can0 02800161#7FFF80087FF800E6
(1790976939.890806) can0 017FFF02#7FFF7FFF00000000
(1790976939.891002) can0 02800263#7FFF7F32801900E6
(1790976939.891133) can0 017FFF03#7FFF7FFF00000000
(1790976939.891340) can0 02800365#80007FA5800E00DC
(1790976939.891471) can0 017FFF04#7FFF7FFF00000000
(1790976939.891719) can0 02800467#7FFF806B801800E6
(1790976939.891857) can0 017FFF05#7FFF7FFF00000000
(1790976939.892040) can0 02800569#800B7FCD801600E6
(1790976939.895480) can0 017FFF01#7FFF7FFF00000000
(1790976939.895674) can0 02800161#7FFF80347FEF00E6
(1790976939.895805) can0 017FFF02#7FFF7FFF00000000
(1790976939.896003) can0 02800263#7FFF80C2801F00E6
(1790976939.896134) can0 017FFF03#7FFF7FFF00000000
(1790976939.896340) can0 02800365#80007FCA7FFE00DC
(1790976939.896473) can0 017FFF04#7FFF7FFF00000000
(1790976939.896718) can0 02800467#7FFF802F7FFA00E6
(1790976939.896850) can0 017FFF05#7FFF7FFF00000000
(1790976939.897082) can0 02800569#800B7FE17FF900E6
(1790976939.900482) can0 017FFF01#7FFF7FFF00000000
(1790976939.900672) can0 02800161#7FFF7F647FD600E6
(1790976939.900803) can0 017FFF02#7FFF7FFF00000000
(1790976939.901004) can0 02800263#7FFF804D801C00E6
(1790976939.901135) can0 017FFF03#7FFF7FFF00000000
(1790976939.901341) can0 02800365#8000802A800500DC
(1790976939.901473) can0 017FFF04#7FFF7FFF00000000
(1790976939.901718) can0 02800467#7FFE7FF3802300E6
(1790976939.901850) can0 017FFF05#7FFF7FFF00000000
(1790976939.902081) can0 02800569#800C7FEE7FE500E6
(1790976939.905479) can0 017FFF01#7FFF7FFF00000000
(1790976939.905673) can0 02800161#800080297FDD00E6
(1790976939.905804) can0 017FFF02#7FFF7FFF00000000
(1790976939.906003) can0 02800263#7FFF8004800900E6
(1790976939.906134) can0 017FFF03#7FFF7FFF00000000
(1790976939.906340) can0 02800365#8000800C803700DC
(1790976939.906479) can0 017FFF04#7FFF7FFF00000000
(1790976939.906716) can0 02800467#7FFE7F91800700E6
(1790976939.906849) can0 017FFF05#7FFF7FFF00000000
(1790976939.907040) can0 02800569#800C8030801300E6
(1790976939.910480) can0 017FFF01#7FFF7FFF00000000
(1790976939.910673) can0 02800161#800080C6801A00E6
(1790976939.910804) can0 017FFF02#7FFF7FFF00000000
(1790976939.911003) can0 02800263#7FFF8002800A00E6
(1790976939.911134) can0 017FFF03#7FFF7FFF00000000
(1790976939.911341) can0 02800365#800080257FF300DC
(1790976939.911473) can0 017FFF04#7FFF7FFF00000000
(1790976939.911717) can0 02800467#7FFE7FAB801800E6
(1790976939.911849) can0 017FFF05#7FFF7FFF00000000
(1790976939.912083) can0 02800569#800B80097FDC00E6
(1790976939.915479) can0 017FFF01#7FFF7FFF00000000
(1790976939.915674) can0 02800161#80007FA0800A00E6
(1790976939.915805) can0 017FFF02#7FFF7FFF00000000
(1790976939.916003) can0 02800263#7FFF7FE1802B00E6
(1790976939.916134) can0 017FFF03#7FFF7FFF00000000
(1790976939.916341) can0 02800365#8000804C7FFA00DC
(1790976939.916475) can0 017FFF04#7FFF7FFF00000000
(1790976939.916718) can0 02800467#7FFF8037800100E6
(1790976939.916850) can0 017FFF05#7FFF7FFF00000000
(1790976939.917081) can0 02800569#800C7FFA7FF400E6
(1790976939.920482) can0 017FFF01#7FFF7FFF00000000
(1790976939.920674) can0 02800161#80008052800400E6
(1790976939.920805) can0 017FFF02#7FFF7FFF00000000
(1790976939.921003) can0 02800263#7FFF7FA0800200E6
(1790976939.921134) can0 017FFF03#7FFF7FFF00000000
(1790976939.921342) can0 02800365#80007FEA800E00DC
(1790976939.921474) can0 017FFF04#7FFF7FFF00000000
(1790976939.921716) can0 02800467#7FFE7FD27FEB00E6
(1790976939.921848) can0 017FFF05#7FFF7FFF00000000
(1790976939.922082) can0 02800569#800B7FF9800400E6
(1790976939.925481) can0 017FFF01#7FFF7FFF00000000
(1790976939.925675) can0 02800161#8000809C7FFC00E6
(1790976939.925806) can0 017FFF02#7FFF7FFF00000000
(1790976939.926002) can0 02800263#7FFF80597FEE00E6
(1790976939.926133) can0 017FFF03#7FFF7FFF00000000
(1790976939.926340) can0 02800365#80007FDE801C00DC
(1790976939.926479) can0 017FFF04#7FFF7FFF00000000
(1790976939.926717) can0 02800467#7FFF80137FBD00E6
(1790976939.926849) can0 017FFF05#7FFF7FFF00000000
(1790976939.927081) can0 02800569#800C7FF77FE100E6
(1790976939.930480) can0 017FFF01#7FFF7FFF00000000
(1790976939.930675) can0 02800161#7FFF8051800C00E6
(1790976939.930806) can0 017FFF02#7FFF7FFF00000000
(1790976939.931003) can0 02800263#7FFF7FCC802000E6
(1790976939.931134) can0 017FFF03#7FFF7FFF00000000
(1790976939.931341) can0 02800365#800080427FF300DC
(1790976939.931473) can0 017FFF04#7FFF7FFF00000000
(1790976939.931718) can0 02800467#7FFE7FDF801D00E6
(1790976939.931850) can0 017FFF05#7FFF7FFF00000000
(1790976939.932081) can0 02800569#800C80167FF200E6
(1790976939.935489) can0 017FFF01#7FFF7FFF00000000
(1790976939.935672) can0 02800161#7FFF7F2E7FD200E6
(1790976939.935803) can0 017FFF02#7FFF7FFF00000000
(1790976939.936002) can0 02800263#7FFF80427FE200E6
(1790976939.936134) can0 017FFF03#7FFF7FFF00000000
(1790976939.936340) can0 02800365#8000802E800600DC
(1790976939.936473) can0 017FFF04#7FFF7FFF00000000
(1790976939.936719) can0 02800467#7FFF80627FF100E6
(1790976939.936851) can0 017FFF05#7FFF7FFF00000000
(1790976939.937041) can0 02800569#800C8038800C00E6
(1790976939.940492) can0 017FFF01#7FFF7FFF00000000
(1790976939.940676) can0 02800161#800080137FFD00E6
(1790976939.940806) can0 017FFF02#7FFF7FFF00000000
(1790976939.941005) can0 02800263#7FFF7FC8800C00E6
(1790976939.941136) can0 017FFF03#7FFF7FFF00000000
(1790976939.941347) can0 02800365#8000800F800400DC
(1790976939.941479) can0 017FFF04#7FFF7FFF00000000
(1790976939.941717) can0 02800467#7FFE7FD9800B00E6
(1790976939.941849) can0 017FFF05#7FFF7FFF00000000
(1790976939.942041) can0 02800569#800C8024800900E6
(1790976939.945490) can0 017FFF01#7FFF7FFF00000000
(1790976939.945673) can0 02800161#800080387FF700E6
(1790976939.945804) can0 017FFF02#7FFF7FFF00000000
(1790976939.946002) can0 02800263#7FFF7F6A800D00E6
(1790976939.946133) can0 017FFF03#7FFF7FFF00000000
(1790976939.946341) can0 02800365#800080177FFE00DC
(1790976939.946473) can0 017FFF04#7FFF7FFF00000000
(1790976939.946717) can0 02800467#7FFE7F877FE500E6
(1790976939.946849) can0 017FFF05#7FFF7FFF00000000
(1790976939.947082) can0 02800569#800C80027FFF00E6
(1790976939.950490) can0 017FFF01#7FFF7FFF00000000
(1790976939.950674) can0 02800161#7FFF802C7FF000E6
(1790976939.950805) can0 017FFF02#7FFF7FFF00000000
(1790976939.951002) can0 02800263#7FFF805B800600E6
(1790976939.951133) can0 017FFF03#7FFF7FFF00000000
(1790976939.951341) can0 02800365#800080157FEE00DC
(1790976939.951473) can0 017FFF04#7FFF7FFF00000000
(1790976939.951718) can0 02800467#7FFF802D801200E6
(1790976939.951850) can0 017FFF05#7FFF7FFF00000000
(1790976939.952043) can0 02800569#800B801F801100E6
(1790976939.955488) can0 017FFF01#7FFF7FFF00000000
(1790976939.955674) can0 02800161#7FFF80137FF200E6
(1790976939.955805) can0 017FFF02#7FFF7FFF00000000
(1790976939.956002) can0 02800263#7FFF7F947FF600E6
(1790976939.956133) can0 017FFF03#7FFF7FFF00000000
(1790976939.956341) can0 02800365#80007FCD800800DC
(1790976939.956475) can0 017FFF04#7FFF7FFF00000000
(1790976939.956719) can0 02800467#7FFF8019800100E6
(1790976939.956851) can0 017FFF05#7FFF7FFF00000000
(1790976939.957082) can0 02800569#800C80417FF500E6
(1790976939.960493) can0 017FFF01#7FFF7FFF00000000
(1790976939.960674) can0 02800161#7FFF80227FF900E6
(1790976939.960804) can0 017FFF02#7FFF7FFF00000000
(1790976939.961004) can0 02800263#7FFF7FED7FF900E6
(1790976939.961135) can0 017FFF03#7FFF7FFF00000000
(1790976939.961343) can0 02800365#8001803E7FF400DC
(1790976939.961475) can0 017FFF04#7FFF7FFF00000000
(1790976939.961717) can0 02800467#7FFE7FCA7FFE00E6
(1790976939.961849) can0 017FFF05#7FFF7FFF00000000
(1790976939.962081) can0 02800569#800C80227FF000E6
(1790976939.965491) can0 017FFF01#7FFF7FFF00000000
(1790976939.965673) can0 02800161#80007FDB800600E6
(1790976939.965804) can0 017FFF02#7FFF7FFF00000000
(1790976939.966002) can0 02800263#7FFE7F857FE800E6
(1790976939.966133) can0 017FFF03#7FFF7FFF00000000
(1790976939.966339) can0 02800365#800180287FFB00DC
(1790976939.966470) can0 017FFF04#7FFF7FFF00000000
(1790976939.966719) can0 02800467#7FFF7FF7803200E6
(1790976939.966851) can0 017FFF05#7FFF7FFF00000000
(1790976939.967041) can0 02800569#800C7FC5800300E6
(1790976939.970489) can0 017FFF01#7FFF7FFF00000000
(1790976939.970674) can0 02800161#80007FE8800200E6
(1790976939.970805) can0 017FFF02#7FFF7FFF00000000
(1790976939.971002) can0 02800263#7FFF804B800900E6
(1790976939.971133) can0 017FFF03#7FFF7FFF00000000
(1790976939.971339) can0 02800365#80007FDC7FDD00DC
(1790976939.971471) can0 017FFF04#7FFF7FFF00000000
(1790976939.971717) can0 02800467#7FFE8001806600E6
(1790976939.971849) can0 017FFF05#7FFF7FFF00000000
(1790976939.972042) can0 02800569#800C8014801200E6
(1790976939.975489) can0 017FFF01#7FFF7FFF00000000
(1790976939.975678) can0 02800161#7FFF7FEF801000E6
(1790976939.975809) can0 017FFF02#7FFF7FFF00000000
(1790976939.976002) can0 02800263#7FFE7F12801400E6
(1790976939.976133) can0 017FFF03#7FFF7FFF00000000
(1790976939.976340) can0 02800365#80007FE4802700DC
(1790976939.976472) can0 017FFF04#7FFF7FFF00000000
(1790976939.976720) can0 02800467#7FFF7FF1800C00E6
(1790976939.976852) can0 017FFF05#7FFF7FFF00000000
(1790976939.977081) can0 02800569#800C8016805C00E6
(1790976939.980494) can0 017FFF01#7FFF7FFF00000000
(1790976939.980674) can0 02800161#7FFF7F787FF800E6
(1790976939.980805) can0 017FFF02#7FFF7FFF00000000
(1790976939.981002) can0 02800263#7FFE7FBA7FE800E6
(1790976939.981133) can0 017FFF03#7FFF7FFF00000000
(1790976939.981339) can0 02800365#80007FB2800A00DC
(1790976939.981471) can0 017FFF04#7FFF7FFF00000000
(1790976939.981718) can0 02800467#7FFE7FBE7FFB00E6
(1790976939.981850) can0 017FFF05#7FFF7FFF00000000
(1790976939.982081) can0 02800569#800B7FEB800700E6
(1790976939.985489) can0 017FFF01#7FFF7FFF00000000
(1790976939.985673) can0 02800161#800080EE800200E6
(1790976939.985804) can0 017FFF02#7FFF7FFF00000000
(1790976939.986003) can0 02800263#7FFF7F8D7FF800E6
(1790976939.986134) can0 017FFF03#7FFF7FFF00000000
(1790976939.986339) can0 02800365#80007FC2802500DC
(1790976939.986471) can0 017FFF04#7FFF7FFF00000000
(1790976939.986717) can0 02800467#7FFF805C802D00E6
(1790976939.986848) can0 017FFF05#7FFF7FFF00000000
(1790976939.987081) can0 02800569#800C80407FFA00E6
(1790976939.990488) can0 017FFF01#7FFF7FFF00000000
(1790976939.990675) can0 02800161#80007F92800000E6
(1790976939.990806) can0 017FFF02#7FFF7FFF00000000
(1790976939.991001) can0 02800263#7FFF80487FEB00E6
(1790976939.991132) can0 017FFF03#7FFF7FFF00000000
(1790976939.991341) can0 02800365#8000800E7FE400DC
(1790976939.991473) can0 017FFF04#7FFF7FFF00000000
(1790976939.991717) can0 02800467#7FFE800B801300E6
(1790976939.991849) can0 017FFF05#7FFF7FFF00000000
(1790976939.992082) can0 02800569#800B7FE17FDC00E6
(1790976939.995488) can0 017FFF01#7FFF7FFF00000000
(1790976939.995675) can0 02800161#80008078800100E6
(1790976939.995806) can0 017FFF02#7FFF7FFF00000000
(1790976939.996003) can0 02800263#7FFF8069800200E6
(1790976939.996134) can0 017FFF03#7FFF7FFF00000000
(1790976939.996342) can0 02800365#80007FF6800300DC
(1790976939.996476) can0 017FFF04#7FFF7FFF00000000
(1790976939.996718) can0 02800467#7FFF80367FF300E6
(1790976939.996850) can0 017FFF05#7FFF7FFF00000000
(1790976939.997080) can0 02800569#800B7FD57FFE00E6
(1790976940.000485) can0 017FFF01#7FFF7FFF00000000
(1790976940.000673) can0 02800161#80007F6F800200E6
(1790976940.000804) can0 017FFF02#7FFF7FFF00000000
(1790976940.001003) can0 02800263#7FFF7FBF7FF400E6
(1790976940.001134) can0 017FFF03#7FFF7FFF00000000
(1790976940.001342) can0 02800365#80008010800B00DC
(1790976940.001474) can0 017FFF04#7FFF7FFF00000000
(1790976940.001717) can0 02800467#7FFE7FB47FC000E6
(1790976940.001849) can0 017FFF05#7FFF7FFF00000000
(1790976940.002042) can0 02800569#800C7FF6800C00E6
(1790976940.005488) can0 017FFF01#7FFF7FFF00000000
(1790976940.005674) can0 02800161#8000809B800600E6
(1790976940.005805) can0 017FFF02#7FFF7FFF00000000
(1790976940.006003) can0 02800263#7FFF7FF17FFC00E6
(1790976940.006134) can0 017FFF03#7FFF7FFF00000000
(1790976940.006341) can0 02800365#800080327FEE00DC
(1790976940.006473) can0 017FFF04#7FFF7FFF00000000
(1790976940.006719) can0 02800467#7FFE7FBA7FF000E6
(1790976940.006850) can0 017FFF05#7FFF7FFF00000000
(1790976940.007082) can0 02800569#800B7FF77FBE00E6
(1790976940.010488) can0 017FFF01#7FFF7FFF00000000
(1790976940.010674) can0 02800161#7FFF7FA37FF400E6
(1790976940.010805) can0 017FFF02#7FFF7FFF00000000
(1790976940.011003) can0 02800263#7FFF802B7FE100E6
(1790976940.011134) can0 017FFF03#7FFF7FFF00000000
(1790976940.011340) can0 02800365#8001804C800600DC
(1790976940.011472) can0 017FFF04#7FFF7FFF00000000
(1790976940.011720) can0 02800467#7FFF801D7FF800E6
(1790976940.011852) can0 017FFF05#7FFF7FFF00000000
(1790976940.012081) can0 02800569#800B7FC67FDC00E6
(1790976940.015487) can0 017FFF01#7FFF7FFF00000000
(1790976940.015673) can0 02800161#80007FD7800500E6
(1790976940.015803) can0 017FFF02#7FFF7FFF00000000
(1790976940.016001) can0 02800263#7FFE7EDC800E00E6
(1790976940.016131) can0 017FFF03#7FFF7FFF00000000
(1790976940.016342) can0 02800365#80008020801E00DC
(1790976940.016476) can0 017FFF04#7FFF7FFF00000000
(1790976940.016717) can0 02800467#7FFE7FD2801C00E6
(1790976940.016849) can0 017FFF05#7FFF7FFF00000000
(1790976940.017080) can0 02800569#800C80457FFC00E6
(1790976940.020491) can0 017FFF01#7FFF7FFF00000000
(1790976940.020675) can0 02800161#800080627FEC00E6
(1790976940.020805) can0 017FFF02#7FFF7FFF00000000
(1790976940.021004) can0 02800263#7FFF80B17FFE00E6
(1790976940.021135) can0 017FFF03#7FFF7FFF00000000
(1790976940.021342) can0 02800365#80007FE77FFE00DC
(1790976940.021474) can0 017FFF04#7FFF7FFF00000000
(1790976940.021717) can0 02800467#7FFF80477FE700E6
(1790976940.021849) can0 017FFF05#7FFF7FFF00000000
(1790976940.022080) can0 02800569#800B7FA97FEB00E6
(1790976940.025494) can0 017FFF01#7FFF7FFF00000000
(1790976940.025667) can0 02800161#800080227FF100E6
(1790976940.025808) can0 017FFF02#7FFF7FFF00000000
(1790976940.026002) can0 02800263#7FFF8041800900E6
(1790976940.026133) can0 017FFF03#7FFF7FFF00000000
(1790976940.026339) can0 02800365#80018048800F00DC
(1790976940.026471) can0 017FFF04#7FFF7FFF00000000
(1790976940.026717) can0 02800467#7FFE7F9E802800E6
(1790976940.026849) can0 017FFF05#7FFF7FFF00000000
(1790976940.027080) can0 02800569#800C7FEF7FC600E6
(1790976940.030525) can0 017FFF01#7FFF7FFF00000000
(1790976940.030715) can0 02800161#800080A77FFC00E6
(1790976940.030845) can0 017FFF02#7FFF7FFF00000000
(1790976940.031050) can0 02800263#7FFF800E7FFF00E6
(1790976940.031181) can0 017FFF03#7FFF7FFF00000000
(1790976940.031388) can0 02800365#80008045800000DC
(1790976940.031520) can0 017FFF04#7FFF7FFF00000000
(1790976940.031766) can0 02800467#7FFF7FDA7FCB00E6
(1790976940.031898) can0 017FFF05#7FFF7FFF00000000
(1790976940.032132) can0 02800569#800C80177FEF00E6
(1790976940.035524) can0 017FFF01#7FFF7FFF00000000
(1790976940.035717) can0 02800161#800080CC7FF600E6
(1790976940.035847) can0 017FFF02#7FFF7FFF00000000
(1790976940.036052) can0 02800263#7FFF7FE9800C00E6
(1790976940.036182) can0 017FFF03#7FFF7FFF00000000
(1790976940.036390) can0 02800365#80007FE67FF900DC
(1790976940.036525) can0 017FFF04#7FFF7FFF00000000
(1790976940.036768) can0 02800467#7FFE8008801800E6
(1790976940.036900) can0 017FFF05#7FFF7FFF00000000
(1790976940.037131) can0 02800569#800C8002800D00E6
(1790976940.040502) can0 017FFF01#7FFF7FFF00000000
(1790976940.040667) can0 02800161#8000808A800100E6
(1790976940.040809) can0 017FFF02#7FFF7FFF00000000
(1790976940.041000) can0 02800263#7FFE7F75801200E6
(1790976940.041131) can0 017FFF03#7FFF7FFF00000000
(1790976940.041338) can0 02800365#8000804E800600DC
(1790976940.041470) can0 017FFF04#7FFF7FFF00000000
(1790976940.041719) can0 02800467#7FFF80077FE700E6
(1790976940.041851) can0 017FFF05#7FFF7FFF00000000
(1790976940.042083) can0 02800569#800C80127FFC00E6
(1790976940.045494) can0 017FFF01#7FFF7FFF00000000
(1790976940.045674) can0 02800161#80007FFB800300E6
(1790976940.045805) can0 017FFF02#7FFF7FFF00000000
(1790976940.046001) can0 02800263#7FFF7FCA800200E6
(1790976940.046132) can0 017FFF03#7FFF7FFF00000000
(1790976940.046339) can0 02800365#80007FD7801D00DC
(1790976940.046471) can0 017FFF04#7FFF7FFF00000000
(1790976940.046717) can0 02800467#7FFF805B7FEF00E6
(1790976940.046849) can0 017FFF05#7FFF7FFF00000000
(1790976940.047081) can0 02800569#800B7FE9801A00E6
(1790976940.050489) can0 017FFF01#7FFF7FFF00000000
(1790976940.050673) can0 02800161#80008014801700E6
(1790976940.050804) can0 017FFF02#7FFF7FFF00000000
(1790976940.051001) can0 02800263#7FFF7FAA800700E6
(1790976940.051132) can0 017FFF03#7FFF7FFF00000000
(1790976940.051341) can0 02800365#8000800C7FF400DC
(1790976940.051473) can0 017FFF04#7FFF7FFF00000000
(1790976940.051716) can0 02800467#7FFE7FBC7FD900E6
(1790976940.051847) can0 017FFF05#7FFF7FFF00000000
(1790976940.052081) can0 02800569#800C80067FF900E6
(1790976940.055490) can0 017FFF01#7FFF7FFF00000000
(1790976940.055673) can0 02800161#800080017FFE00E6
(1790976940.055804) can0 017FFF02#7FFF7FFF00000000
(1790976940.056002) can0 02800263#7FFF7FD67FF000E6
(1790976940.056133) can0 017FFF03#7FFF7FFF00000000
(1790976940.056341) can0 02800365#80007FEC800C00DC
(1790976940.056475) can0 017FFF04#7FFF7FFF00000000
(1790976940.056716) can0 02800467#7FFF8049803200E6
(1790976940.056848) can0 017FFF05#7FFF7FFF00000000
(1790976940.057041) can0 02800569#800C8012801100E6
(1790976940.060493) can0 017FFF01#7FFF7FFF00000000
(1790976940.060673) can0 02800161#800080767FF200E6
(1790976940.060804) can0 017FFF02#7FFF7FFF00000000
(1790976940.061003) can0 02800263#7FFF8053800800E6
(1790976940.061134) can0 017FFF03#7FFF7FFF00000000
(1790976940.061340) can0 02800365#800080387FF700DC
(1790976940.061472) can0 017FFF04#7FFF7FFF00000000
(1790976940.061717) can0 02800467#7FFF7FE97FF700E6
(1790976940.061849) can0 017FFF05#7FFF7FFF00000000
(1790976940.062079) can0 02800569#800C800C7F5B00E6
(1790976940.065497) can0 017FFF01#7FFF7FFF00000000
(1790976940.065668) can0 02800161#80007F37801000E6
(1790976940.065810) can0 017FFF02#7FFF7FFF00000000
(1790976940.066002) can0 02800263#7FFF7F047FF900E6
(1790976940.066133) can0 017FFF03#7FFF7FFF00000000
(1790976940.066341) can0 02800365#80008057801500DC
(1790976940.066473) can0 017FFF04#7FFF7FFF00000000
(1790976940.066715) can0 02800467#7FFE7FB2802700E6
(1790976940.066847) can0 017FFF05#7FFF7FFF00000000
(1790976940.067079) can0 02800569#800C7FD67FEA00E6
(1790976940.070493) can0 017FFF01#7FFF7FFF00000000
(1790976940.070674) can0 02800161#80007FFE7FF600E6
(1790976940.070804) can0 017FFF02#7FFF7FFF00000000
(1790976940.071001) can0 02800263#7FFF8033800300E6
(1790976940.071132) can0 017FFF03#7FFF7FFF00000000
(1790976940.071338) can0 02800365#80007FB27FF300DC
(1790976940.071470) can0 017FFF04#7FFF7FFF00000000
(1790976940.071716) can0 02800467#7FFE7FD6800B00E6
(1790976940.071848) can0 017FFF05#7FFF7FFF00000000
(1790976940.072079) can0 02800569#800C7FE87FA100E6
(1790976940.075491) can0 017FFF01#7FFF7FFF00000000
(1790976940.075673) can0 02800161#80008090800300E6
(1790976940.075803) can0 017FFF02#7FFF7FFF00000000
(1790976940.076001) can0 02800263#7FFF7FC37FFA00E6
(1790976940.076132) can0 017FFF03#7FFF7FFF00000000
(1790976940.076342) can0 02800365#80007FF5800400DC
(1790976940.076477) can0 017FFF04#7FFF7FFF00000000
(1790976940.076716) can0 02800467#7FFE7FD87FFC00E6
(1790976940.076848) can0 017FFF05#7FFF7FFF00000000
(1790976940.077041) can0 02800569#800C7FE8800C00E6
(1790976940.080495) can0 017FFF01#7FFF7FFF00000000
(1790976940.080676) can0 02800161#80007FE87FEB00E6
(1790976940.080805) can0 017FFF02#7FFF7FFF00000000
(1790976940.081001) can0 02800263#7FFF80E1801100E6
(1790976940.081132) can0 017FFF03#7FFF7FFF00000000
(1790976940.081340) can0 02800365#80007FF57FFF00DC
(1790976940.081472) can0 017FFF04#7FFF7FFF00000000
(1790976940.081717) can0 02800467#7FFF8022801D00E6
(1790976940.081849) can0 017FFF05#7FFF7FFF00000000
(1790976940.082078) can0 02800569#800B7FBA7FCB00E6
(1790976940.085492) can0 017FFF01#7FFF7FFF00000000
(1790976940.085673) can0 02800161#80007F807FF500E6
(1790976940.085803) can0 017FFF02#7FFF7FFF00000000
(1790976940.086003) can0 02800263#7FFF80327FEC00E6
(1790976940.086133) can0 017FFF03#7FFF7FFF00000000
(1790976940.086341) can0 02800365#80007FEC7FFB00DC
(1790976940.086473) can0 017FFF04#7FFF7FFF00000000
(1790976940.086717) can0 02800467#7FFE802E800000E6
(1790976940.086849) can0 017FFF05#7FFF7FFF00000000
(1790976940.087080) can0 02800569#800C7FF47FF500E6
(1790976940.090490) can0 017FFF01#7FFF7FFF00000000
(1790976940.090674) can0 02800161#80007FE1800100E6
(1790976940.090805) can0 017FFF02#7FFF7FFF00000000
(1790976940.091003) can0 02800263#7FFF7FE87FE600E6
(1790976940.091133) can0 017FFF03#7FFF7FFF00000000
(1790976940.091341) can0 02800365#800080377FEC00DC
(1790976940.091473) can0 017FFF04#7FFF7FFF00000000
(1790976940.091717) can0 02800467#7FFE7FF17FE200E6
(1790976940.091849) can0 017FFF05#7FFF7FFF00000000
(1790976940.092080) can0 02800569#800C7FF87FCA00E6
(1790976940.095492) can0 017FFF01#7FFF7FFF00000000
(1790976940.095673) can0 02800161#8000808C7FFA00E6
(1790976940.095802) can0 017FFF02#7FFF7FFF00000000
(1790976940.096002) can0 02800263#7FFF7FF67FF600E6
(1790976940.096132) can0 017FFF03#7FFF7FFF00000000
(1790976940.096341) can0 02800365#800080187FF000DC
(1790976940.096475) can0 017FFF04#7FFF7FFF00000000
(1790976940.096716) can0 02800467#7FFE7FB5802400E6
(1790976940.096848) can0 017FFF05#7FFF7FFF00000000
(1790976940.097039) can0 02800569#800C7FE2802600E6
(1790976940.100494) can0 017FFF01#7FFF7FFF00000000
(1790976940.100666) can0 02800161#80008068800700E6
(1790976940.100808) can0 017FFF02#7FFF7FFF00000000
(1790976940.101002) can0 02800263#7FFF8076800E00E6
(1790976940.101133) can0 017FFF03#7FFF7FFF00000000
(1790976940.101340) can0 02800365#80007FAA7FEA00DC
(1790976940.101472) can0 017FFF04#7FFF7FFF00000000
(1790976940.101716) can0 02800467#7FFE7FD37FD500E6
(1790976940.101848) can0 017FFF05#7FFF7FFF00000000
(1790976940.102079) can0 02800569#800C80167FDB00E6
(1790976940.105482) can0 017FFF01#7FFF7FFF00000000
(1790976940.105672) can0 02800161#8000809C800C00E6
(1790976940.105803) can0 017FFF02#7FFF7FFF00000000
(1790976940.106000) can0 02800263#7FFE7F5B7FFD00E6
(1790976940.106131) can0 017FFF03#7FFF7FFF00000000
(1790976940.106339) can0 02800365#80007FEF7FE200DC
(1790976940.106471) can0 017FFF04#7FFF7FFF00000000
(1790976940.106717) can0 02800467#7FFF80227FFE00E6
(1790976940.106849) can0 017FFF05#7FFF7FFF00000000
(1790976940.107079) can0 02800569#800B7FBE7FAE00E6
(1790976940.110509) can0 017FFF01#7FFF7FFF00000000
(1790976940.110667) can0 02800161#80007FEE800500E6
(1790976940.110808) can0 017FFF02#7FFF7FFF00000000
(1790976940.111001) can0 02800263#7FFF802E801D00E6
(1790976940.111132) can0 017FFF03#7FFF7FFF00000000
(1790976940.111343) can0 02800365#80008012801C00DC
(1790976940.111474) can0 017FFF04#7FFF7FFF00000000
(1790976940.111716) can0 02800467#7FFF80287FED00E6
(1790976940.111848) can0 017FFF05#7FFF7FFF00000000
(1790976940.112039) can0 02800569#800C8045801900E6
(1790976940.115507) can0 017FFF01#7FFF7FFF00000000
(1790976940.115668) can0 02800161#800080117FF100E6
(1790976940.115809) can0 017FFF02#7FFF7FFF00000000
(1790976940.116000) can0 02800263#7FFF803C7FF900E6
(1790976940.116131) can0 017FFF03#7FFF7FFF00000000
(1790976940.116340) can0 02800365#80008040800300DC
(1790976940.116473) can0 017FFF04#7FFF7FFF00000000
(1790976940.116718) can0 02800467#7FFE7FF47FE500E6
(1790976940.116850) can0 017FFF05#7FFF7FFF00000000
(1790976940.117039) can0 02800569#800B8008802900E6
(1790976940.120481) can0 017FFF01#7FFF7FFF00000000
(1790976940.120673) can0 02800161#800080467FF800E6
(1790976940.120804) can0 017FFF02#7FFF7FFF00000000
(1790976940.121000) can0 02800263#7FFF80587FF200E6
(1790976940.121131) can0 017FFF03#7FFF7FFF00000000
(1790976940.121339) can0 02800365#8000802C7FE400DC
(1790976940.121471) can0 017FFF04#7FFF7FFF00000000
(1790976940.121714) can0 02800467#7FFE7FB1802300E6
(1790976940.121846) can0 017FFF05#7FFF7FFF00000000
(1790976940.122041) can0 02800569#800C8006802000E6
(1790976940.125482) can0 017FFF01#7FFF7FFF00000000
(1790976940.125673) can0 02800161#80007FE3801700E6
(1790976940.125804) can0 017FFF02#7FFF7FFF00000000
(1790976940.125999) can0 02800263#7FFE807F7FDA00E6
(1790976940.126130) can0 017FFF03#7FFF7FFF00000000
(1790976940.126339) can0 02800365#8000800E800400DC
(1790976940.126471) can0 017FFF04#7FFF7FFF00000000
(1790976940.126718) can0 02800467#7FFE7FE67FEE00E6
(1790976940.126850) can0 017FFF05#7FFF7FFF00000000
(1790976940.127039) can0 02800569#800C7FF6803A00E6
(1790976940.130503) can0 017FFF01#7FFF7FFF00000000
(1790976940.130669) can0 02800161#80007FFC7FE100E6
(1790976940.130810) can0 017FFF02#7FFF7FFF00000000
(1790976940.131003) can0 02800263#7FFF80407FF400E6
(1790976940.131134) can0 017FFF03#7FFF7FFF00000000
(1790976940.131341) can0 02800365#80008027801400DC
(1790976940.131473) can0 017FFF04#7FFF7FFF00000000
(1790976940.131717) can0 02800467#7FFE80077FF600E6
(1790976940.131849) can0 017FFF05#7FFF7FFF00000000
(1790976940.132040) can0 02800569#800C8012800900E6
(1790976940.135487) can0 017FFF01#7FFF7FFF00000000
(1790976940.135671) can0 02800161#7FFF80A67FFD00E6
(1790976940.135802) can0 017FFF02#7FFF7FFF00000000
(1790976940.136001) can0 02800263#7FFF8040801300E6
(1790976940.136132) can0 017FFF03#7FFF7FFF00000000
(1790976940.136341) can0 02800365#80007FE97FF100DC
(1790976940.136477) can0 017FFF04#7FFF7FFF00000000
(1790976940.136717) can0 02800467#7FFF8014801200E6
(1790976940.136849) can0 017FFF05#7FFF7FFF00000000
(1790976940.137078) can0 02800569#800B7FC67FD700E6
(1790976940.140487) can0 017FFF01#7FFF7FFF00000000
(1790976940.140673) can0 02800161#80007FCA800000E6
(1790976940.140804) can0 017FFF02#7FFF7FFF00000000
(1790976940.141000) can0 02800263#7FFF7FFD800700E6
(1790976940.141131) can0 017FFF03#7FFF7FFF00000000
(1790976940.141341) can0 02800365#8001801D7FFC00DC
(1790976940.141472) can0 017FFF04#7FFF7FFF00000000
(1790976940.141715) can0 02800467#7FFF7FDB802B00E6
(1790976940.141847) can0 017FFF05#7FFF7FFF00000000
(1790976940.142038) can0 02800569#800C8028802100E6
(1790976940.145492) can0 017FFF01#7FFF7FFF00000000
(1790976940.145676) can0 02800161#8000800C7FE800E6
(1790976940.145807) can0 017FFF02#7FFF7FFF00000000
(1790976940.145999) can0 02800263#7FFF8062801900E6
(1790976940.146130) can0 017FFF03#7FFF7FFF00000000
(1790976940.146339) can0 02800365#800080097FF400DC
(1790976940.146471) can0 017FFF04#7FFF7FFF00000000
(1790976940.146717) can0 02800467#7FFF80447FC900E6
(1790976940.146848) can0 017FFF05#7FFF7FFF00000000
(1790976940.147081) can0 02800569#800C80307FBC00E6
(1790976940.150490) can0 017FFF01#7FFF7FFF00000000
(1790976940.150671) can0 02800161#7FFF7FA77FFD00E6
(1790976940.150802) can0 017FFF02#7FFF7FFF00000000
(1790976940.151002) can0 02800263#7FFF801F801B00E6
(1790976940.151133) can0 017FFF03#7FFF7FFF00000000
(1790976940.151339) can0 02800365#80008071800500DC
(1790976940.151471) can0 017FFF04#7FFF7FFF00000000
(1790976940.151715) can0 02800467#7FFE80447FE700E6
(1790976940.151847) can0 017FFF05#7FFF7FFF00000000
(1790976940.152080) can0 02800569#800C800F7FE900E6
(1790976940.155492) can0 017FFF01#7FFF7FFF00000000
(1790976940.155673) can0 02800161#8000802F7FE900E6
(1790976940.155803) can0 017FFF02#7FFF7FFF00000000
(1790976940.156000) can0 02800263#7FFF80E67FF500E6
(1790976940.156131) can0 017FFF03#7FFF7FFF00000000
(1790976940.156338) can0 02800365#80007FC8801900DC
(1790976940.156473) can0 017FFF04#7FFF7FFF00000000
(1790976940.156718) can0 02800467#7FFF80497FF000E6
(1790976940.156849) can0 017FFF05#7FFF7FFF00000000
(1790976940.157080) can0 02800569#800B7FD17FE000E6
(1790976940.160492) can0 017FFF01#7FFF7FFF00000000
(1790976940.160674) can0 02800161#8000802F800100E6
(1790976940.160805) can0 017FFF02#7FFF7FFF00000000
(1790976940.161001) can0 02800263#7FFF7FEB7FF600E6
(1790976940.161132) can0 017FFF03#7FFF7FFF00000000
(1790976940.161341) can0 02800365#800080307FF000DC
(1790976940.161473) can0 017FFF04#7FFF7FFF00000000
(1790976940.161716) can0 02800467#7FFF80067FEB00E6
(1790976940.161848) can0 017FFF05#7FFF7FFF00000000
(1790976940.162082) can0 02800569#800C7FE87FE700E6
(1790976940.165491) can0 017FFF01#7FFF7FFF00000000
(1790976940.165674) can0 02800161#80007FC17FFB00E6
(1790976940.165805) can0 017FFF02#7FFF7FFF00000000
(1790976940.166000) can0 02800263#7FFF80587FFE00E6
(1790976940.166131) can0 017FFF03#7FFF7FFF00000000
(1790976940.166338) can0 02800365#800080497FF200DC
(1790976940.166470) can0 017FFF04#7FFF7FFF00000000
(1790976940.166715) can0 02800467#7FFE7FCA801500E6
(1790976940.166847) can0 017FFF05#7FFF7FFF00000000
(1790976940.167040) can0 02800569#800C7FE2800B00E6
(1790976940.170491) can0 017FFF01#7FFF7FFF00000000
(1790976940.170674) can0 02800161#80008020800800E6
(1790976940.170804) can0 017FFF02#7FFF7FFF00000000
(1790976940.171006) can0 02800263#7FFF807E7FFF00E6
(1790976940.171134) can0 017FFF03#7FFF7FFF00000000
(1790976940.171339) can0 02800365#8001805B800500DC
(1790976940.171471) can0 017FFF04#7FFF7FFF00000000
(1790976940.171717) can0 02800467#7FFE7FFE7FFF00E6
(1790976940.171849) can0 017FFF05#7FFF7FFF00000000
(1790976940.172080) can0 02800569#800C80077FF900E6
(1790976940.175509) can0 017FFF01#7FFF7FFF00000000
(1790976940.175666) can0 02800161#80007F7E7FF500E6
(1790976940.175807) can0 017FFF02#7FFF7FFF00000000
(1790976940.176001) can0 02800263#7FFF7F987FF800E6
(1790976940.176132) can0 017FFF03#7FFF7FFF00000000
(1790976940.176339) can0 02800365#80008029801700DC
(1790976940.176473) can0 017FFF04#7FFF7FFF00000000
(1790976940.176715) can0 02800467#7FFE7FC7801D00E6
(1790976940.176847) can0 017FFF05#7FFF7FFF00000000
(1790976940.177078) can0 02800569#800C800A802A00E6
(1790976940.180504) can0 017FFF01#7FFF7FFF00000000
(1790976940.180667) can0 02800161#800080F07FE700E6
(1790976940.180809) can0 017FFF02#7FFF7FFF00000000
(1790976940.181001) can0 02800263#7FFF8004800400E6
(1790976940.181132) can0 017FFF03#7FFF7FFF00000000
(1790976940.181340) can0 02800365#800080167FFF00DC
(1790976940.181472) can0 017FFF04#7FFF7FFF00000000
(1790976940.181717) can0 02800467#7FFE7F9F7FE500E6
(1790976940.181849) can0 017FFF05#7FFF7FFF00000000
(1790976940.182079) can0 02800569#800C80527FEA00E6
(1790976940.185491) can0 017FFF01#7FFF7FFF00000000
(1790976940.185672) can0 02800161#80008035801200E6
(1790976940.185801) can0 017FFF02#7FFF7FFF00000000
(1790976940.185998) can0 02800263#7FFE80A9801500E6
(1790976940.186129) can0 017FFF03#7FFF7FFF00000000
(1790976940.186336) can0 02800365#80007FAD7FFA00DC
(1790976940.186468) can0 017FFF04#7FFF7FFF00000000
(1790976940.186716) can0 02800467#7FFF7FFD7FF900E6
(1790976940.186848) can0 017FFF05#7FFF7FFF00000000
(1790976940.187040) can0 02800569#800C7FF8800C00E6
(1790976940.190490) can0 017FFF01#7FFF7FFF00000000
(1790976940.190670) can0 02800161#800080397FF500E6
(1790976940.190801) can0 017FFF02#7FFF7FFF00000000
(1790976940.190998) can0 02800263#7FFE7ED3800700E6
(1790976940.191129) can0 017FFF03#7FFF7FFF00000000
(1790976940.191335) can0 02800365#80007FBA801300DC
(1790976940.191467) can0 017FFF04#7FFF7FFF00000000
(1790976940.191715) can0 02800467#7FFF804A801500E6
(1790976940.191847) can0 017FFF05#7FFF7FFF00000000
(1790976940.192077) can0 02800569#800C8033804A00E6
(1790976940.195491) can0 017FFF01#7FFF7FFF00000000
(1790976940.195671) can0 02800161#80007FB77FF500E6
(1790976940.195801) can0 017FFF02#7FFF7FFF00000000
(1790976940.195999) can0 02800263#7FFF807B7FF100E6
(1790976940.196129) can0 017FFF03#7FFF7FFF00000000
(1790976940.196338) can0 02800365#80018032800800DC
(1790976940.196472) can0 017FFF04#7FFF7FFF00000000
(1790976940.196715) can0 02800467#7FFE7FF6801A00E6
(1790976940.196847) can0 017FFF05#7FFF7FFF00000000
(1790976940.197078) can0 02800569#800C80317FE700E6
(1790976940.200494) can0 017FFF01#7FFF7FFF00000000
(1790976940.200666) can0 02800161#800080757FED00E6
(1790976940.200807) can0 017FFF02#7FFF7FFF00000000
(1790976940.201000) can0 02800263#7FFE7FA87FE000E6
(1790976940.201131) can0 017FFF03#7FFF7FFF00000000
(1790976940.201339) can0 02800365#80007FEE7FFA00DC
(1790976940.201471) can0 017FFF04#7FFF7FFF00000000
(1790976940.201714) can0 02800467#7FFE804D800F00E6
(1790976940.201846) can0 017FFF05#7FFF7FFF00000000
(1790976940.202079) can0 02800569#800C80017FC700E6
(1790976940.205491) can0 017FFF01#7FFF7FFF00000000
(1790976940.205672) can0 02800161#80007F837FF700E6
(1790976940.205803) can0 017FFF02#7FFF7FFF00000000
(1790976940.205998) can0 02800263#7FFE7F547FD300E6
(1790976940.206128) can0 017FFF03#7FFF7FFF00000000
(1790976940.206337) can0 02800365#800080127FEE00DC
(1790976940.206469) can0 017FFF04#7FFF7FFF00000000
(1790976940.206715) can0 02800467#7FFF80037F9600E6
(1790976940.206847) can0 017FFF05#7FFF7FFF00000000
(1790976940.207079) can0 02800569#800C7FF87FFA00E6
(1790976940.210490) can0 017FFF01#7FFF7FFF00000000
(1790976940.210672) can0 02800161#80007FC97FFF00E6
(1790976940.210803) can0 017FFF02#7FFF7FFF00000000
(1790976940.210997) can0 02800263#7FFE8084801B00E6
(1790976940.211128) can0 017FFF03#7FFF7FFF00000000
(1790976940.211336) can0 02800365#80007FCD800200DC
(1790976940.211468) can0 017FFF04#7FFF7FFF00000000
(1790976940.211715) can0 02800467#7FFF7FB9800A00E6
(1790976940.211847) can0 017FFF05#7FFF7FFF00000000
(1790976940.212079) can0 02800569#800D7FDF7FD300E6
(1790976940.215492) can0 017FFF01#7FFF7FFF00000000
(1790976940.215672) can0 02800161#80007F0A7FEC00E6
(1790976940.215803) can0 017FFF02#7FFF7FFF00000000
(1790976940.215997) can0 02800263#7FFE7F7B800900E6
(1790976940.216128) can0 017FFF03#7FFF7FFF00000000
(1790976940.216336) can0 02800365#80008014800900DC
(1790976940.216470) can0 017FFF04#7FFF7FFF00000000
(1790976940.216715) can0 02800467#7FFE7FBD802000E6
(1790976940.216847) can0 017FFF05#7FFF7FFF00000000
(1790976940.217077) can0 02800569#800D80317FA500E6
(1790976940.220491) can0 017FFF01#7FFF7FFF00000000
(1790976940.220672) can0 02800161#80008019802100E6
(1790976940.220801) can0 017FFF02#7FFF7FFF00000000
(1790976940.220999) can0 02800263#7FFE8004801A00E6
(1790976940.221130) can0 017FFF03#7FFF7FFF00000000
(1790976940.221339) can0 02800365#80007FE1800E00DC
(1790976940.221471) can0 017FFF04#7FFF7FFF00000000
(1790976940.221715) can0 02800467#7FFF80527FED00E6
(1790976940.221847) can0 017FFF05#7FFF7FFF00000000
(1790976940.222077) can0 02800569#800E80217FCD00E6
(1790976940.225494) can0 017FFF01#7FFF7FFF00000000
(1790976940.225665) can0 02800161#800080C6800D00E6
(1790976940.225806) can0 017FFF02#7FFF7FFF00000000
(1790976940.226000) can0 02800263#7FFE80007FDF00E6
(1790976940.226131) can0 017FFF03#7FFF7FFF00000000
(1790976940.226337) can0 02800365#800180407FFB00DC
(1790976940.226469) can0 017FFF04#7FFF7FFF00000000
(1790976940.226717) can0 02800467#7FFE7FFF800300E6
(1790976940.226848) can0 017FFF05#7FFF7FFF00000000
(1790976940.227078) can0 02800569#800F802F7FCA00E6
(1790976940.230486) can0 017FFF01#7FFF7FFF00000000
(1790976940.230670) can0 02800161#8000804E7FF500E6
(1790976940.230801) can0 017FFF02#7FFF7FFF00000000
(1790976940.230998) can0 02800263#7FFE80257FEB00E6
(1790976940.231129) can0 017FFF03#7FFF7FFF00000000
(1790976940.231336) can0 02800365#800080537FF800DC
(1790976940.231468) can0 017FFF04#7FFF7FFF00000000
(1790976940.231716) can0 02800467#7FFF8049801A00E6
(1790976940.231848) can0 017FFF05#7FFF7FFF00000000
(1790976940.232078) can0 02800569#8010805B7FDF00E6
(1790976940.235487) can0 017FFF01#7FFF7FFF00000000
(1790976940.235672) can0 02800161#800080107FFA00E6
(1790976940.235803) can0 017FFF02#7FFF7FFF00000000
(1790976940.235998) can0 02800263#7FFE80DA7FF500E6
(1790976940.236129) can0 017FFF03#7FFF7FFF00000000
(1790976940.236338) can0 02800365#80007FF47FF400DC
(1790976940.236472) can0 017FFF04#7FFF7FFF00000000
(1790976940.236716) can0 02800467#7FFE7FB6803800E6
(1790976940.236847) can0 017FFF05#7FFF7FFF00000000
(1790976940.237039) can0 02800569#80128065800000E6
(1790976940.240481) can0 017FFF01#7FFF7FFF00000000
(1790976940.240672) can0 02800161#80008100800000E6
(1790976940.240803) can0 017FFF02#7FFF7FFF00000000
(1790976940.241000) can0 02800263#7FFF80CF801300E6
(1790976940.241131) can0 017FFF03#7FFF7FFF00000000
(1790976940.241340) can0 02800365#80007FED7FE800DC
(1790976940.241472) can0 017FFF04#7FFF7FFF00000000
(1790976940.241716) can0 02800467#7FFF80417FF100E6
(1790976940.241848) can0 017FFF05#7FFF7FFF00000000
(1790976940.242079) can0 02800569#801580B07FB300E6
(1790976940.245487) can0 017FFF01#7FFF7FFF00000000
(1790976940.245670) can0 02800161#80007F887FFE00E6
(1790976940.245801) can0 017FFF02#7FFF7FFF00000000
(1790976940.245997) can0 02800263#7FFE7F71800200E6
(1790976940.246128) can0 017FFF03#7FFF7FFF00000000
(1790976940.246337) can0 02800365#80008011800B00DC
(1790976940.246469) can0 017FFF04#7FFF7FFF00000000
(1790976940.246716) can0 02800467#7FFE7FF77FFC00E6
(1790976940.246848) can0 017FFF05#7FFF7FFF00000000
(1790976940.247078) can0 02800569#801880EE7FD000E6
(1790976940.250491) can0 017FFF01#7FFF7FFF00000000
(1790976940.250664) can0 02800161#80007F95800700E6
(1790976940.250806) can0 017FFF02#7FFF7FFF00000000
(1790976940.250998) can0 02800263#7FFE7F597FEC00E6
(1790976940.251129) can0 017FFF03#7FFF7FFF00000000
(1790976940.251336) can0 02800365#80007FAD7FEC00DC
(1790976940.251468) can0 017FFF04#7FFF7FFF00000000
(1790976940.251715) can0 02800467#7FFF80587FFD00E6
(1790976940.251847) can0 017FFF05#7FFF7FFF00000000
(1790976940.252079) can0 02800569#801B81017FE200E6
(1790976940.254841) can0 1200FD01#0A70000000000000
(1790976940.255016) can0 028001FD#800080117FF800E6
(1790976940.255157) can0 017FFF01#7FFF7FFF00000000
(1790976940.255314) can0 028001FD#800080577FF300E6
(1790976940.255455) can0 0400FD01#0000000000000000
(1790976940.255723) can0 1200FD02#0A70000000000000
(1790976940.255893) can0 028002FD#7FFE80097FF900E6
(1790976940.256034) can0 017FFF02#7FFF7FFF00000000
(1790976940.256195) can0 028002FD#7FFF801A801500E6
(1790976940.256336) can0 0400FD02#0000000000000000
(1790976940.256605) can0 1200FD03#0A70000000000000
(1790976940.256794) can0 028003FD#8001802A801C00DC
(1790976940.256924) can0 017FFF03#7FFF7FFF00000000
(1790976940.257133) can0 028003FD#80018049803300DC
(1790976940.257265) can0 0400FD03#0000000000000000
(1790976940.257534) can0 1200FD04#0A70000000000000
(1790976940.257723) can0 028004FD#7FFF803C801D00E6
(1790976940.257855) can0 017FFF04#7FFF7FFF00000000
(1790976940.258066) can0 028004FD#7FFE80537FEA00E6
(1790976940.258207) can0 0400FD04#0000000000000000
(1790976940.258475) can0 1200FD05#0A70000000000000
(1790976940.258633) can0 028005FD#802080C0808300E6
(1790976940.258774) can0 017FFF05#7FFF7FFF00000000
(1790976940.258933) can0 028005FD#802080A0807300E6
(1790976940.259074) can0 0400FD05#0000000000000000
(1790976940.277547) can0 020002FD#7FFF80B87FFF00E6
(1790976940.277685) can0 020001FD#7FFF7F3C7FFF00E6
(1790976940.278026) can0 020003FD#80007FC57FFF00DC
(1790976940.281212) can0 020004FD#7FFF80677FFF00E6
(1790976940.281964) can0 020005FD#801F80A47FFF00E6
