(1790977752.970390) can0 1200FD01#0A70000000000000
(1790977752.970536) can0 020001FD#7FFF7FC57FFF00E6
(1790977752.970676) can0 017FFF01#7FFF7FFF00000000
(1790977752.970832) can0 020001FD#7FFF7FAE7FFF00E6
(1790977752.970972) can0 0400FD01#0000000000000000
(1790977752.971127) can0 020001FD#7FFF803E7FFF00E6
(1790977752.971267) can0 1200FD02#0A70000000000000
(1790977752.971453) can0 020002FD#7FFF80FB7FFF00F0
(1790977752.971589) can0 017FFF02#7FFF7FFF00000000
(1790977752.971745) can0 020002FD#7FFF7FA47FFF00F0
(1790977752.971885) can0 0400FD02#0000000000000000
(1790977752.972045) can0 020002FD#7FFF7F9C7FFF00F0
(1790977752.972183) can0 1200FD03#0A70000000000000
(1790977752.972363) can0 020003FD#80007FE07FFF00DC
(1790977752.972500) can0 017FFF03#7FFF7FFF00000000
(1790977752.972654) can0 020003FD#800080037FFF00DC
(1790977752.972797) can0 0400FD03#0000000000000000
(1790977752.972957) can0 020003FD#8000801F7FFF00DC
(1790977752.973097) can0 1200FD04#0A70000000000000
(1790977752.973275) can0 020004FD#7FFF7FFA7FFF00F0
(1790977752.973414) can0 017FFF04#7FFF7FFF00000000
(1790977752.973569) can0 020004FD#7FFF7FF87FFF00F0
(1790977752.973713) can0 0400FD04#0000000000000000
(1790977752.973870) can0 020004FD#7FFF80097FFF00F0
(1790977752.974008) can0 1200FD05#0A70000000000000
(1790977752.974165) can0 020005FD#801F7FD67FFF00F0
(1790977752.974307) can0 017FFF05#7FFF7FFF00000000
(1790977752.974464) can0 020005FD#801F80037FFF00F0
(1790977752.974606) can0 0400FD05#0000000000000000
(1790977752.974763) can0 020005FD#801E7FE07FFF00F0
(1790977752.974900) can0 1800FD01#0102030405060000
(1790977752.975073) can0 020001FD#7FFF80F17FFF00E6
(1790977752.975207) can0 1800FD02#0102030405060000
(1790977752.975363) can0 020002FD#7FFF7FF77FFF00F0
(1790977752.975501) can0 1800FD03#0102030405060000
(1790977752.975657) can0 020003FD#80007FE47FFF00DC
(1790977752.975797) can0 1800FD04#0102030405060000
(1790977752.975971) can0 020004FD#7FFF7FD47FFF00F0
(1790977752.976104) can0 1800FD05#0102030405060000
(1790977752.976259) can0 020005FD#801F805D7FFF00F0
(1790977752.976399) can0 04008001#00C4000000000000
(1790977752.976570) can0 02000180#00C4560003012A07
(1790977752.976866) can0 00008101#0000000000000000
(1790977752.977019) can0 000001FE#457B30020C323817
(1790977752.977934) can0 11008201#0570000000000000
(1790977752.978094) can0 11000182#0570000000000000
(1790977752.978994) can0 11008301#1970000000000000
(1790977752.979173) can0 11000183#1970000000000000
(1790977752.980054) can0 11008401#1B70000000000000
(1790977752.980224) can0 11000184#1B70000000000000
(1790977752.981115) can0 11008501#2870000000000000
(1790977752.981272) can0 11000185#2870000058020000
(1790977752.982172) can0 11008601#2970000000000000
(1790977752.982333) can0 11000186#2970000000000000
(1790977752.983234) can0 11008701#2B70000000000000
(1790977752.983393) can0 11000187#2B70000000000000
(1790977752.984293) can0 04008802#00C4000000000000
(1790977752.984450) can0 02000288#00C4560003012A07
(1790977752.985358) can0 00008902#0000000000000000
(1790977752.985512) can0 000002FE#785630020C343701
(1790977752.986413) can0 11008A02#0570000000000000
(1790977752.986597) can0 1100028A#0570000000000000
(1790977752.987473) can0 11008B02#1970000000000000
(1790977752.987643) can0 1100028B#197000001DC7B2B8
(1790977752.988533) can0 11008C02#1B70000000000000
(1790977752.988700) can0 1100028C#1B70000000000000
(1790977752.989595) can0 11008D02#2870000000000000
(1790977752.989751) can0 1100028D#2870000058020000
(1790977752.990653) can0 11008E02#2970000000000000
(1790977752.990811) can0 1100028E#2970000000000000
(1790977752.991713) can0 11008F02#2B70000000000000
(1790977752.991898) can0 1100028F#2B70000000000000
(1790977752.992775) can0 04009003#00C4000000000000
(1790977752.992956) can0 02000390#00C4560002032207
(1790977752.993837) can0 00009103#0000000000000000
(1790977752.994001) can0 000003FE#9D6A3B859C023019
(1790977752.994894) can0 11009203#0570000000000000
(1790977752.995059) can0 11000392#0570000000000000
(1790977752.995953) can0 11009303#1970000000000000
(1790977752.996106) can0 11000393#19700000638CCF39
(1790977752.997016) can0 11009403#1B70000000000000
(1790977752.997171) can0 11000394#1B70000027CD1BBD
(1790977752.998074) can0 11009503#2870000000000000
(1790977752.998254) can0 11000395#2870000058020000
(1790977752.999134) can0 11009603#2970000000000000
(1790977752.999308) can0 11000396#2970000000000000
(1790977753.000196) can0 11009703#2B70000000000000
(1790977753.000359) can0 11000397#2B70000000000000
(1790977753.001258) can0 04009804#00C4000000000000
(1790977753.001418) can0 02000498#00C4560002032207
(1790977753.002319) can0 00009904#0000000000000000
(1790977753.002471) can0 000004FE#8A063B8F2450B00D
(1790977753.003374) can0 11009A04#0570000000000000
(1790977753.003534) can0 1100049A#0570000000000000
(1790977753.004434) can0 11009B04#1970000000000000
(1790977753.004612) can0 1100049B#19700000E79CCFB8
(1790977753.005495) can0 11009C04#1B70000000000000
(1790977753.005667) can0 1100049C#1B7000007CA339BD
(1790977753.006553) can0 11009D04#2870000000000000
(1790977753.006718) can0 1100049D#2870000058020000
(1790977753.007613) can0 11009E04#2970000000000000
(1790977753.007772) can0 1100049E#2970000000000000
(1790977753.008675) can0 11009F04#2B70000000000000
(1790977753.008835) can0 1100049F#2B70000000000000
(1790977753.009734) can0 0400A005#00C4000000000000
(1790977753.009909) can0 020005A0#00C4560000032007
(1790977753.010794) can0 0000A105#0000000000000000
(1790977753.010954) can0 000005FE#622C30020C343701
(1790977753.011850) can0 1100A205#0570000000000000
(1790977753.012009) can0 110005A2#0570000000000000
(1790977753.012912) can0 1100A305#1970000000000000
(1790977753.013066) can0 110005A3#197000004D2D473C
(1790977753.013971) can0 1100A405#1B70000000000000
(1790977753.014125) can0 110005A4#1B700000ACCAB4BC
(1790977753.015030) can0 1100A505#2870000000000000
(1790977753.015208) can0 110005A5#2870000058020000
(1790977753.016092) can0 1100A605#2970000000000000
(1790977753.016260) can0 110005A6#2970000000000000
(1790977753.017155) can0 1100A705#2B70000000000000
(1790977753.017312) can0 110005A7#2B70000000000000
(1790977753.018240) can0 1200FD01#0A70000000000000
(1790977753.018424) can0 020001FD#7FFF7F627FFF00E6
(1790977753.018560) can0 017FFF01#7FFF7FFF00000000
(1790977753.018716) can0 020001FD#7FFF7FF57FFF00E6
(1790977753.018857) can0 0400FD01#0000000000000000
(1790977753.019018) can0 020001FD#7FFF7FFE7FFF00E6
(1790977753.019157) can0 1200FD02#0A70000000000000
(1790977753.019313) can0 020002FD#7FFF7FA77FFF00F0
(1790977753.019454) can0 017FFF02#7FFF7FFF00000000
(1790977753.019611) can0 020002FD#7FFF80AC7FFF00F0
(1790977753.019751) can0 0400FD02#0000000000000000
(1790977753.019906) can0 020002FD#7FFF804C7FFF00F0
(1790977753.020045) can0 1200FD03#0A70000000000000
(1790977753.020205) can0 020003FD#8001806A7FFF00DC
(1790977753.020346) can0 017FFF03#7FFF7FFF00000000
(1790977753.020506) can0 020003FD#800080147FFF00DC
(1790977753.020646) can0 0400FD03#0000000000000000
(1790977753.020805) can0 020003FD#80007F5E7FFF00DC
(1790977753.020944) can0 1200FD04#0A70000000000000
(1790977753.021124) can0 020004FD#7FFF801E7FFF00F0
(1790977753.021262) can0 017FFF04#7FFF7FFF00000000
(1790977753.021419) can0 020004FD#7FFF7FE17FFF00F0
(1790977753.021564) can0 0400FD04#0000000000000000
(1790977753.021720) can0 020004FD#7FFF80037FFF00F0
(1790977753.021859) can0 1200FD05#0A70000000000000
(1790977753.022016) can0 020005FD#801F802D7FFF00F0
(1790977753.022159) can0 017FFF05#7FFF7FFF00000000
(1790977753.022314) can0 020005FD#801E7FD47FFF00F0
(1790977753.022454) can0 0400FD05#0000000000000000
(1790977753.022611) can0 020005FD#801F7FDF7FFF00F0
(1790977753.022747) can0 1200FD01#2870000058020000
(1790977753.022921) can0 020001FD#7FFF7FAB7FFF00E6
(1790977753.023056) can0 1100B001#2870000000000000
(1790977753.023219) can0 110001B0#2870000058020000
(1790977753.023555) can0 1200FD02#2870000058020000
(1790977753.023710) can0 020002FD#7FFF7FDE7FFF00F0
(1790977753.023848) can0 1100B102#2870000000000000
(1790977753.024006) can0 110002B1#2870000058020000
(1790977753.024619) can0 1200FD03#2870000058020000
(1790977753.024805) can0 020003FD#80007F7F7FFF00DC
(1790977753.024938) can0 1100B203#2870000000000000
(1790977753.025106) can0 110003B2#2870000058020000
(1790977753.025684) can0 1200FD04#2870000058020000
(1790977753.025868) can0 020004FD#7FFF7FB97FFF00F0
(1790977753.026001) can0 1100B304#2870000000000000
(1790977753.026169) can0 110004B3#2870000058020000
(1790977753.026747) can0 1200FD05#2870000058020000
(1790977753.026908) can0 020005FD#801F7FE67FFF00F0
(1790977753.027045) can0 1100B405#2870000000000000
(1790977753.027208) can0 110005B4#2870000058020000
(1790977753.027811) can0 0600D001#0100000000000000
(1790977753.027972) can0 020001D0#7FFF800A7FFF00E6
(1790977753.028870) can0 1100E001#1970000000000000
(1790977753.029026) can0 110001E0#19700000AB0A0639
(1790977753.029932) can0 0600D102#0100000000000000
(1790977753.030100) can0 020002D1#7FFF80347FFF00F0
(1790977753.030991) can0 1100E102#1970000000000000
(1790977753.031150) can0 110002E1#1970000000000000
(1790977753.032052) can0 0600D203#0100000000000000
(1790977753.032212) can0 020003D2#7FFF7FFD7FFF00DC
(1790977753.033113) can0 1100E203#1970000000000000
(1790977753.033268) can0 110003E2#197000006BAD1BB9
(1790977753.034176) can0 0600D304#0100000000000000
(1790977753.034337) can0 020004D3#7FFF801D7FFF00F0
(1790977753.035233) can0 1100E304#1970000000000000
(1790977753.035410) can0 110004E3#19700000DF7B4F38
(1790977753.036294) can0 0600D405#0100000000000000
(1790977753.036461) can0 020005D4#7FFF80447FFF00F0
(1790977753.037354) can0 1100E405#1970000000000000
(1790977753.037509) can0 110005E4#197000009AD9A0B8
(1790977753.038415) can0 1100C001#2870000000000000
(1790977753.038573) can0 110001C0#2870000058020000
(1790977753.039478) can0 1100C102#2870000000000000
(1790977753.039650) can0 110002C1#2870000058020000
(1790977753.040538) can0 1100C203#2870000000000000
(1790977753.040707) can0 110003C2#2870000058020000
(1790977753.041597) can0 1100C304#2870000000000000
(1790977753.041768) can0 110004C3#2870000058020000
(1790977753.042656) can0 1100C405#2870000000000000
(1790977753.042814) can0 110005C4#2870000058020000
(1790977753.044387) can0 1200FD01#0A70000000000000
(1790977753.044571) can0 020001FD#7FFF80087FFF00E6
(1790977753.044706) can0 017FFF01#7FFF7FFF00000000
(1790977753.044866) can0 020001FD#7FFF7FC87FFF00E6
(1790977753.045007) can0 0400FD01#0000000000000000
(1790977753.045167) can0 020001FD#7FFF7F407FFF00E6
(1790977753.045306) can0 1200FD02#0A70000000000000
(1790977753.045462) can0 020002FD#7FFF7FB47FFF00F0
(1790977753.045604) can0 017FFF02#7FFF7FFF00000000
(1790977753.045758) can0 020002FD#7FFF806D7FFF00F0
(1790977753.045899) can0 0400FD02#0000000000000000
(1790977753.046057) can0 020002FD#7FFF800D7FFF00F0
(1790977753.046195) can0 1200FD03#0A70000000000000
(1790977753.046354) can0 020003FD#7FFF803A7FFF00DC
(1790977753.046495) can0 017FFF03#7FFF7FFF00000000
(1790977753.046652) can0 020003FD#7FFE7F587FFF00DC
(1790977753.046795) can0 0400FD03#0000000000000000
(1790977753.046953) can0 020003FD#7FFE7FA87FFF00DC
(1790977753.047093) can0 1200FD04#0A70000000000000
(1790977753.047273) can0 020004FD#7FFF80157FFF00F0
(1790977753.047410) can0 017FFF04#7FFF7FFF00000000
(1790977753.047568) can0 020004FD#7FFF7FE17FFF00F0
(1790977753.047712) can0 0400FD04#0000000000000000
(1790977753.047867) can0 020004FD#7FFF802B7FFF00F0
(1790977753.048005) can0 1200FD05#0A70000000000000
(1790977753.048163) can0 020005FD#7FFF7FF67FFF00F0
(1790977753.048306) can0 017FFF05#7FFF7FFF00000000
(1790977753.048462) can0 020005FD#7FFF800B7FFF00F0
(1790977753.048604) can0 0400FD05#0000000000000000
(1790977753.048764) can0 020005FD#7FFF7FD67FFF00F0
(1790977753.071026) can0 11004001#1970000000000000
(1790977753.071181) can0 11000140#19700000AB0A0639
(1790977753.072086) can0 11004101#2870000000000000
(1790977753.072266) can0 11000141#2870000058020000
(1790977753.073145) can0 11004202#1970000000000000
(1790977753.073299) can0 11000242#19700000390E0639
(1790977753.074205) can0 11004302#2870000000000000
(1790977753.074363) can0 11000243#2870000058020000
(1790977753.075266) can0 11004403#1970000000000000
(1790977753.075421) can0 11000344#197000006BAD1BB9
(1790977753.076325) can0 11004503#2870000000000000
(1790977753.076505) can0 11000345#2870000058020000
(1790977753.077387) can0 11004604#1970000000000000
(1790977753.077565) can0 11000446#19700000DF7B4F38
(1790977753.078446) can0 11004704#2870000000000000
(1790977753.078617) can0 11000447#2870000058020000
(1790977753.079506) can0 11004805#1970000000000000
(1790977753.079661) can0 11000548#197000009AD9A0B8
(1790977753.080567) can0 11004905#2870000000000000
(1790977753.080724) can0 11000549#2870000058020000
(1790977753.081933) can0 0300FD01#0000000000000000
(1790977753.082194) can0 1200FD01#0570000000000000
(1790977753.082454) can0 0300FD02#0000000000000000
(1790977753.082711) can0 1200FD02#0570000000000000
(1790977753.082972) can0 0300FD03#0000000000000000
(1790977753.083230) can0 1200FD03#0570000000000000
(1790977753.083378) can0 028001FD#7FFF80777FF100E6
(1790977753.083520) can0 0300FD04#0000000000000000
(1790977753.083668) can0 028001FD#7FFF80797FE100E6
(1790977753.083808) can0 1200FD04#0570000000000000
(1790977753.083955) can0 028002FD#7FFF7F90803B00F0
(1790977753.084095) can0 0300FD05#0000000000000000
(1790977753.084352) can0 1200FD05#0570000000000000
(1790977753.084503) can0 028003FD#7FFE7FF37FCF00DC
(1790977753.084641) can0 017FFF01#7FFF7FFF00000000
(1790977753.084790) can0 028002FD#80008049803A00F0
(1790977753.084931) can0 017FFF02#7FFF7FFF00000000
(1790977753.085078) can0 028001FD#7FFF7F877FC600E6
(1790977753.085220) can0 017FFF03#7FFF7FFF00000000
(1790977753.085367) can0 028002FD#7FFF7F9A803200F0
(1790977753.085509) can0 017FFF04#7FFF7FFF00000000
(1790977753.085657) can0 028003FD#7FFE7FA97FB500DC
(1790977753.085799) can0 017FFF05#7FFF7FFF00000000
(1790977753.085948) can0 028004FD#7FFF801D804200F0
(1790977753.086096) can0 028004FD#7FFF7FAE805400F0
(1790977753.086240) can0 028004FD#7FFF8043804500F0
(1790977753.086375) can0 028005FD#7FFF7F9E7FE700F0
(1790977753.086514) can0 11006001#1970000000000000
(1790977753.086663) can0 028005FD#7FFF7FC97FE200F0
(1790977753.086805) can0 017FFF01#7FFF7FFF00000000
(1790977753.086955) can0 028005FD#7FFF80227FDC00F0
(1790977753.087097) can0 017FFF02#7FFF7FFF00000000
(1790977753.087248) can0 02800160#7FFF7FEA7FBC00E6
(1790977753.087389) can0 017FFF03#7FFF7FFF00000000
(1790977753.087539) can0 028002FD#7FFF8013803600F0
(1790977753.087681) can0 017FFF04#7FFF7FFF00000000
(1790977753.087831) can0 028003FD#7FFE80217FF400DC
(1790977753.087973) can0 017FFF05#7FFF7FFF00000000
(1790977753.088122) can0 028003FD#7FFF7FF67FDB00DC
(1790977753.088264) can0 017FFF01#7FFF7FFF00000000
(1790977753.088411) can0 028004FD#7FFF7FB17FF200F0
(1790977753.088554) can0 017FFF02#7FFF7FFF00000000
(1790977753.088701) can0 02800160#7FFF7FAA7FD300E6
(1790977753.088842) can0 017FFF03#7FFF7FFF00000000
(1790977753.088990) can0 028002FD#80008082804700F0
(1790977753.089133) can0 017FFF04#7FFF7FFF00000000
(1790977753.089282) can0 028003FD#7FFE80157FE500DC
(1790977753.089424) can0 017FFF05#7FFF7FFF00000000
(1790977753.089577) can0 028004FD#7FFF7FA7802F00F0
(1790977753.089721) can0 028005FD#7FFF7FA87FE700F0
(1790977753.089865) can0 028005FD#7FFF800F7FFA00F0
(1790977753.090001) can0 11000160#19700000E4B83238
(1790977753.090554) can0 11006101#2870000000000000
(1790977753.090733) can0 11000161#2870000058020000
(1790977753.090869) can0 017FFF01#7FFF7FFF00000000
(1790977753.091027) can0 02800161#7FFF80967FC600E6
(1790977753.091169) can0 017FFF02#7FFF7FFF00000000
(1790977753.091363) can0 028002FD#7FFF7FD3804200F0
(1790977753.091499) can0 017FFF03#7FFF7FFF00000000
(1790977753.091718) can0 028003FD#7FFF803F7FD100DC
(1790977753.091855) can0 017FFF04#7FFF7FFF00000000
(1790977753.092080) can0 028004FD#7FFF7FE8806100F0
(1790977753.092218) can0 017FFF05#7FFF7FFF00000000
(1790977753.092421) can0 028005FD#7FFF7FF67FF000F0
(1790977753.092554) can0 11006202#1970000000000000
(1790977753.092703) can0 11000262#19700000ABAAB2B8
(1790977753.092844) can0 017FFF01#7FFF7FFF00000000
(1790977753.093035) can0 02800161#7FFF7F6B7FD900E6
(1790977753.093171) can0 017FFF02#7FFF7FFF00000000
(1790977753.093363) can0 02800262#7FFF7FE7803100F0
(1790977753.093499) can0 017FFF03#7FFF7FFF00000000
(1790977753.093718) can0 028003FD#7FFF80127FC900DC
(1790977753.093855) can0 017FFF04#7FFF7FFF00000000
(1790977753.094082) can0 028004FD#7FFF805D801000F0
(1790977753.094220) can0 017FFF05#7FFF7FFF00000000
(1790977753.094423) can0 028005FD#7FFF7FF57FF600F0
(1790977753.094557) can0 11006302#2870000000000000
(1790977753.094709) can0 11000263#2870000058020000
(1790977753.094850) can0 017FFF01#7FFF7FFF00000000
(1790977753.095035) can0 02800161#7FFF80537FE600E6
(1790977753.095171) can0 017FFF02#7FFF7FFF00000000
(1790977753.095364) can0 02800263#7FFF807B801F00F0
(1790977753.095500) can0 017FFF03#7FFF7FFF00000000
(1790977753.095718) can0 028003FD#7FFF8023800200DC
(1790977753.095856) can0 017FFF04#7FFF7FFF00000000
(1790977753.096081) can0 028004FD#7FFF7FA6801D00F0
(1790977753.096219) can0 017FFF05#7FFF7FFF00000000
(1790977753.096423) can0 028005FD#7FFF7FE0800200F0
(1790977753.096556) can0 11006403#1970000000000000
(1790977753.096725) can0 11000364#19700000DF7B4FB8
(1790977753.096859) can0 017FFF01#7FFF7FFF00000000
(1790977753.097036) can0 02800161#800080A07FF400E6
(1790977753.097172) can0 017FFF02#7FFF7FFF00000000
(1790977753.097365) can0 02800263#7FFF7F5C801700F0
(1790977753.097501) can0 017FFF03#7FFF7FFF00000000
(1790977753.097718) can0 02800364#7FFF7FD3800D00DC
(1790977753.097856) can0 017FFF04#7FFF7FFF00000000
(1790977753.098082) can0 028004FD#7FFF80267FFE00F0
(1790977753.098219) can0 017FFF05#7FFF7FFF00000000
(1790977753.098424) can0 028005FD#7FFF7FD47FDC00F0
(1790977753.098556) can0 11006503#2870000000000000
(1790977753.098724) can0 11000365#2870000058020000
(1790977753.098859) can0 017FFF01#7FFF7FFF00000000
(1790977753.099034) can0 02800161#7FFF7FAB7FD400E6
(1790977753.099170) can0 017FFF02#7FFF7FFF00000000
(1790977753.099361) can0 02800263#7FFF7FD5801700F0
(1790977753.099499) can0 017FFF03#7FFF7FFF00000000
(1790977753.099718) can0 02800365#7FFF7FA3802500DC
(1790977753.099855) can0 017FFF04#7FFF7FFF00000000
(1790977753.100082) can0 028004FD#7FFF805F7FE500F0
(1790977753.100219) can0 017FFF05#7FFF7FFF00000000
(1790977753.100423) can0 028005FD#7FFF7FF87FD400F0
(1790977753.100557) can0 11006604#1970000000000000
(1790977753.100732) can0 11000466#197000006BAD1BB9
(1790977753.100868) can0 017FFF01#7FFF7FFF00000000
(1790977753.101036) can0 02800161#80007FBF7FDA00E6
(1790977753.101171) can0 017FFF02#7FFF7FFF00000000
(1790977753.101363) can0 02800263#7FFF80F8801D00F0
(1790977753.101499) can0 017FFF03#7FFF7FFF00000000
(1790977753.101720) can0 02800365#7FFF803E800000DC
(1790977753.101857) can0 017FFF04#7FFF7FFF00000000
(1790977753.102081) can0 02800466#7FFE8004801300F0
(1790977753.102218) can0 017FFF05#7FFF7FFF00000000
(1790977753.102422) can0 028005FD#7FFF7FC97FDF00F0
(1790977753.102557) can0 11006704#2870000000000000
(1790977753.102737) can0 11000467#2870000058020000
(1790977753.102873) can0 017FFF01#7FFF7FFF00000000
(1790977753.103028) can0 02800161#80007FB87FD400E6
(1790977753.103170) can0 017FFF02#7FFF7FFF00000000
(1790977753.103363) can0 02800263#7FFF7FC6800700F0
(1790977753.103499) can0 017FFF03#7FFF7FFF00000000
(1790977753.103719) can0 02800365#7FFF7FFD7FF300DC
(1790977753.103856) can0 017FFF04#7FFF7FFF00000000
(1790977753.104079) can0 02800467#7FFF8076803800F0
(1790977753.104216) can0 017FFF05#7FFF7FFF00000000
(1790977753.104420) can0 028005FD#7FFF801E7FFD00F0
(1790977753.104556) can0 1200FD01#0A70000000000000
(1790977753.104733) can0 028001FD#800080267FD600E6
(1790977753.104870) can0 017FFF01#7FFF7FFF00000000
(1790977753.105037) can0 028001FD#800080227FF400E6
(1790977753.105172) can0 0400FD01#0000000000000000
(1790977753.105429) can0 1200FD02#0A70000000000000
(1790977753.105614) can0 028002FD#7FFF7F737FFF00F0
(1790977753.105750) can0 017FFF02#7FFF7FFF00000000
(1790977753.105909) can0 028002FD#7FFF7F1A801300F0
(1790977753.106049) can0 0400FD02#0000000000000000
(1790977753.106306) can0 1200FD03#0A70000000000000
(1790977753.106518) can0 028003FD#7FFF7FFD7FFA00DC
(1790977753.106655) can0 017FFF03#7FFF7FFF00000000
(1790977753.106869) can0 028003FD#7FFF801D800500DC
(1790977753.107006) can0 0400FD03#0000000000000000
(1790977753.107263) can0 1200FD04#0A70000000000000
(1790977753.107479) can0 028004FD#7FFF80337FF600F0
(1790977753.107616) can0 017FFF04#7FFF7FFF00000000
(1790977753.107832) can0 028004FD#7FFF8019801100F0
(1790977753.107971) can0 0400FD04#0000000000000000
(1790977753.108228) can0 1200FD05#0A70000000000000
(1790977753.108427) can0 028005FD#7FFF80277FE900F0
(1790977753.108565) can0 017FFF05#7FFF7FFF00000000
(1790977753.108767) can0 028005FD#7FFF80247FE200F0
(1790977753.108904) can0 0400FD05#0000000000000000
(1790977753.127268) can0 020002FD#7FFF80297FFF00F0
(1790977753.127402) can0 020001FD#7FFF802A7FFF00E6
(1790977753.127568) can0 020003FD#7FFF7FC77FFF00DC
(1790977753.130683) can0 020004FD#7FFF80627FFF00E6
(1790977753.131768) can0 020005FD#7FFF7FE07FFF00F0
