(1790978560.063397) can0 1200FD01#0A70000000000000
(1790978560.063545) can0 020001FD#801F7FE67FFF00F0
(1790978560.063685) can0 017FFF01#7FFF7FFF00000000
(1790978560.063841) can0 020001FD#801F804C7FFF00F0
(1790978560.063981) can0 0400FD01#0000000000000000
(1790978560.064142) can0 020001FD#801F7F577FFF00F0
(1790978560.064280) can0 1200FD02#0A70000000000000
(1790978560.064438) can0 020002FD#7FFF807B7FFF00F0
(1790978560.064580) can0 017FFF02#7FFF7FFF00000000
(1790978560.064735) can0 020002FD#7FFF7FDB7FFF00F0
(1790978560.064875) can0 0400FD02#0000000000000000
(1790978560.065030) can0 020002FD#7FFF7EF17FFF00F0
(1790978560.065169) can0 1200FD03#0A70000000000000
(1790978560.065324) can0 020003FD#7FFF80357FFF00E6
(1790978560.065466) can0 017FFF03#7FFF7FFF00000000
(1790978560.065622) can0 020003FD#7FFF7FEF7FFF00E6
(1790978560.065764) can0 0400FD03#0000000000000000
(1790978560.065920) can0 020003FD#7FFF7FB47FFF00E6
(1790978560.066059) can0 1200FD04#0A70000000000000
(1790978560.066244) can0 020004FD#7FFF7FEA7FFF00F0
(1790978560.066381) can0 017FFF04#7FFF7FFF00000000
(1790978560.066540) can0 020004FD#7FFF7FE87FFF00F0
(1790978560.066685) can0 0400FD04#0000000000000000
(1790978560.066843) can0 020004FD#7FFF80157FFF00F0
(1790978560.066981) can0 1200FD05#0A70000000000000
(1790978560.067164) can0 020005FD#7FFE7FDE7FFF00F0
(1790978560.067301) can0 017FFF05#7FFF7FFF00000000
(1790978560.067457) can0 020005FD#7FFE80127FFF00F0
(1790978560.067598) can0 0400FD05#0000000000000000
(1790978560.067756) can0 020005FD#7FFE80227FFF00F0
(1790978560.067893) can0 1800FD01#0102030405060000
(1790978560.068050) can0 020001FD#801F80397FFF00F0
(1790978560.068189) can0 1800FD02#0102030405060000
(1790978560.068346) can0 020002FD#7FFF804D7FFF00F0
(1790978560.068484) can0 1800FD03#0102030405060000
(1790978560.068662) can0 020003FD#7FFF80257FFF00E6
(1790978560.068796) can0 1800FD04#0102030405060000
(1790978560.068952) can0 020004FD#7FFF80247FFF00F0
(1790978560.069089) can0 1800FD05#0102030405060000
(1790978560.069262) can0 020005FD#7FFE7FD87FFF00F0
(1790978560.069396) can0 04008001#00C4000000000000
(1790978560.069554) can0 02000180#00C4560003012A07
(1790978560.070839) can0 00008101#0000000000000000
(1790978560.070992) can0 000001FE#457B30020C323817
(1790978560.071907) can0 11008201#0570000000000000
(1790978560.072068) can0 11000182#0570000000000000
(1790978560.072967) can0 11008301#1970000000000000
(1790978560.073140) can0 11000183#1970000072AA473C
(1790978560.074025) can0 11008401#1B70000000000000
(1790978560.074197) can0 11000184#1B70000000000000
(1790978560.075084) can0 11008501#2870000000000000
(1790978560.075242) can0 11000185#2870000058020000
(1790978560.076140) can0 11008601#2970000000000000
(1790978560.076300) can0 11000186#2970000000000000
(1790978560.077202) can0 11008701#2B70000000000000
(1790978560.077360) can0 11000187#2B70000000000000
(1790978560.078260) can0 04008802#00C4000000000000
(1790978560.078430) can0 02000288#00C4560003012A07
(1790978560.079323) can0 00008902#0000000000000000
(1790978560.079477) can0 000002FE#785630020C343701
(1790978560.080376) can0 11008A02#0570000000000000
(1790978560.080535) can0 1100028A#0570000000000000
(1790978560.081435) can0 11008B02#1970000000000000
(1790978560.081594) can0 1100028B#1970000000000000
(1790978560.082493) can0 11008C02#1B70000000000000
(1790978560.082652) can0 1100028C#1B70000000000000
(1790978560.083553) can0 11008D02#2870000000000000
(1790978560.083731) can0 1100028D#2870000058020000
(1790978560.084611) can0 11008E02#2970000000000000
(1790978560.084783) can0 1100028E#2970000000000000
(1790978560.085670) can0 11008F02#2B70000000000000
(1790978560.085835) can0 1100028F#2B70000000000000
(1790978560.086730) can0 04009003#00C4000000000000
(1790978560.086908) can0 02000390#00C4560002032207
(1790978560.087791) can0 00009103#0000000000000000
(1790978560.087952) can0 000003FE#9D6A3B859C023019
(1790978560.088847) can0 11009203#0570000000000000
(1790978560.089011) can0 11000392#0570000000000000
(1790978560.089905) can0 11009303#1970000000000000
(1790978560.090057) can0 11000393#197000006BAD1BB9
(1790978560.090965) can0 11009403#1B70000000000000
(1790978560.091119) can0 11000394#1B7000000D47203D
(1790978560.092022) can0 11009503#2870000000000000
(1790978560.092178) can0 11000395#2870000058020000
(1790978560.093083) can0 11009603#2970000000000000
(1790978560.093259) can0 11000396#2970000000000000
(1790978560.094142) can0 11009703#2B70000000000000
(1790978560.094310) can0 11000397#2B70000000000000
(1790978560.095201) can0 04009804#00C4000000000000
(1790978560.095357) can0 02000498#00C4560002032207
(1790978560.096262) can0 00009904#0000000000000000
(1790978560.096436) can0 000004FE#8A063B8F2450B00D
(1790978560.097318) can0 11009A04#0570000000000000
(1790978560.097495) can0 1100049A#0570000000000000
(1790978560.098378) can0 11009B04#1970000000000000
(1790978560.098545) can0 1100049B#1970000000000000
(1790978560.099437) can0 11009C04#1B70000000000000
(1790978560.099591) can0 1100049C#1B700000A40708BD
(1790978560.100494) can0 11009D04#2870000000000000
(1790978560.100650) can0 1100049D#2870000058020000
(1790978560.101558) can0 11009E04#2970000000000000
(1790978560.101713) can0 1100049E#2970000000000000
(1790978560.102613) can0 11009F04#2B70000000000000
(1790978560.102795) can0 1100049F#2B70000000000000
(1790978560.103673) can0 0400A005#00C4000000000000
(1790978560.103832) can0 020005A0#00C4560000032007
(1790978560.104721) can0 0000A105#0000000000000000
(1790978560.104874) can0 000005FE#622C30020C343701
(1790978560.105776) can0 1100A205#0570000000000000
(1790978560.105956) can0 110005A2#0570000000000000
(1790978560.106835) can0 1100A305#1970000000000000
(1790978560.107005) can0 110005A3#197000009A29DDB9
(1790978560.107892) can0 1100A405#1B70000000000000
(1790978560.108058) can0 110005A4#1B700000FFD2593D
(1790978560.108953) can0 1100A505#2870000000000000
(1790978560.109111) can0 110005A5#2870000058020000
(1790978560.110012) can0 1100A605#2970000000000000
(1790978560.110171) can0 110005A6#2970000000000000
(1790978560.111070) can0 1100A705#2B70000000000000
(1790978560.111230) can0 110005A7#2B70000000000000
(1790978560.112151) can0 1200FD01#0A70000000000000
(1790978560.112307) can0 020001FD#801F7F4A7FFF00F0
(1790978560.112448) can0 017FFF01#7FFF7FFF00000000
(1790978560.112606) can0 020001FD#801F801C7FFF00F0
(1790978560.112746) can0 0400FD01#0000000000000000
(1790978560.112901) can0 020001FD#801F805B7FFF00F0
(1790978560.113039) can0 1200FD02#0A70000000000000
(1790978560.113195) can0 020002FD#7FFF7F587FFF00F0
(1790978560.113337) can0 017FFF02#7FFF7FFF00000000
(1790978560.113493) can0 020002FD#7FFF7F877FFF00F0
(1790978560.113634) can0 0400FD02#0000000000000000
(1790978560.113790) can0 020002FD#7FFF804B7FFF00F0
(1790978560.113928) can0 1200FD03#0A70000000000000
(1790978560.114113) can0 020003FD#7FFF7FEC7FFF00E6
(1790978560.114249) can0 017FFF03#7FFF7FFF00000000
(1790978560.114407) can0 020003FD#7FFF7FFD7FFF00E6
(1790978560.114549) can0 0400FD03#0000000000000000
(1790978560.114707) can0 020003FD#7FFF7FF37FFF00E6
(1790978560.114846) can0 1200FD04#0A70000000000000
(1790978560.115003) can0 020004FD#7FFF80247FFF00F0
(1790978560.115146) can0 017FFF04#7FFF7FFF00000000
(1790978560.115302) can0 020004FD#7FFF803A7FFF00F0
(1790978560.115446) can0 0400FD04#0000000000000000
(1790978560.115603) can0 020004FD#7FFF80627FFF00F0
(1790978560.115741) can0 1200FD05#0A70000000000000
(1790978560.115913) can0 020005FD#7FFE80207FFF00F0
(1790978560.116050) can0 017FFF05#7FFF7FFF00000000
(1790978560.116207) can0 020005FD#7FFE7FE87FFF00F0
(1790978560.116349) can0 0400FD05#0000000000000000
(1790978560.116509) can0 020005FD#7FFE7FDE7FFF00F0
(1790978560.116644) can0 1200FD01#2870000058020000
(1790978560.116800) can0 020001FD#801F7EEB7FFF00F0
(1790978560.116939) can0 1100B001#2870000000000000
(1790978560.117097) can0 110001B0#2870000058020000
(1790978560.117454) can0 1200FD02#2870000058020000
(1790978560.117637) can0 020002FD#7FFF7FFE7FFF00F0
(1790978560.117770) can0 1100B102#2870000000000000
(1790978560.117931) can0 110002B1#2870000058020000
(1790978560.118515) can0 1200FD03#2870000058020000
(1790978560.118670) can0 020003FD#7FFF7FB27FFF00E6
(1790978560.118808) can0 1100B203#2870000000000000
(1790978560.118966) can0 110003B2#2870000058020000
(1790978560.119579) can0 1200FD04#2870000058020000
(1790978560.119746) can0 020004FD#7FFF7FCA7FFF00F0
(1790978560.119879) can0 1100B304#2870000000000000
(1790978560.120043) can0 110004B3#2870000058020000
(1790978560.120641) can0 1200FD05#2870000058020000
(1790978560.120812) can0 020005FD#7FFE800E7FFF00F0
(1790978560.120945) can0 1100B405#2870000000000000
(1790978560.121109) can0 110005B4#2870000058020000
(1790978560.121705) can0 0600D001#0100000000000000
(1790978560.122094) can0 020001D0#7FFF806D7FFF00F0
(1790978560.122763) can0 1100E001#1970000000000000
(1790978560.122946) can0 110001E0#1970000000000000
(1790978560.123822) can0 0600D102#0100000000000000
(1790978560.123982) can0 020002D1#7FFF80457FFF00F0
(1790978560.124881) can0 1100E102#1970000000000000
(1790978560.125038) can0 110002E1#1970000000000000
(1790978560.125941) can0 0600D203#0100000000000000
(1790978560.126112) can0 020003D2#7FFF80167FFF00E6
(1790978560.127001) can0 1100E203#1970000000000000
(1790978560.127155) can0 110003E2#19700000E79CCF38
(1790978560.128062) can0 0600D304#0100000000000000
(1790978560.128244) can0 020004D3#7FFF7FCA7FFF00F0
(1790978560.129121) can0 1100E304#1970000000000000
(1790978560.129290) can0 110004E3#19700000EFBD4F38
(1790978560.130179) can0 0600D405#0100000000000000
(1790978560.130360) can0 020005D4#7FFF80477FFF00F0
(1790978560.131237) can0 1100E405#1970000000000000
(1790978560.131411) can0 110005E4#1970000000000000
(1790978560.132298) can0 1100C001#2870000000000000
(1790978560.132456) can0 110001C0#2870000058020000
(1790978560.133357) can0 1100C102#2870000000000000
(1790978560.133531) can0 110002C1#2870000058020000
(1790978560.134415) can0 1100C203#2870000000000000
(1790978560.134572) can0 110003C2#2870000058020000
(1790978560.135474) can0 1100C304#2870000000000000
(1790978560.135641) can0 110004C3#2870000058020000
(1790978560.136532) can0 1100C405#2870000000000000
(1790978560.136710) can0 110005C4#2870000058020000
(1790978560.138243) can0 1200FD01#0A70000000000000
(1790978560.138399) can0 020001FD#7FFF80B47FFF00F0
(1790978560.138540) can0 017FFF01#7FFF7FFF00000000
(1790978560.138696) can0 020001FD#7FFF7F8B7FFF00F0
(1790978560.138836) can0 0400FD01#0000000000000000
(1790978560.138991) can0 020001FD#7FFF7F957FFF00F0
(1790978560.139129) can0 1200FD02#0A70000000000000
(1790978560.139287) can0 020002FD#7FFF7FF97FFF00F0
(1790978560.139428) can0 017FFF02#7FFF7FFF00000000
(1790978560.139584) can0 020002FD#7FFF7F617FFF00F0
(1790978560.139725) can0 0400FD02#0000000000000000
(1790978560.139880) can0 020002FD#7FFF800C7FFF00F0
(1790978560.140019) can0 1200FD03#0A70000000000000
(1790978560.140204) can0 020003FD#7FFF80217FFF00E6
(1790978560.140340) can0 017FFF03#7FFF7FFF00000000
(1790978560.140512) can0 020003FD#7FFF804B7FFF00E6
(1790978560.140647) can0 0400FD03#0000000000000000
(1790978560.140806) can0 020003FD#7FFF80187FFF00E6
(1790978560.140945) can0 1200FD04#0A70000000000000
(1790978560.141103) can0 020004FD#7FFF80127FFF00F0
(1790978560.141246) can0 017FFF04#7FFF7FFF00000000
(1790978560.141401) can0 020004FD#7FFF7FE47FFF00F0
(1790978560.141546) can0 0400FD04#0000000000000000
(1790978560.141702) can0 020004FD#7FFF7FDD7FFF00F0
(1790978560.141840) can0 1200FD05#0A70000000000000
(1790978560.142014) can0 020005FD#7FFF80097FFF00F0
(1790978560.142151) can0 017FFF05#7FFF7FFF00000000
(1790978560.142308) can0 020005FD#7FFF7FE37FFF00F0
(1790978560.142450) can0 0400FD05#0000000000000000
(1790978560.142612) can0 020005FD#7FFF7FD77FFF00F0
(1790978560.156167) can0 11004001#1970000000000000
(1790978560.156340) can0 11000140#19700000390E06B9
(1790978560.157226) can0 11004101#2870000000000000
(1790978560.157393) can0 11000141#2870000058020000
(1790978560.158282) can0 11004202#1970000000000000
(1790978560.158435) can0 11000242#19700000E4B832B9
(1790978560.159340) can0 11004302#2870000000000000
(1790978560.159497) can0 11000243#2870000058020000
(1790978560.160400) can0 11004403#1970000000000000
(1790978560.160557) can0 11000344#19700000DF7B4F38
(1790978560.161458) can0 11004503#2870000000000000
(1790978560.161615) can0 11000345#2870000058020000
(1790978560.162519) can0 11004604#1970000000000000
(1790978560.162693) can0 11000446#1970000000000000
(1790978560.163576) can0 11004704#2870000000000000
(1790978560.163741) can0 11000447#2870000058020000
(1790978560.164635) can0 11004805#1970000000000000
(1790978560.164811) can0 11000548#1970000000000000
(1790978560.165693) can0 11004905#2870000000000000
(1790978560.165859) can0 11000549#2870000058020000
(1790978560.167045) can0 0300FD01#0000000000000000
(1790978560.167303) can0 1200FD01#0570000000000000
(1790978560.167562) can0 0300FD02#0000000000000000
(1790978560.167819) can0 1200FD02#0570000000000000
(1790978560.168079) can0 0300FD03#0000000000000000
(1790978560.168337) can0 1200FD03#0570000000000000
(1790978560.168489) can0 028001FD#7FFF7FDE7FFB00F0
(1790978560.168630) can0 0300FD04#0000000000000000
(1790978560.168888) can0 1200FD04#0570000000000000
(1790978560.169036) can0 028002FD#7FFF8081802700F0
(1790978560.169177) can0 0300FD05#0000000000000000
(1790978560.169435) can0 1200FD05#0570000000000000
(1790978560.169583) can0 028003FD#7FFF80117FA700E6
(1790978560.169724) can0 017FFF01#7FFF7FFF00000000
(1790978560.169908) can0 028001FD#7FFF7FD2800200F0
(1790978560.170044) can0 017FFF02#7FFF7FFF00000000
(1790978560.170193) can0 028004FD#7FFF7F93801800F0
(1790978560.170334) can0 017FFF03#7FFF7FFF00000000
(1790978560.170484) can0 028001FD#7FFF7FC67FFE00F0
(1790978560.170627) can0 017FFF04#7FFF7FFF00000000
(1790978560.170774) can0 028002FD#7FFE7F62802100F0
(1790978560.170917) can0 017FFF05#7FFF7FFF00000000
(1790978560.171065) can0 028002FD#7FFE7F62802100F0
(1790978560.171213) can0 028003FD#7FFF7FFE7FAB00E6
(1790978560.171349) can0 028003FD#7FFF802E7FB300E6
(1790978560.171496) can0 028004FD#7FFF7FFA805B00F0
(1790978560.171632) can0 028004FD#7FFF8028804E00F0
(1790978560.171779) can0 028005FD#7FFF802F7FC800F0
(1790978560.171913) can0 11006001#1970000000000000
(1790978560.172063) can0 028005FD#7FFF804F7FB000F0
(1790978560.172204) can0 017FFF01#7FFF7FFF00000000
(1790978560.172351) can0 11000160#19700000390E06B9
(1790978560.172493) can0 017FFF02#7FFF7FFF00000000
(1790978560.172642) can0 02800160#7FFF7FD67FEF00F0
(1790978560.172783) can0 017FFF03#7FFF7FFF00000000
(1790978560.172931) can0 028002FD#7FFF7FB1804200F0
(1790978560.173073) can0 017FFF04#7FFF7FFF00000000
(1790978560.173222) can0 028003FD#7FFF7FE87FBB00E6
(1790978560.173364) can0 017FFF05#7FFF7FFF00000000
(1790978560.173514) can0 028004FD#7FFF8019804000F0
(1790978560.173655) can0 017FFF01#7FFF7FFF00000000
(1790978560.173803) can0 028005FD#7FFF80237FA100F0
(1790978560.173945) can0 017FFF02#7FFF7FFF00000000
(1790978560.174096) can0 02800160#7FFF7FA6800400F0
(1790978560.174237) can0 017FFF03#7FFF7FFF00000000
(1790978560.174389) can0 028002FD#7FFF8009803400F0
(1790978560.174531) can0 017FFF04#7FFF7FFF00000000
(1790978560.174682) can0 028003FD#7FFF7FFF7FA700E6
(1790978560.174824) can0 017FFF05#7FFF7FFF00000000
(1790978560.174971) can0 028004FD#80008043807300F0
(1790978560.175108) can0 11006101#2870000000000000
(1790978560.175258) can0 028005FD#7FFF7FE17F8D00F0
(1790978560.175399) can0 017FFF01#7FFF7FFF00000000
(1790978560.175549) can0 028005FD#7FFF801E7F9700F0
(1790978560.175691) can0 017FFF02#7FFF7FFF00000000
(1790978560.175838) can0 02800161#7FFF7EEF7FFB00F0
(1790978560.175980) can0 017FFF03#7FFF7FFF00000000
(1790978560.176128) can0 028002FD#7FFF7F57803900F0
(1790978560.176270) can0 017FFF04#7FFF7FFF00000000
(1790978560.176418) can0 028003FD#7FFF80217FDA00E6
(1790978560.176561) can0 017FFF05#7FFF7FFF00000000
(1790978560.176712) can0 028004FD#7FFF7FBC805100F0
(1790978560.176856) can0 028005FD#7FFF7FA07FAE00F0
(1790978560.177000) can0 11000161#2870000058020000
(1790978560.177802) can0 11006202#1970000000000000
(1790978560.177989) can0 11000262#19700000390E06B9
(1790978560.178126) can0 017FFF01#7FFF7FFF00000000
(1790978560.178309) can0 02800161#7FFF8071800200F0
(1790978560.178445) can0 017FFF02#7FFF7FFF00000000
(1790978560.178644) can0 02800262#7FFF7FFA802E00F0
(1790978560.178780) can0 017FFF03#7FFF7FFF00000000
(1790978560.179021) can0 028003FD#7FFF80377FE100E6
(1790978560.179158) can0 017FFF04#7FFF7FFF00000000
(1790978560.179361) can0 028004FD#7FFF7F7D803000F0
(1790978560.179499) can0 017FFF05#7FFF7FFF00000000
(1790978560.179720) can0 028005FD#7FFF80167FD300F0
(1790978560.179854) can0 11006302#2870000000000000
(1790978560.180043) can0 11000263#2870000058020000
(1790978560.180179) can0 017FFF01#7FFF7FFF00000000
(1790978560.180357) can0 02800161#7FFF7F357FF500F0
(1790978560.180494) can0 017FFF02#7FFF7FFF00000000
(1790978560.180691) can0 02800263#7FFF8016801700F0
(1790978560.180827) can0 017FFF03#7FFF7FFF00000000
(1790978560.181070) can0 028003FD#7FFF7FDA7FEE00E6
(1790978560.181207) can0 017FFF04#7FFF7FFF00000000
(1790978560.181409) can0 028004FD#7FFF8035802100F0
(1790978560.181547) can0 017FFF05#7FFF7FFF00000000
(1790978560.181770) can0 028005FD#800080317FCB00F0
(1790978560.181903) can0 11006403#1970000000000000
(1790978560.182074) can0 11000364#19700000ADB58139
(1790978560.182210) can0 017FFF01#7FFF7FFF00000000
(1790978560.182408) can0 02800161#7FFF7FF0800000F0
(1790978560.182544) can0 017FFF02#7FFF7FFF00000000
(1790978560.182745) can0 02800263#7FFF80AE7FF400F0
(1790978560.182881) can0 017FFF03#7FFF7FFF00000000
(1790978560.183123) can0 02800364#7FFF7F837FF200E6
(1790978560.183261) can0 017FFF04#7FFF7FFF00000000
(1790978560.183503) can0 028004FD#7FFF8028802100F0
(1790978560.183641) can0 017FFF05#7FFF7FFF00000000
(1790978560.183870) can0 028005FD#7FFF802C7FD200F0
(1790978560.184002) can0 11006503#2870000000000000
(1790978560.184175) can0 11000365#2870000058020000
(1790978560.184311) can0 017FFF01#7FFF7FFF00000000
(1790978560.184508) can0 02800161#7FFF7EC47FF600F0
(1790978560.184643) can0 017FFF02#7FFF7FFF00000000
(1790978560.184842) can0 02800263#7FFF7FBD802C00F0
(1790978560.184978) can0 017FFF03#7FFF7FFF00000000
(1790978560.185220) can0 02800365#7FFF803F7FEB00E6
(1790978560.185358) can0 017FFF04#7FFF7FFF00000000
(1790978560.185560) can0 028004FD#7FFF804D7FEA00F0
(1790978560.185698) can0 017FFF05#7FFF7FFF00000000
(1790978560.185923) can0 028005FD#7FFF7FF67FE800F0
(1790978560.186057) can0 11006604#1970000000000000
(1790978560.186258) can0 11000466#1970000000000000
(1790978560.186394) can0 017FFF01#7FFF7FFF00000000
(1790978560.186554) can0 02800161#7FFF7FE27FFE00F0
(1790978560.186695) can0 017FFF02#7FFF7FFF00000000
(1790978560.186894) can0 02800263#7FFF801F7FEE00F0
(1790978560.187030) can0 017FFF03#7FFF7FFF00000000
(1790978560.187271) can0 02800365#80007FF57FF000E6
(1790978560.187409) can0 017FFF04#7FFF7FFF00000000
(1790978560.187617) can0 02800466#7FFF801E801400F0
(1790978560.187754) can0 017FFF05#7FFF7FFF00000000
(1790978560.187974) can0 028005FD#7FFF80047FE400F0
(1790978560.188108) can0 11006704#2870000000000000
(1790978560.188308) can0 11000467#2870000058020000
(1790978560.188444) can0 017FFF01#7FFF7FFF00000000
(1790978560.188603) can0 02800161#7FFF7FA57FFE00F0
(1790978560.188744) can0 017FFF02#7FFF7FFF00000000
(1790978560.188941) can0 02800263#7FFE8027801500F0
(1790978560.189078) can0 017FFF03#7FFF7FFF00000000
(1790978560.189320) can0 02800365#7FFF7FE97FF500E6
(1790978560.189458) can0 017FFF04#7FFF7FFF00000000
(1790978560.189661) can0 02800467#7FFF7FFB7FE700F0
(1790978560.189798) can0 017FFF05#7FFF7FFF00000000
(1790978560.190024) can0 028005FD#7FFF7FBF7FE000F0
(1790978560.190156) can0 11006805#1970000000000000
(1790978560.190325) can0 11000568#197000009AD9A038
(1790978560.190460) can0 017FFF01#7FFF7FFF00000000
(1790978560.190660) can0 02800161#7FFF7FF07FFF00F0
(1790978560.190797) can0 017FFF02#7FFF7FFF00000000
(1790978560.190993) can0 02800263#7FFE7EF17FF000F0
(1790978560.191130) can0 017FFF03#7FFF7FFF00000000
(1790978560.191371) can0 02800365#7FFF7FCA7FFF00E6
(1790978560.191508) can0 017FFF04#7FFF7FFF00000000
(1790978560.191713) can0 02800467#7FFF7FC77FEC00F0
(1790978560.191850) can0 017FFF05#7FFF7FFF00000000
(1790978560.192072) can0 02800568#7FFF80167FB700F0
(1790978560.192205) can0 11006905#2870000000000000
(1790978560.192376) can0 11000569#2870000058020000
(1790978560.192515) can0 017FFF01#7FFF7FFF00000000
(1790978560.192707) can0 02800161#7FFF7F84800200F0
(1790978560.192844) can0 017FFF02#7FFF7FFF00000000
(1790978560.193042) can0 02800263#7FFF7FC8800A00F0
(1790978560.193178) can0 017FFF03#7FFF7FFF00000000
(1790978560.193423) can0 02800365#7FFF801F800C00E6
(1790978560.193560) can0 017FFF04#7FFF7FFF00000000
(1790978560.193809) can0 02800467#7FFF7FF07FCC00F0
(1790978560.193946) can0 017FFF05#7FFF7FFF00000000
(1790978560.194170) can0 02800569#800080117FD300F0
(1790978560.194307) can0 017FFF01#7FFF7FFF00000000
(1790978560.194504) can0 02800161#7FFF801B7FF500F0
(1790978560.194641) can0 017FFF02#7FFF7FFF00000000
(1790978560.194838) can0 02800263#7FFF8032800300F0
(1790978560.194975) can0 017FFF03#7FFF7FFF00000000
(1790978560.195177) can0 02800365#7FFF7F9C7FF100E6
(1790978560.195314) can0 017FFF04#7FFF7FFF00000000
(1790978560.195554) can0 02800467#7FFF7FF7802300F0
(1790978560.195688) can0 017FFF05#7FFF7FFF0F5C147B
(1790978560.195921) can0 02800569#7FFF800F7FE700F0
(1790978560.198146) can0 017FFF01#7FFF7FFF00000000
(1790978560.198302) can0 02800161#7FFF7FA6800600F0
(1790978560.198443) can0 017FFF02#7FFF7FFF00000000
(1790978560.198644) can0 02800263#7FFF7F4E800000F0
(1790978560.198781) can0 017FFF03#7FFF7FFF00000000
(1790978560.199019) can0 02800365#7FFF7FB87FF500E6
(1790978560.199156) can0 017FFF04#7FFF7FFF00000000
(1790978560.199359) can0 02800467#7FFF80197FF500F0
(1790978560.199491) can0 017FFF05#7FFE7FFF0F5C147B
(1790978560.199720) can0 02800569#7FFF7FB17FE600F0
(1790978560.203140) can0 017FFF01#7FFF7FFF00000000
(1790978560.203311) can0 02800161#7FFE804D801400F0
(1790978560.203447) can0 017FFF02#7FFF7FFF00000000
(1790978560.203645) can0 02800263#7FFF7F467FF200F0
(1790978560.203782) can0 017FFF03#7FFF7FFF00000000
(1790978560.204020) can0 02800365#7FFF7FD6800500E6
(1790978560.204157) can0 017FFF04#7FFF7FFF00000000
(1790978560.204362) can0 02800467#7FFF80097FF100F0
(1790978560.204495) can0 017FFF05#7FFE7FFF0F5C147B
(1790978560.204721) can0 02800569#7FFF80087FE700F0
(1790978560.208137) can0 017FFF01#7FFF7FFF00000000
(1790978560.208308) can0 02800161#7FFF7FD27FF300F0
(1790978560.208445) can0 017FFF02#7FFF7FFF00000000
(1790978560.208642) can0 02800263#7FFF7FD27FEB00F0
(1790978560.208779) can0 017FFF03#7FFF7FFF00000000
(1790978560.209022) can0 02800365#7FFF7FFF7FFC00E6
(1790978560.209160) can0 017FFF04#7FFF7FFF00000000
(1790978560.209402) can0 02800467#7FFF8042803600F0
(1790978560.209534) can0 017FFF05#7FFD7FFF0F5C147B
(1790978560.209770) can0 02800569#7FFF7FE87FDE00F0
(1790978560.213137) can0 017FFF01#7FFF7FFF00000000
(1790978560.213307) can0 02800161#7FFE7F097FF900F0
(1790978560.213443) can0 017FFF02#7FFF7FFF00000000
(1790978560.213645) can0 02800263#7FFF81027FFC00F0
(1790978560.213782) can0 017FFF03#7FFF7FFF00000000
(1790978560.214020) can0 02800365#80008014802A00E6
(1790978560.214157) can0 017FFF04#7FFF7FFF00000000
(1790978560.214359) can0 02800467#7FFF80757FF300F0
(1790978560.214491) can0 017FFF05#7FFC7FFF0F5C147B
(1790978560.214721) can0 02800569#7FFF7FE07FC200F0
(1790978560.218138) can0 017FFF01#7FFF7FFF00000000
(1790978560.218308) can0 02800161#7FFF7F337FFD00F0
(1790978560.218444) can0 017FFF02#7FFF7FFF00000000
(1790978560.218644) can0 02800263#7FFF7FF4801100F0
(1790978560.218780) can0 017FFF03#7FFF7FFF00000000
(1790978560.219022) can0 02800365#7FFF7F8F800000E6
(1790978560.219160) can0 017FFF04#7FFF7FFF00000000
(1790978560.219404) can0 02800467#7FFF80547FCC00F0
(1790978560.219536) can0 017FFF05#7FFC7FFF0F5C147B
(1790978560.219772) can0 02800569#80007FE67FB800F0
(1790978560.223137) can0 017FFF01#7FFF7FFF00000000
(1790978560.223307) can0 02800161#7FFF7FAC7FF700F0
(1790978560.223443) can0 017FFF02#7FFF7FFF00000000
(1790978560.223643) can0 02800263#7FFF801F7FFB00F0
(1790978560.223779) can0 017FFF03#7FFF7FFF00000000
(1790978560.224019) can0 02800365#7FFF7FF87FEB00E6
(1790978560.224157) can0 017FFF04#7FFF7FFF00000000
(1790978560.224358) can0 02800467#7FFF80287FEE00F0
(1790978560.224492) can0 017FFF05#7FFB7FFF0F5C147B
(1790978560.224718) can0 02800569#800080237FC600F0
(1790978560.228137) can0 017FFF01#7FFF7FFF00000000
(1790978560.228309) can0 02800161#7FFF8082800500F0
(1790978560.228445) can0 017FFF02#7FFF7FFF00000000
(1790978560.228644) can0 02800263#7FFF80147FFD00F0
(1790978560.228780) can0 017FFF03#7FFF7FFF00000000
(1790978560.229019) can0 02800365#80008048800500E6
(1790978560.229156) can0 017FFF04#7FFF7FFF00000000
(1790978560.229360) can0 02800467#7FFF7FE77FDF00F0
(1790978560.229495) can0 017FFF05#7FFA7FFF0F5C147B
(1790978560.229718) can0 02800569#7FFF7FA87F9500F0
(1790978560.233137) can0 017FFF01#7FFF7FFF00000000
(1790978560.233308) can0 02800161#7FFF806D7FFE00F0
(1790978560.233444) can0 017FFF02#7FFF7FFF00000000
(1790978560.233646) can0 02800263#7FFF7FE07FE100F0
(1790978560.233782) can0 017FFF03#7FFF7FFF00000000
(1790978560.234020) can0 02800365#8000800E7FF500E6
(1790978560.234157) can0 017FFF04#7FFF7FFF00000000
(1790978560.234361) can0 02800467#7FFF80AF800F00F0
(1790978560.234496) can0 017FFF05#7FFA7FFF0F5C147B
(1790978560.234718) can0 02800569#7FFF80347F8E00F0
(1790978560.238137) can0 017FFF01#7FFF7FFF00000000
(1790978560.238308) can0 02800161#7FFF80157FFE00F0
(1790978560.238444) can0 017FFF02#7FFF7FFF00000000
(1790978560.238642) can0 02800263#7FFF7FE57FF500F0
(1790978560.238778) can0 017FFF03#7FFF7FFF00000000
(1790978560.239020) can0 02800365#8000800C800200E6
(1790978560.239157) can0 017FFF04#7FFF7FFF00000000
(1790978560.239359) can0 02800467#7FFF803F803600F0
(1790978560.239492) can0 017FFF05#7FF97FFF0F5C147B
(1790978560.239721) can0 02800569#7FFF7FDC7F6C00F0
(1790978560.243137) can0 017FFF01#7FFF7FFF00000000
(1790978560.243309) can0 02800161#7FFF800C800700F0
(1790978560.243445) can0 017FFF02#7FFF7FFF00000000
(1790978560.243643) can0 02800263#7FFF80557FE600F0
(1790978560.243779) can0 017FFF03#7FFF7FFF00000000
(1790978560.244020) can0 02800365#7FFF7FB9800400E6
(1790978560.244157) can0 017FFF04#7FFF7FFF00000000
(1790978560.244361) can0 02800467#7FFF7FBE7FF600F0
(1790978560.244496) can0 017FFF05#7FF87FFF0F5C147B
(1790978560.244719) can0 02800569#7FFF801E7F7600F0
(1790978560.248137) can0 017FFF01#7FFF7FFF00000000
(1790978560.248309) can0 02800161#7FFF80647FF400F0
(1790978560.248446) can0 017FFF02#7FFF7FFF00000000
(1790978560.248644) can0 02800263#7FFE7FF17FD800F0
(1790978560.248780) can0 017FFF03#7FFF7FFF00000000
(1790978560.249021) can0 02800365#8000808D7FED00E6
(1790978560.249158) can0 017FFF04#7FFF7FFF00000000
(1790978560.249359) can0 02800467#7FFF806B800200F0
(1790978560.249492) can0 017FFF05#7FF87FFF0F5C147B
(1790978560.249720) can0 02800569#7FFF7FB97F5C00F0
(1790978560.253151) can0 017FFF01#7FFF7FFF00000000
(1790978560.253305) can0 02800161#7FFF80017FFA00F0
(1790978560.253446) can0 017FFF02#7FFF7FFF00000000
(1790978560.253645) can0 02800263#7FFF801D7FF500F0
(1790978560.253781) can0 017FFF03#7FFF7FFF00000000
(1790978560.254019) can0 02800365#8000803D802800E6
(1790978560.254156) can0 017FFF04#7FFF7FFF00000000
(1790978560.254359) can0 02800467#7FFF806B800100F0
(1790978560.254491) can0 017FFF05#7FF77FFF0F5C147B
(1790978560.254718) can0 02800569#7FFF7FB47F5100F0
(1790978560.258152) can0 017FFF01#7FFF7FFF00000000
(1790978560.258348) can0 02800161#7FFF8032800E00F0
(1790978560.258484) can0 017FFF02#7FFF7FFF00000000
(1790978560.258642) can0 02800263#7FFF802E7FF800F0
(1790978560.258784) can0 017FFF03#7FFF7FFF00000000
(1790978560.259020) can0 02800365#80007FDE7FF100E6
(1790978560.259157) can0 017FFF04#7FFF7FFF00000000
(1790978560.259358) can0 02800467#7FFF7F747FED00F0
(1790978560.259490) can0 017FFF05#7FF77FFF0F5C147B
(1790978560.259724) can0 02800569#7FFF7FC07F3E00F0
(1790978560.263151) can0 017FFF01#7FFF7FFF00000000
(1790978560.263349) can0 02800161#7FFF80317FF500F0
(1790978560.263486) can0 017FFF02#7FFF7FFF00000000
(1790978560.263641) can0 02800263#7FFF80497FEF00F0
(1790978560.263783) can0 017FFF03#7FFF7FFF00000000
(1790978560.264020) can0 02800365#7FFF7FB47FFF00E6
(1790978560.264157) can0 017FFF04#7FFF7FFF00000000
(1790978560.264360) can0 02800467#7FFF803A7FED00F0
(1790978560.264494) can0 017FFF05#7FF67FFF0F5C147B
(1790978560.264718) can0 02800569#7FFF7FF77F2A00F0
(1790978560.268144) can0 017FFF01#7FFF7FFF00000000
(1790978560.268302) can0 02800161#7FFF8071800000F0
(1790978560.268444) can0 017FFF02#7FFF7FFF00000000
(1790978560.268644) can0 02800263#7FFF809E800C00F0
(1790978560.268780) can0 017FFF03#7FFF7FFF00000000
(1790978560.269021) can0 02800365#7FFF800C7FFE00E6
(1790978560.269158) can0 017FFF04#7FFF7FFF00000000
(1790978560.269361) can0 02800467#7FFF801E7FE600F0
(1790978560.269493) can0 017FFF05#7FF57FFF0F5C147B
(1790978560.269718) can0 02800569#7FFF7FED7F2500F0
(1790978560.273139) can0 017FFF01#7FFF7FFF00000000
(1790978560.273308) can0 02800161#7FFF7FBC800900F0
(1790978560.273444) can0 017FFF02#7FFF7FFF00000000
(1790978560.273642) can0 02800263#7FFF8001801A00F0
(1790978560.273779) can0 017FFF03#7FFF7FFF00000000
(1790978560.274020) can0 02800365#8000803C800400E6
(1790978560.274157) can0 017FFF04#7FFF7FFF00000000
(1790978560.274362) can0 02800467#7FFF7FE1802400F0
(1790978560.274494) can0 017FFF05#7FF57FFF0F5C147B
(1790978560.274718) can0 02800569#7FFF7FE37F1600F0
(1790978560.278138) can0 017FFF01#7FFF7FFF00000000
(1790978560.278307) can0 02800161#7FFF7FF77FFB00F0
(1790978560.278443) can0 017FFF02#7FFF7FFF00000000
(1790978560.278639) can0 02800263#7FFE8045801600F0
(1790978560.278776) can0 017FFF03#7FFF7FFF00000000
(1790978560.279023) can0 02800365#800080007FF400E6
(1790978560.279160) can0 017FFF04#7FFF7FFF00000000
(1790978560.279404) can0 02800467#7FFF8008801900F0
(1790978560.279536) can0 017FFF05#7FF47FFF0F5C147B
(1790978560.279766) can0 02800569#7FFE7FC67F0D00F0
(1790978560.283138) can0 017FFF01#7FFF7FFF00000000
(1790978560.283307) can0 02800161#7FFF80A87FF900F0
(1790978560.283444) can0 017FFF02#7FFF7FFF00000000
(1790978560.283641) can0 02800263#7FFE7ED7800100F0
(1790978560.283778) can0 017FFF03#7FFF7FFF00000000
(1790978560.284020) can0 02800365#7FFF7F56800500E6
(1790978560.284157) can0 017FFF04#7FFF7FFF00000000
(1790978560.284359) can0 02800467#7FFF7FB17FFA00F0
(1790978560.284492) can0 017FFF05#7FF37FFF0F5C147B
(1790978560.284720) can0 02800569#7FFF7FE37F0600F0
(1790978560.288138) can0 017FFF01#7FFF7FFF00000000
(1790978560.288306) can0 02800161#7FFF806E800700F0
(1790978560.288442) can0 017FFF02#7FFF7FFF00000000
(1790978560.288641) can0 02800263#7FFF8089801000F0
(1790978560.288778) can0 017FFF03#7FFF7FFF00000000
(1790978560.289019) can0 02800365#800080217FF600E6
(1790978560.289156) can0 017FFF04#7FFF7FFF00000000
(1790978560.289358) can0 02800467#7FFF8052801D00F0
(1790978560.289490) can0 017FFF05#7FF37FFF0F5C147B
(1790978560.289719) can0 02800569#7FFE7FFF7EE100F0
(1790978560.293139) can0 017FFF01#7FFF7FFF00000000
(1790978560.293310) can0 02800161#7FFF7F6F800100F0
(1790978560.293446) can0 017FFF02#7FFF7FFF00000000
(1790978560.293645) can0 02800263#7FFE8002800000F0
(1790978560.293781) can0 017FFF03#7FFF7FFF00000000
(1790978560.294018) can0 02800365#7FFF7FB6800700E6
(1790978560.294156) can0 017FFF04#7FFF7FFF00000000
(1790978560.294356) can0 02800467#7FFF802E7FD700F0
(1790978560.294489) can0 017FFF05#7FF27FFF0F5C147B
(1790978560.294722) can0 02800569#7FFE7FEF7EFA00F0
(1790978560.298138) can0 017FFF01#7FFF7FFF00000000
(1790978560.298307) can0 02800161#7FFF7FED800700F0
(1790978560.298443) can0 017FFF02#7FFF7FFF00000000
(1790978560.298640) can0 02800263#7FFE7FE8800F00F0
(1790978560.298776) can0 017FFF03#7FFF7FFF00000000
(1790978560.299021) can0 02800365#7FFF80077FFD00E6
(1790978560.299158) can0 017FFF04#7FFF7FFF00000000
(1790978560.299362) can0 02800467#7FFF7FEC801000F0
(1790978560.299496) can0 017FFF05#7FF17FFF0F5C147B
(1790978560.299719) can0 02800569#7FFE7FF47ECB00F0
(1790978560.303138) can0 017FFF01#7FFF7FFF00000000
(1790978560.303307) can0 02800161#7FFF8037801300F0
(1790978560.303443) can0 017FFF02#7FFF7FFF00000000
(1790978560.303644) can0 02800263#7FFF80BF801400F0
(1790978560.303780) can0 017FFF03#7FFF7FFF00000000
(1790978560.304018) can0 02800365#80007FF1802A00E6
(1790978560.304156) can0 017FFF04#7FFF7FFF00000000
(1790978560.304358) can0 02800467#7FFF7FE57FFB00F0
(1790978560.304492) can0 017FFF05#7FF17FFF0F5C147B
(1790978560.304719) can0 02800569#7FFE7FF07EA100F0
(1790978560.308138) can0 017FFF01#7FFF7FFF00000000
(1790978560.308307) can0 02800161#7FFF7FA5800000F0
(1790978560.308445) can0 017FFF02#7FFF7FFF00000000
(1790978560.308643) can0 02800263#7FFF8049801800F0
(1790978560.308779) can0 017FFF03#7FFF7FFF00000000
(1790978560.309019) can0 02800365#7FFF8001801B00E6
(1790978560.309157) can0 017FFF04#7FFF7FFF00000000
(1790978560.309361) can0 02800467#7FFF7FFF7FFF00F0
(1790978560.309492) can0 017FFF05#7FF07FFF0F5C147B
(1790978560.309717) can0 02800569#7FFE7FFD7EC200F0
(1790978560.313137) can0 017FFF01#7FFF7FFF00000000
(1790978560.313310) can0 02800161#7FFF7FFF7FFD00F0
(1790978560.313446) can0 017FFF02#7FFF7FFF00000000
(1790978560.313642) can0 02800263#7FFE7FB27FF300F0
(1790978560.313778) can0 017FFF03#7FFF7FFF00000000
(1790978560.314018) can0 02800365#7FFF7FD2800E00E6
(1790978560.314155) can0 017FFF04#7FFF7FFF00000000
(1790978560.314358) can0 02800467#7FFF7FF0800800F0
(1790978560.314492) can0 017FFF05#7FEF7FFF0F5C147B
(1790978560.314718) can0 02800569#7FFE7FE97EAB00F0
(1790978560.318139) can0 017FFF01#7FFF7FFF00000000
(1790978560.318308) can0 02800161#7FFF7FB7800400F0
(1790978560.318444) can0 017FFF02#7FFF7FFF00000000
(1790978560.318646) can0 02800263#7FFF8018800C00F0
(1790978560.318782) can0 017FFF03#7FFF7FFF00000000
(1790978560.319020) can0 02800365#80008038800500E6
(1790978560.319157) can0 017FFF04#7FFF7FFF00000000
(1790978560.319362) can0 02800467#7FFF7FFE7FFF00F0
(1790978560.319495) can0 017FFF05#7FEF7FFF0F5C147B
(1790978560.319717) can0 02800569#7FFE80047E8900F0
(1790978560.323138) can0 017FFF01#7FFF7FFF00000000
(1790978560.323307) can0 02800161#7FFF7FF7800A00F0
(1790978560.323443) can0 017FFF02#7FFF7FFF00000000
(1790978560.323641) can0 02800263#7FFF80227FF300F0
(1790978560.323777) can0 017FFF03#7FFF7FFF00000000
(1790978560.324020) can0 02800365#80007FFF7FFA00E6
(1790978560.324157) can0 017FFF04#7FFF7FFF00000000
(1790978560.324361) can0 02800467#7FFF7FF47FFD00F0
(1790978560.324496) can0 017FFF05#7FEE7FFF0F5C147B
(1790978560.324721) can0 02800569#7FFE80187E8000F0
(1790978560.328137) can0 017FFF01#7FFF7FFF00000000
(1790978560.328306) can0 02800161#7FFF8056800200F0
(1790978560.328442) can0 017FFF02#7FFF7FFF00000000
(1790978560.328639) can0 02800263#7FFF80A67FD100F0
(1790978560.328775) can0 017FFF03#7FFF7FFF00000000
(1790978560.329017) can0 02800365#7FFF802A800700E6
(1790978560.329154) can0 017FFF04#7FFF7FFF00000000
(1790978560.329357) can0 02800467#7FFF7FE67FF900F0
(1790978560.329490) can0 017FFF05#7FED7FFF0F5C147B
(1790978560.329718) can0 02800569#7FFD7FFA7E4D00F0
(1790978560.333137) can0 017FFF01#7FFF7FFF00000000
(1790978560.333307) can0 02800161#7FFF7FCD800B00F0
(1790978560.333443) can0 017FFF02#7FFF7FFF00000000
(1790978560.333643) can0 02800263#7FFF7FDF7FEB00F0
(1790978560.333779) can0 017FFF03#7FFF7FFF00000000
(1790978560.334019) can0 02800365#80007FEC7FFE00E6
(1790978560.334156) can0 017FFF04#7FFF7FFF00000000
(1790978560.334358) can0 02800467#7FFF7FC37FE500F0
(1790978560.334491) can0 017FFF05#7FED7FFF0F5C147B
(1790978560.334718) can0 02800569#7FFD7F8D7E6E00F0
(1790978560.338138) can0 017FFF01#7FFF7FFF00000000
(1790978560.338307) can0 02800161#7FFF808C7FF600F0
(1790978560.338443) can0 017FFF02#7FFF7FFF00000000
(1790978560.338640) can0 02800263#7FFF7FD1800300F0
(1790978560.338776) can0 017FFF03#7FFF7FFF00000000
(1790978560.339020) can0 02800365#7FFF7FD67FFA00E6
(1790978560.339157) can0 017FFF04#7FFF7FFF00000000
(1790978560.339359) can0 02800467#7FFF805B7FD800F0
(1790978560.339492) can0 017FFF05#7FEC7FFF0F5C147B
(1790978560.339718) can0 02800569#7FFD800F7E4000F0
(1790978560.343138) can0 017FFF01#7FFF7FFF00000000
(1790978560.343306) can0 02800161#7FFF802E800000F0
(1790978560.343443) can0 017FFF02#7FFF7FFF00000000
(1790978560.343641) can0 02800263#7FFE8097801300F0
(1790978560.343777) can0 017FFF03#7FFF7FFF00000000
(1790978560.344019) can0 02800365#80007FFB7FE300E6
(1790978560.344156) can0 017FFF04#7FFF7FFF00000000
(1790978560.344359) can0 02800467#7FFF7FE07FF600F0
(1790978560.344492) can0 017FFF05#7FEB7FFF0F5C147B
(1790978560.344720) can0 02800569#7FFD7FE17E5F00F0
(1790978560.348137) can0 017FFF01#7FFF7FFF00000000
(1790978560.348307) can0 02800161#7FFF80787FF800F0
(1790978560.348444) can0 017FFF02#7FFF7FFF00000000
(1790978560.348643) can0 02800263#7FFF80C87FF200F0
(1790978560.348779) can0 017FFF03#7FFF7FFF00000000
(1790978560.349018) can0 02800365#800080317FEF00E6
(1790978560.349155) can0 017FFF04#7FFF7FFF00000000
(1790978560.349357) can0 02800467#7FFF8011800B00F0
(1790978560.349489) can0 017FFF05#7FEB7FFF0F5C147B
(1790978560.349718) can0 02800569#7FFD7FBC7E3900F0
(1790978560.353139) can0 017FFF01#7FFF7FFF00000000
(1790978560.353306) can0 02800161#7FFF80B17FF500F0
(1790978560.353443) can0 017FFF02#7FFF7FFF00000000
(1790978560.353641) can0 02800263#7FFF805E800800F0
(1790978560.353777) can0 017FFF03#7FFF7FFF00000000
(1790978560.354020) can0 02800365#7FFF7FFC7FEC00E6
(1790978560.354157) can0 017FFF04#7FFF7FFF00000000
(1790978560.354359) can0 02800467#7FFF80487FF700F0
(1790978560.354491) can0 017FFF05#7FEA7FFF0F5C147B
(1790978560.354717) can0 02800569#7FFC7FFB7E3300F0
(1790978560.358151) can0 017FFF01#7FFF7FFF00000000
(1790978560.358348) can0 02800161#7FFF8118800200F0
(1790978560.358483) can0 017FFF02#7FFF7FFF00000000
(1790978560.358639) can0 02800263#7FFF802D7FF200F0
(1790978560.358781) can0 017FFF03#7FFF7FFF00000000
(1790978560.359019) can0 02800365#80007FAF7FE800E6
(1790978560.359156) can0 017FFF04#7FFF7FFF00000000
(1790978560.359359) can0 02800467#7FFE7FF87FE800F0
(1790978560.359491) can0 017FFF05#7FE97FFF0F5C147B
(1790978560.359717) can0 02800569#7FFD7FF97E3200F0
(1790978560.363149) can0 017FFF01#7FFF7FFF00000000
(1790978560.363347) can0 02800161#7FFE7F5F800000F0
(1790978560.363484) can0 017FFF02#7FFF7FFF00000000
(1790978560.363639) can0 02800263#7FFF7FF27FF200F0
(1790978560.363781) can0 017FFF03#7FFF7FFF00000000
(1790978560.364019) can0 02800365#8000803A7FFE00E6
(1790978560.364156) can0 017FFF04#7FFF7FFF00000000
(1790978560.364357) can0 02800467#7FFF7FD0801A00F0
(1790978560.364491) can0 017FFF05#7FE97FFF0F5C147B
(1790978560.364718) can0 02800569#7FFC800A7E1300F0
(1790978560.368150) can0 017FFF01#7FFF7FFF00000000
(1790978560.368346) can0 02800161#7FFF804B800500F0
(1790978560.368484) can0 017FFF02#7FFF7FFF00000000
(1790978560.368641) can0 02800263#7FFF7F9B800400F0
(1790978560.368783) can0 017FFF03#7FFF7FFF00000000
(1790978560.369021) can0 02800365#800080147FFC00E6
(1790978560.369158) can0 017FFF04#7FFF7FFF00000000
(1790978560.369400) can0 02800467#7FFF8032800B00F0
(1790978560.369533) can0 017FFF05#7FE87FFF0F5C147B
(1790978560.369767) can0 02800569#7FFB7F6A7E1600F0
(1790978560.373150) can0 017FFF01#7FFF7FFF00000000
(1790978560.373347) can0 02800161#7FFF80257FFF00F0
(1790978560.373483) can0 017FFF02#7FFF7FFF00000000
(1790978560.373641) can0 02800263#7FFF80427FEA00F0
(1790978560.373783) can0 017FFF03#7FFF7FFF00000000
(1790978560.374019) can0 02800365#80008030800200E6
(1790978560.374157) can0 017FFF04#7FFF7FFF00000000
(1790978560.374359) can0 02800467#7FFF7FD7801A00F0
(1790978560.374492) can0 017FFF05#7FE87FFF0F5C147B
(1790978560.374718) can0 02800569#7FFB7FA27E0000F0
(1790978560.378150) can0 017FFF01#7FFF7FFF00000000
(1790978560.378346) can0 02800161#7FFF8026800E00F0
(1790978560.378482) can0 017FFF02#7FFF7FFF00000000
(1790978560.378637) can0 02800263#7FFE7FD67FF300F0
(1790978560.378779) can0 017FFF03#7FFF7FFF00000000
(1790978560.379021) can0 02800365#8000801E800000E6
(1790978560.379158) can0 017FFF04#7FFF7FFF00000000
(1790978560.379402) can0 02800467#7FFF80247FF200F0
(1790978560.379535) can0 017FFF05#7FE77FFF0F5C147B
(1790978560.379771) can0 02800569#7FFB80067E0400F0
(1790978560.383150) can0 017FFF01#7FFF7FFF00000000
(1790978560.383349) can0 02800161#7FFF7FD27FFC00F0
(1790978560.383485) can0 017FFF02#7FFF7FFF00000000
(1790978560.383641) can0 02800263#7FFF7FB97FFE00F0
(1790978560.383783) can0 017FFF03#7FFF7FFF00000000
(1790978560.384019) can0 02800365#800080427FE700E6
(1790978560.384156) can0 017FFF04#7FFF7FFF00000000
(1790978560.384358) can0 02800467#7FFF80077FCD00F0
(1790978560.384492) can0 017FFF05#7FE67FFF0F5C147B
(1790978560.384718) can0 02800569#7FFB7FF27DE200F0
(1790978560.388148) can0 017FFF01#7FFF7FFF00000000
(1790978560.388305) can0 02800161#7FFF804E7FFF00F0
(1790978560.388447) can0 017FFF02#7FFF7FFF00000000
(1790978560.388644) can0 02800263#7FFF800E800300F0
(1790978560.388781) can0 017FFF03#7FFF7FFF00000000
(1790978560.389019) can0 02800365#80007FFD7FE900E6
(1790978560.389156) can0 017FFF04#7FFF7FFF00000000
(1790978560.389359) can0 02800467#7FFF80127FF600F0
(1790978560.389491) can0 017FFF05#7FE67FFF0F5C147B
(1790978560.389718) can0 02800569#7FFB7FFC7DF300F0
(1790978560.393149) can0 017FFF01#7FFF7FFF00000000
(1790978560.393345) can0 02800161#7FFF7FDB7FFA00F0
(1790978560.393481) can0 017FFF02#7FFF7FFF00000000
(1790978560.393640) can0 02800263#7FFE7F7B800C00F0
(1790978560.393782) can0 017FFF03#7FFF7FFF00000000
(1790978560.394021) can0 02800365#7FFF7FF67FF400E6
(1790978560.394158) can0 017FFF04#7FFF7FFF00000000
(1790978560.394407) can0 02800467#7FFF80107FFF00F0
(1790978560.394539) can0 017FFF05#7FE57FFF0F5C147B
(1790978560.394766) can0 02800569#7FFA7FD57DDE00F0
(1790978560.398150) can0 017FFF01#7FFF7FFF00000000
(1790978560.398350) can0 02800161#7FFF800E800400F0
(1790978560.398486) can0 017FFF02#7FFF7FFF00000000
(1790978560.398685) can0 02800263#7FFF7FB47FE700F0
(1790978560.398822) can0 017FFF03#7FFF7FFF00000000
(1790978560.399023) can0 02800365#800080357FEA00E6
(1790978560.399160) can0 017FFF04#7FFF7FFF00000000
(1790978560.399402) can0 02800467#7FFF80217FF800F0
(1790978560.399535) can0 017FFF05#7FE47FFF0F5C147B
(1790978560.399768) can0 02800569#7FFA80117DCB00F0
(1790978560.403149) can0 017FFF01#7FFF7FFF00000000
(1790978560.403346) can0 02800161#7FFF7FC37FFA00F0
(1790978560.403482) can0 017FFF02#7FFF7FFF00000000
(1790978560.403638) can0 02800263#7FFF800E802700F0
(1790978560.403780) can0 017FFF03#7FFF7FFF00000000
(1790978560.404019) can0 02800365#7FFF7FBC7FE700E6
(1790978560.404157) can0 017FFF04#7FFF7FFF00000000
(1790978560.404359) can0 02800467#7FFF7FFE800D00F0
(1790978560.404492) can0 017FFF05#7FE47FFF0F5C147B
(1790978560.404717) can0 02800569#7FF97FD87E0900F0
(1790978560.408148) can0 017FFF01#7FFF7FFF00000000
(1790978560.408303) can0 02800161#7FFF807C7FF200F0
(1790978560.408444) can0 017FFF02#7FFF7FFF00000000
(1790978560.408639) can0 02800263#7FFE7F99802500F0
(1790978560.408776) can0 017FFF03#7FFF7FFF00000000
(1790978560.409018) can0 02800365#7FFF803B800800E6
(1790978560.409156) can0 017FFF04#7FFF7FFF00000000
(1790978560.409358) can0 02800467#7FFF801C7FF900F0
(1790978560.409490) can0 017FFF05#7FE37FFF0F5C147B
(1790978560.409716) can0 02800569#7FF97FB67DFE00F0
(1790978560.413149) can0 017FFF01#7FFF7FFF00000000
(1790978560.413346) can0 02800161#7FFF7FD27FED00F0
(1790978560.413482) can0 017FFF02#7FFF7FFF00000000
(1790978560.413641) can0 02800263#7FFF8083802400F0
(1790978560.413782) can0 017FFF03#7FFF7FFF00000000
(1790978560.414020) can0 02800365#7FFF7F9F800400E6
(1790978560.414158) can0 017FFF04#7FFF7FFF00000000
(1790978560.414402) can0 02800467#7FFF7FE77FFF00F0
(1790978560.414535) can0 017FFF05#7FE27FFF0F5C147B
(1790978560.414767) can0 02800569#7FF87FB67DE100F0
(1790978560.418149) can0 017FFF01#7FFF7FFF00000000
(1790978560.418304) can0 02800161#7FFF7FC97FF800F0
(1790978560.418445) can0 017FFF02#7FFF7FFF00000000
(1790978560.418646) can0 02800263#7FFE7F837FEC00F0
(1790978560.418782) can0 017FFF03#7FFF7FFF00000000
(1790978560.419017) can0 02800365#7FFF7FB57FEB00E6
(1790978560.419155) can0 017FFF04#7FFF7FFF00000000
(1790978560.419358) can0 02800467#7FFF80237FF500F0
(1790978560.419490) can0 017FFF05#7FE27FFF0F5C147B
(1790978560.419719) can0 02800569#7FF77FBE7DDA00F0
(1790978560.423151) can0 017FFF01#7FFF7FFF00000000
(1790978560.423351) can0 02800161#7FFF7FA07FFC00F0
(1790978560.423487) can0 017FFF02#7FFF7FFF00000000
(1790978560.423686) can0 02800263#7FFF7F727FFD00F0
(1790978560.423823) can0 017FFF03#7FFF7FFF00000000
(1790978560.424025) can0 02800365#7FFF7F807FF400E6
(1790978560.424163) can0 017FFF04#7FFF7FFF00000000
(1790978560.424402) can0 02800467#7FFF8035804A00F0
(1790978560.424536) can0 017FFF05#7FE17FFF0F5C147B
(1790978560.424767) can0 02800569#7FF67FC57DFF00F0
(1790978560.428158) can0 017FFF01#7FFF7FFF00000000
(1790978560.428352) can0 02800161#7FFF7F55800300F0
(1790978560.428491) can0 017FFF02#7FFF7FFF00000000
(1790978560.428687) can0 02800263#7FFF8009801D00F0
(1790978560.428823) can0 017FFF03#7FFF7FFF00000000
(1790978560.429025) can0 02800365#7FFF7F65801200E6
(1790978560.429163) can0 017FFF04#7FFF7FFF00000000
(1790978560.429404) can0 02800467#7FFF803F7FD400F0
(1790978560.429537) can0 017FFF05#7FE07FFF0F5C147B
(1790978560.429769) can0 02800569#7FF57FE67DD500F0
(1790978560.433152) can0 017FFF01#7FFF7FFF00000000
(1790978560.433349) can0 02800161#7FFF80087FFA00F0
(1790978560.433485) can0 017FFF02#7FFF7FFF00000000
(1790978560.433686) can0 02800263#7FFF80D2801A00F0
(1790978560.433822) can0 017FFF03#7FFF7FFF00000000
(1790978560.434026) can0 02800365#80007FED801300E6
(1790978560.434164) can0 017FFF04#7FFF7FFF00000000
(1790978560.434402) can0 02800467#7FFF7FC07FEA00F0
(1790978560.434536) can0 017FFF05#7FE07FFF0F5C147B
(1790978560.434770) can0 02800569#7FF47F837DC400F0
(1790978560.438152) can0 017FFF01#7FFF7FFF00000000
(1790978560.438350) can0 02800161#7FFF8021801100F0
(1790978560.438486) can0 017FFF02#7FFF7FFF00000000
(1790978560.438684) can0 02800263#7FFE8004800500F0
(1790978560.438820) can0 017FFF03#7FFF7FFF00000000
(1790978560.439021) can0 02800365#80007FCD7FF200E6
(1790978560.439158) can0 017FFF04#7FFF7FFF00000000
(1790978560.439402) can0 02800467#7FFF7FEA803100F0
(1790978560.439536) can0 017FFF05#7FDF7FFF0F5C147B
(1790978560.439766) can0 02800569#7FF47FE97DC600F0
(1790978560.443149) can0 017FFF01#7FFF7FFF00000000
(1790978560.443346) can0 02800161#7FFF7F31800900F0
(1790978560.443482) can0 017FFF02#7FFF7FFF00000000
(1790978560.443638) can0 02800263#7FFF80037FFB00F0
(1790978560.443779) can0 017FFF03#7FFF7FFF00000000
(1790978560.444019) can0 02800365#7FFF80507FF800E6
(1790978560.444156) can0 017FFF04#7FFF7FFF00000000
(1790978560.444359) can0 02800467#7FFF8028800B00F0
(1790978560.444492) can0 017FFF05#7FDE7FFF0F5C147B
(1790978560.444716) can0 02800569#7FF480017DD300F0
(1790978560.448149) can0 017FFF01#7FFF7FFF00000000
(1790978560.448346) can0 02800161#7FFF80B27FFD00F0
(1790978560.448482) can0 017FFF02#7FFF7FFF00000000
(1790978560.448641) can0 02800263#7FFF804F7FF400F0
(1790978560.448782) can0 017FFF03#7FFF7FFF00000000
(1790978560.449017) can0 02800365#7FFF7FCC800900E6
(1790978560.449154) can0 017FFF04#7FFF7FFF00000000
(1790978560.449355) can0 02800467#7FFF7FD87FE700F0
(1790978560.449487) can0 017FFF05#7FDE7FFF0F5C147B
(1790978560.449716) can0 02800569#7FF37FD87D6D00F0
(1790978560.453153) can0 017FFF01#7FFF7FFF00000000
(1790978560.453348) can0 02800161#7FFF80977FE900F0
(1790978560.453484) can0 017FFF02#7FFF7FFF00000000
(1790978560.453640) can0 02800263#7FFF80017FFB00F0
(1790978560.453781) can0 017FFF03#7FFF7FFF00000000
(1790978560.454020) can0 02800365#80008043800400E6
(1790978560.454157) can0 017FFF04#7FFF7FFF00000000
(1790978560.454399) can0 02800467#7FFF7FCF7FF300F0
(1790978560.454531) can0 017FFF05#7FDD7FFF0F5C147B
(1790978560.454764) can0 02800569#7FF27FA67DA500F0
(1790978560.458154) can0 017FFF01#7FFF7FFF00000000
(1790978560.458351) can0 02800161#7FFF8012800B00F0
(1790978560.458487) can0 017FFF02#7FFF7FFF00000000
(1790978560.458687) can0 02800263#7FFE80707FE000F0
(1790978560.458823) can0 017FFF03#7FFF7FFF00000000
(1790978560.459024) can0 02800365#80007FCC7FF500E6
(1790978560.459161) can0 017FFF04#7FFF7FFF00000000
(1790978560.459401) can0 02800467#7FFF8024800D00F0
(1790978560.459533) can0 017FFF05#7FDC7FFF0F5C147B
(1790978560.459768) can0 02800569#7FF27FEB7DF300F0
(1790978560.463152) can0 017FFF01#7FFF7FFF00000000
(1790978560.463348) can0 02800161#7FFF80CE800100F0
(1790978560.463484) can0 017FFF02#7FFF7FFF00000000
(1790978560.463640) can0 02800263#7FFF80B97FF500F0
(1790978560.463781) can0 017FFF03#7FFF7FFF00000000
(1790978560.464018) can0 02800365#7FFF7FF17FF500E6
(1790978560.464155) can0 017FFF04#7FFF7FFF00000000
(1790978560.464358) can0 02800467#7FFF80507FEE00F0
(1790978560.464491) can0 017FFF05#7FDC7FFF0F5C147B
(1790978560.464718) can0 02800569#7FF27FE97DFD00F0
(1790978560.468152) can0 017FFF01#7FFF7FFF00000000
(1790978560.468349) can0 02800161#7FFF7F617FF800F0
(1790978560.468488) can0 017FFF02#7FFF7FFF00000000
(1790978560.468683) can0 02800263#7FFF803C7FFF00F0
(1790978560.468819) can0 017FFF03#7FFF7FFF00000000
(1790978560.469020) can0 02800365#7FFF7FD0800500E6
(1790978560.469157) can0 017FFF04#7FFF7FFF00000000
(1790978560.469401) can0 02800467#7FFF7FBD800300F0
(1790978560.469533) can0 017FFF05#7FDB7FFF0F5C147B
(1790978560.469765) can0 02800569#7FF17FAD7DC500F0
(1790978560.473151) can0 017FFF01#7FFF7FFF00000000
(1790978560.473349) can0 02800161#7FFF7F2A800000F0
(1790978560.473485) can0 017FFF02#7FFF7FFF00000000
(1790978560.473683) can0 02800263#7FFF80537FF700F0
(1790978560.473819) can0 017FFF03#7FFF7FFF00000000
(1790978560.474021) can0 02800365#7FFF7FCD800500E6
(1790978560.474158) can0 017FFF04#7FFF7FFF00000000
(1790978560.474399) can0 02800467#7FFF803A7FDA00F0
(1790978560.474531) can0 017FFF05#7FDA7FFF0F5C147B
(1790978560.474767) can0 02800569#7FF07FD87D7800F0
(1790978560.478151) can0 017FFF01#7FFF7FFF00000000
(1790978560.478351) can0 02800161#7FFF8060800800F0
(1790978560.478487) can0 017FFF02#7FFF7FFF00000000
(1790978560.478682) can0 02800263#7FFE7F73802600F0
(1790978560.478818) can0 017FFF03#7FFF7FFF00000000
(1790978560.479020) can0 02800365#7FFF7FB2800A00E6
(1790978560.479157) can0 017FFF04#7FFF7FFF00000000
(1790978560.479405) can0 02800467#7FFF80037FFF00F0
(1790978560.479537) can0 017FFF05#7FDA7FFF0F5C147B
(1790978560.479767) can0 02800569#7FEF7FE07E0100F0
(1790978560.483154) can0 017FFF01#7FFF7FFF00000000
(1790978560.483352) can0 02800161#7FFF8017800B00F0
(1790978560.483488) can0 017FFF02#7FFF7FFF00000000
(1790978560.483687) can0 02800263#7FFE7FED800600F0
(1790978560.483823) can0 017FFF03#7FFF7FFF00000000
(1790978560.484025) can0 02800365#7FFF7FE67FEF00E6
(1790978560.484162) can0 017FFF04#7FFF7FFF00000000
(1790978560.484402) can0 02800467#7FFF8021801200F0
(1790978560.484534) can0 017FFF05#7FD97FFF0F5C147B
(1790978560.484765) can0 02800569#7FEE7FC47E1B00F0
(1790978560.488150) can0 017FFF01#7FFF7FFF00000000
(1790978560.488348) can0 02800161#7FFF8003800F00F0
(1790978560.488484) can0 017FFF02#7FFF7FFF00000000
(1790978560.488641) can0 02800263#7FFF8012802000F0
(1790978560.488782) can0 017FFF03#7FFF7FFF00000000
(1790978560.489018) can0 02800365#7FFF7FC57FE300E6
(1790978560.489155) can0 017FFF04#7FFF7FFF00000000
(1790978560.489356) can0 02800467#7FFF803B7FEA00F0
(1790978560.489488) can0 017FFF05#7FD97FFF0F5C147B
(1790978560.489715) can0 02800569#7FED7F387E1D00F0
(1790978560.493347) can0 1200FD01#0A70000000000000
(1790978560.493500) can0 028001FD#7FFF80AF800900F0
(1790978560.493640) can0 017FFF01#7FFF7FFF00000000
(1790978560.493808) can0 028001FD#7FFF8048800400F0
(1790978560.493943) can0 0400FD01#0000000000000000
(1790978560.494200) can0 1200FD02#0A70000000000000
(1790978560.494396) can0 028002FD#7FFF7FBF7FF400F0
(1790978560.494532) can0 017FFF02#7FFF7FFF00000000
(1790978560.494692) can0 028002FD#7FFF80137FF400F0
(1790978560.494833) can0 0400FD02#0000000000000000
(1790978560.495090) can0 1200FD03#0A70000000000000
(1790978560.495277) can0 028003FD#7FFF7FBF7FFE00E6
(1790978560.495414) can0 017FFF03#7FFF7FFF00000000
(1790978560.495619) can0 028003FD#7FFF7FC8800C00E6
(1790978560.495756) can0 0400FD03#0000000000000000
(1790978560.496014) can0 1200FD04#0A70000000000000
(1790978560.496212) can0 028004FD#7FFF7FEB800400F0
(1790978560.496349) can0 017FFF04#7FFF7FFF00000000
(1790978560.496556) can0 028004FD#7FFF7FB77FFC00F0
(1790978560.496695) can0 0400FD04#0000000000000000
(1790978560.496952) can0 1200FD05#0A70000000000000
(1790978560.497126) can0 028005FD#7FEB7FB47E2000F0
(1790978560.497263) can0 017FFF05#7FFF7FFF00000000
(1790978560.497470) can0 028005FD#7FEB7FBB7DFC00F0
(1790978560.497606) can0 0400FD05#0000000000000000
(1790978560.516089) can0 020002FD#800080ED7FFF00F0
(1790978560.516226) can0 020001FD#7FFF7F8B7FFF00F0
(1790978560.516403) can0 020003FD#8000805F7FFF00E6
(1790978560.519503) can0 020004FD#7FFF80117FFF00F0
(1790978560.522171) can0 020005FD#7FEC7FFA7FFF00F0
