(1790978395.874463) can0 1200FD01#0A70000000000000
(1790978395.874624) can0 020001FD#8000805F7FFF00F0
(1790978395.874752) can0 017FFF01#7FFF7FFF00000000
(1790978395.874912) can0 020001FD#800080777FFF00F0
(1790978395.875046) can0 0400FD01#0000000000000000
(1790978395.875206) can0 020001FD#8000805C7FFF00F0
(1790978395.875339) can0 1200FD02#0A70000000000000
(1790978395.875501) can0 020002FD#7FFF81197FFF00F0
(1790978395.875643) can0 017FFF02#7FFF7FFF00000000
(1790978395.875802) can0 020002FD#7FFF801F7FFF00F0
(1790978395.875937) can0 0400FD02#0000000000000000
(1790978395.876100) can0 020002FD#7FFF7F677FFF00F0
(1790978395.876233) can0 1200FD03#0A70000000000000
(1790978395.876422) can0 020003FD#7FFF80437FFF00E6
(1790978395.876553) can0 017FFF03#7FFF7FFF00000000
(1790978395.876722) can0 020003FD#7FFF7FAF7FFF00E6
(1790978395.876864) can0 0400FD03#0000000000000000
(1790978395.877024) can0 020003FD#7FFF7FB87FFF00E6
(1790978395.877159) can0 1200FD04#0A70000000000000
(1790978395.877351) can0 020004FD#7FFF7FE17FFF00F0
(1790978395.877483) can0 017FFF04#7FFF7FFF00000000
(1790978395.877646) can0 020004FD#7FFF7FF07FFF00F0
(1790978395.877790) can0 0400FD04#0000000000000000
(1790978395.877947) can0 020004FD#7FFF7FDB7FFF00F0
(1790978395.878080) can0 1200FD05#0A70000000000000
(1790978395.878268) can0 020005FD#7FFD7FF57FFF00F0
(1790978395.878400) can0 017FFF05#7FFF7FFF00000000
(1790978395.878560) can0 020005FD#7FFE80297FFF00F0
(1790978395.878703) can0 0400FD05#0000000000000000
(1790978395.878862) can0 020005FD#7FFD800A7FFF00F0
(1790978395.878993) can0 1800FD01#0102030405060000
(1790978395.879157) can0 020001FD#80007FF07FFF00F0
(1790978395.879291) can0 1800FD02#0102030405060000
(1790978395.879452) can0 020002FD#7FFE800C7FFF00F0
(1790978395.879585) can0 1800FD03#0102030405060000
(1790978395.879774) can0 020003FD#7FFF80297FFF00E6
(1790978395.879903) can0 1800FD04#0102030405060000
(1790978395.880096) can0 020004FD#7FFF7FF27FFF00F0
(1790978395.880223) can0 1800FD05#0102030405060000
(1790978395.880414) can0 020005FD#7FFE801E7FFF00F0
(1790978395.880543) can0 04008001#00C4000000000000
(1790978395.880706) can0 02000180#00C4560003012A07
(1790978395.882003) can0 00008101#0000000000000000
(1790978395.882156) can0 000001FE#457B30020C323817
(1790978395.883077) can0 11008201#0570000000000000
(1790978395.883258) can0 11000182#0570000000000000
(1790978395.884139) can0 11008301#1970000000000000
(1790978395.884302) can0 11000183#19700000E4B8323A
(1790978395.885206) can0 11008401#1B70000000000000
(1790978395.885365) can0 11000184#1B70000000000000
(1790978395.886268) can0 11008501#2870000000000000
(1790978395.886423) can0 11000185#2870000058020000
(1790978395.887328) can0 11008601#2970000000000000
(1790978395.887508) can0 11000186#2970000000000000
(1790978395.888391) can0 11008701#2B70000000000000
(1790978395.888557) can0 11000187#2B70000000000000
(1790978395.889453) can0 04008802#00C4000000000000
(1790978395.889609) can0 02000288#00C4560003012A07
(1790978395.890521) can0 00008902#0000000000000000
(1790978395.890697) can0 000002FE#785630020C343701
(1790978395.891578) can0 11008A02#0570000000000000
(1790978395.891754) can0 1100028A#0570000000000000
(1790978395.892641) can0 11008B02#1970000000000000
(1790978395.892799) can0 1100028B#19700000390E06B9
(1790978395.893703) can0 11008C02#1B70000000000000
(1790978395.893862) can0 1100028C#1B70000000000000
(1790978395.894766) can0 11008D02#2870000000000000
(1790978395.894946) can0 1100028D#2870000058020000
(1790978395.895827) can0 11008E02#2970000000000000
(1790978395.896003) can0 1100028E#2970000000000000
(1790978395.896891) can0 11008F02#2B70000000000000
(1790978395.897056) can0 1100028F#2B70000000000000
(1790978395.897955) can0 04009003#00C4000000000000
(1790978395.898126) can0 02000390#00C4560002032207
(1790978395.899020) can0 00009103#0000000000000000
(1790978395.899171) can0 000003FE#9D6A3B859C023019
(1790978395.900078) can0 11009203#0570000000000000
(1790978395.900237) can0 11000392#0570000000000000
(1790978395.901144) can0 11009303#1970000000000000
(1790978395.901320) can0 11000393#19700000DF7B4FB8
(1790978395.902207) can0 11009403#1B70000000000000
(1790978395.902375) can0 11000394#1B70000076BA06BE
(1790978395.903269) can0 11009503#2870000000000000
(1790978395.903424) can0 11000395#2870000058020000
(1790978395.904332) can0 11009603#2970000000000000
(1790978395.904497) can0 11000396#2970000000000000
(1790978395.905396) can0 11009703#2B70000000000000
(1790978395.905578) can0 11000397#2B70000000000000
(1790978395.906460) can0 04009804#00C4000000000000
(1790978395.906639) can0 02000498#00C4560002032207
(1790978395.907525) can0 00009904#0000000000000000
(1790978395.907689) can0 000004FE#8A063B8F2450B00D
(1790978395.908585) can0 11009A04#0570000000000000
(1790978395.908748) can0 1100049A#0570000000000000
(1790978395.909649) can0 11009B04#1970000000000000
(1790978395.909808) can0 1100049B#1970000000000000
(1790978395.910711) can0 11009C04#1B70000000000000
(1790978395.910889) can0 1100049C#1B7000005093B7BD
(1790978395.911772) can0 11009D04#2870000000000000
(1790978395.911945) can0 1100049D#2870000058020000
(1790978395.912839) can0 11009E04#2970000000000000
(1790978395.912997) can0 1100049E#2970000000000000
(1790978395.913899) can0 11009F04#2B70000000000000
(1790978395.914058) can0 1100049F#2B70000000000000
(1790978395.914964) can0 0400A005#00C4000000000000
(1790978395.915122) can0 020005A0#00C4560000032007
(1790978395.916027) can0 0000A105#0000000000000000
(1790978395.916181) can0 000005FE#622C30020C343701
(1790978395.917089) can0 1100A205#0570000000000000
(1790978395.917265) can0 110005A2#0570000000000000
(1790978395.918151) can0 1100A305#1970000000000000
(1790978395.918309) can0 110005A3#1970000033CB16BA
(1790978395.919212) can0 1100A405#1B70000000000000
(1790978395.919368) can0 110005A4#1B70000031907ABD
(1790978395.920276) can0 1100A505#2870000000000000
(1790978395.920433) can0 110005A5#2870000058020000
(1790978395.921341) can0 1100A605#2970000000000000
(1790978395.921516) can0 110005A6#2970000000000000
(1790978395.922403) can0 1100A705#2B70000000000000
(1790978395.922566) can0 110005A7#2B70000000000000
(1790978395.923496) can0 1200FD01#0A70000000000000
(1790978395.923652) can0 020001FD#80007FF67FFF00F0
(1790978395.923794) can0 017FFF01#7FFF7FFF00000000
(1790978395.923951) can0 020001FD#80007FD87FFF00F0
(1790978395.924093) can0 0400FD01#0000000000000000
(1790978395.924251) can0 020001FD#800080267FFF00F0
(1790978395.924385) can0 1200FD02#0A70000000000000
(1790978395.924551) can0 020002FD#7FFF7FBF7FFF00F0
(1790978395.924692) can0 017FFF02#7FFF7FFF00000000
(1790978395.924851) can0 020002FD#7FFF7FED7FFF00F0
(1790978395.924993) can0 0400FD02#0000000000000000
(1790978395.925150) can0 020002FD#7FFF80017FFF00F0
(1790978395.925283) can0 1200FD03#0A70000000000000
(1790978395.925474) can0 020003FD#7FFF80037FFF00E6
(1790978395.925605) can0 017FFF03#7FFF7FFF00000000
(1790978395.925772) can0 020003FD#7FFF7FC77FFF00E6
(1790978395.925915) can0 0400FD03#0000000000000000
(1790978395.926073) can0 020003FD#7FFF7FF57FFF00E6
(1790978395.926208) can0 1200FD04#0A70000000000000
(1790978395.926398) can0 020004FD#7FFF7FC97FFF00F0
(1790978395.926530) can0 017FFF04#7FFF7FFF00000000
(1790978395.926695) can0 020004FD#7FFF7FBE7FFF00F0
(1790978395.926839) can0 0400FD04#0000000000000000
(1790978395.926995) can0 020004FD#7FFF7FC97FFF00F0
(1790978395.927128) can0 1200FD05#0A70000000000000
(1790978395.927318) can0 020005FD#7FFE801E7FFF00F0
(1790978395.927450) can0 017FFF05#7FFF7FFF00000000
(1790978395.927609) can0 020005FD#7FFD806D7FFF00F0
(1790978395.927751) can0 0400FD05#0000000000000000
(1790978395.927913) can0 020005FD#7FFE80107FFF00F0
(1790978395.928044) can0 1200FD01#2870000058020000
(1790978395.928206) can0 020001FD#8000810A7FFF00F0
(1790978395.928340) can0 1100B001#2870000000000000
(1790978395.928508) can0 110001B0#2870000058020000
(1790978395.928822) can0 1200FD02#2870000058020000
(1790978395.929004) can0 020002FD#7FFF808E7FFF00F0
(1790978395.929131) can0 1100B102#2870000000000000
(1790978395.929302) can0 110002B1#2870000058020000
(1790978395.929893) can0 1200FD03#2870000058020000
(1790978395.930077) can0 020003FD#7FFF803E7FFF00E6
(1790978395.930205) can0 1100B203#2870000000000000
(1790978395.930376) can0 110003B2#2870000058020000
(1790978395.930961) can0 1200FD04#2870000058020000
(1790978395.931145) can0 020004FD#7FFF80077FFF00F0
(1790978395.931273) can0 1100B304#2870000000000000
(1790978395.931445) can0 110004B3#2870000058020000
(1790978395.932028) can0 1200FD05#2870000058020000
(1790978395.932209) can0 020005FD#7FFD7FDE7FFF00F0
(1790978395.932335) can0 1100B405#2870000000000000
(1790978395.932515) can0 110005B4#2870000058020000
(1790978395.933098) can0 0600D001#0100000000000000
(1790978395.933260) can0 020001D0#7FFF80417FFF00F0
(1790978395.934160) can0 1100E001#1970000000000000
(1790978395.934314) can0 110001E0#19700000E4B8B238
(1790978395.935225) can0 0600D102#0100000000000000
(1790978395.935406) can0 020002D1#7FFF801D7FFF00F0
(1790978395.936286) can0 1100E102#1970000000000000
(1790978395.936446) can0 110002E1#19700000ABAA3238
(1790978395.937353) can0 0600D203#0100000000000000
(1790978395.937529) can0 020003D2#7FFF7FFA7FFF00E6
(1790978395.938417) can0 1100E203#1970000000000000
(1790978395.938573) can0 110003E2#19700000638C4FB9
(1790978395.939483) can0 0600D304#0100000000000000
(1790978395.939646) can0 020004D3#7FFF7FC87FFF00F0
(1790978395.940543) can0 1100E304#1970000000000000
(1790978395.940701) can0 110004E3#1970000000000000
(1790978395.941608) can0 0600D405#0100000000000000
(1790978395.941768) can0 020005D4#7FFF7FEF7FFF00F0
(1790978395.942670) can0 1100E405#1970000000000000
(1790978395.942825) can0 110005E4#1970000067E62038
(1790978395.943735) can0 1100C001#2870000000000000
(1790978395.943904) can0 110001C0#2870000058020000
(1790978395.944798) can0 1100C102#2870000000000000
(1790978395.944954) can0 110002C1#2870000058020000
(1790978395.945860) can0 1100C203#2870000000000000
(1790978395.946026) can0 110003C2#2870000058020000
(1790978395.946922) can0 1100C304#2870000000000000
(1790978395.947094) can0 110004C3#2870000058020000
(1790978395.947983) can0 1100C405#2870000000000000
(1790978395.948163) can0 110005C4#2870000058020000
(1790978395.949965) can0 1200FD01#0A70000000000000
(1790978395.950119) can0 020001FD#7FFF80357FFF00F0
(1790978395.950260) can0 017FFF01#7FFF7FFF00000000
(1790978395.950415) can0 020001FD#7FFF7FAD7FFF00F0
(1790978395.950557) can0 0400FD01#0000000000000000
(1790978395.950711) can0 020001FD#7FFF7FAB7FFF00F0
(1790978395.950844) can0 1200FD02#0A70000000000000
(1790978395.951006) can0 020002FD#7FFF80647FFF00F0
(1790978395.951148) can0 017FFF02#7FFF7FFF00000000
(1790978395.951303) can0 020002FD#7FFF80867FFF00F0
(1790978395.951445) can0 0400FD02#0000000000000000
(1790978395.951600) can0 020002FD#7FFF80207FFF00F0
(1790978395.951734) can0 1200FD03#0A70000000000000
(1790978395.951925) can0 020003FD#7FFF7FBF7FFF00E6
(1790978395.952056) can0 017FFF03#7FFF7FFF00000000
(1790978395.952222) can0 020003FD#7FFF80667FFF00E6
(1790978395.952364) can0 0400FD03#0000000000000000
(1790978395.952526) can0 020003FD#7FFF80897FFF00E6
(1790978395.952657) can0 1200FD04#0A70000000000000
(1790978395.952848) can0 020004FD#7FFF80267FFF00F0
(1790978395.952980) can0 017FFF04#7FFF7FFF00000000
(1790978395.953141) can0 020004FD#800080467FFF00F0
(1790978395.953286) can0 0400FD04#0000000000000000
(1790978395.953446) can0 020004FD#800080507FFF00F0
(1790978395.953579) can0 1200FD05#0A70000000000000
(1790978395.953767) can0 020005FD#7FFF7FEA7FFF00F0
(1790978395.953899) can0 017FFF05#7FFF7FFF00000000
(1790978395.954062) can0 020005FD#7FFF800E7FFF00F0
(1790978395.954204) can0 0400FD05#0000000000000000
(1790978395.954367) can0 020005FD#7FFF802C7FFF00F0
(1790978395.973174) can0 11004001#1970000000000000
(1790978395.973349) can0 11000140#19700000E4B83239
(1790978395.974234) can0 11004101#2870000000000000
(1790978395.974403) can0 11000141#2870000058020000
(1790978395.975294) can0 11004202#1970000000000000
(1790978395.975447) can0 11000242#19700000ABAAB238
(1790978395.976356) can0 11004302#2870000000000000
(1790978395.976515) can0 11000243#2870000058020000
(1790978395.977420) can0 11004403#1970000000000000
(1790978395.977575) can0 11000344#19700000638C4FB9
(1790978395.978481) can0 11004503#2870000000000000
(1790978395.978637) can0 11000345#2870000058020000
(1790978395.979544) can0 11004604#1970000000000000
(1790978395.979697) can0 11000446#19700000EFBD4F38
(1790978395.980607) can0 11004704#2870000000000000
(1790978395.980762) can0 11000447#2870000058020000
(1790978395.981669) can0 11004805#1970000000000000
(1790978395.981824) can0 11000548#197000009AD920B9
(1790978395.982731) can0 11004905#2870000000000000
(1790978395.982910) can0 11000549#2870000058020000
(1790978395.984190) can0 0300FD01#0000000000000000
(1790978395.984459) can0 1200FD01#0570000000000000
(1790978395.984727) can0 0300FD02#0000000000000000
(1790978395.984994) can0 1200FD02#0570000000000000
(1790978395.985263) can0 0300FD03#0000000000000000
(1790978395.985531) can0 1200FD03#0570000000000000
(1790978395.985679) can0 028001FD#7FFF7FB37FC700F0
(1790978395.985820) can0 0300FD04#0000000000000000
(1790978395.985967) can0 028001FD#7FFF7FBB7FBA00F0
(1790978395.986107) can0 1200FD04#0570000000000000
(1790978395.986257) can0 028002FD#7FFF8022800F00F0
(1790978395.986397) can0 0300FD05#0000000000000000
(1790978395.986663) can0 1200FD05#0570000000000000
(1790978395.986811) can0 028003FD#7FFF7FE97FC100E6
(1790978395.986953) can0 017FFF01#7FFF7FFF00000000
(1790978395.987117) can0 028001FD#8000809A7F9C00F0
(1790978395.987258) can0 017FFF02#7FFF7FFF00000000
(1790978395.987407) can0 028002FD#7FFF7F83801900F0
(1790978395.987548) can0 017FFF03#7FFF7FFF00000000
(1790978395.987697) can0 028002FD#7FFF7FA0802300F0
(1790978395.987839) can0 017FFF04#7FFF7FFF00000000
(1790978395.987987) can0 028003FD#7FFE7FF47FCF00E6
(1790978395.988129) can0 017FFF05#7FFF7FFF00000000
(1790978395.988278) can0 028004FD#7FFF8005802B00F0
(1790978395.988420) can0 028004FD#7FFF8019804B00F0
(1790978395.988563) can0 028003FD#7FFF801C7FC000E6
(1790978395.988703) can0 028004FD#80008037806E00F0
(1790978395.988842) can0 11006001#1970000000000000
(1790978395.988991) can0 028005FD#7FFF80037FCD00F0
(1790978395.989132) can0 017FFF01#7FFF7FFF00000000
(1790978395.989283) can0 028005FD#7FFF80107F9700F0
(1790978395.989424) can0 017FFF02#7FFF7FFF00000000
(1790978395.989571) can0 02800160#7FFF806B7F8600F0
(1790978395.989713) can0 017FFF03#7FFF7FFF00000000
(1790978395.989863) can0 028002FD#7FFF800F801600F0
(1790978395.990005) can0 017FFF04#7FFF7FFF00000000
(1790978395.990153) can0 028003FD#7FFF7FD87FAC00E6
(1790978395.990295) can0 017FFF05#7FFF7FFF00000000
(1790978395.990445) can0 028004FD#80008010803200F0
(1790978395.990586) can0 017FFF01#7FFF7FFF00000000
(1790978395.990735) can0 028005FD#7FFF80047F9D00F0
(1790978395.990876) can0 017FFF02#7FFF7FFF00000000
(1790978395.991027) can0 02800160#7FFF80047F7800F0
(1790978395.991169) can0 017FFF03#7FFF7FFF00000000
(1790978395.991316) can0 028002FD#7FFF7F7A802300F0
(1790978395.991459) can0 017FFF04#7FFF7FFF00000000
(1790978395.991607) can0 028003FD#7FFF80267FB200E6
(1790978395.991749) can0 017FFF05#7FFF7FFF00000000
(1790978395.991901) can0 028004FD#7FFF8042803B00F0
(1790978395.992038) can0 028005FD#7FFF7FFB7FB900F0
(1790978395.992180) can0 028005FD#7FFF7FE57F9D00F0
(1790978395.992321) can0 11000160#19700000E4B8B238
(1790978395.992798) can0 11006101#2870000000000000
(1790978395.992961) can0 11000161#2870000058020000
(1790978395.993103) can0 017FFF01#7FFF7FFF00000000
(1790978395.993265) can0 02800161#7FFF80547F9C00F0
(1790978395.993407) can0 017FFF02#7FFF7FFF00000000
(1790978395.993564) can0 028002FD#7FFF8028801900F0
(1790978395.993705) can0 017FFF03#7FFF7FFF00000000
(1790978395.993937) can0 028003FD#7FFF80147FD400E6
(1790978395.994069) can0 017FFF04#7FFF7FFF00000000
(1790978395.994307) can0 028004FD#7FFF7FFB7FF500F0
(1790978395.994439) can0 017FFF05#7FFF7FFF00000000
(1790978395.994676) can0 028005FD#7FFF80247FB500F0
(1790978395.994803) can0 11006202#1970000000000000
(1790978395.994957) can0 11000262#19700000390E06B9
(1790978395.995099) can0 017FFF01#7FFF7FFF00000000
(1790978395.995263) can0 02800161#800080CC7F9600F0
(1790978395.995404) can0 017FFF02#7FFF7FFF00000000
(1790978395.995563) can0 02800262#7FFF8099800800F0
(1790978395.995704) can0 017FFF03#7FFF7FFF00000000
(1790978395.995937) can0 028003FD#7FFF80137FD600E6
(1790978395.996069) can0 017FFF04#7FFF7FFF00000000
(1790978395.996308) can0 028004FD#7FFF7FF5802500F0
(1790978395.996440) can0 017FFF05#7FFF7FFF00000000
(1790978395.996674) can0 028005FD#7FFF7FCB7FD100F0
(1790978395.996803) can0 11006302#2870000000000000
(1790978395.996960) can0 11000263#2870000058020000
(1790978395.997101) can0 017FFF01#7FFF7FFF00000000
(1790978395.997264) can0 02800161#7FFF803F7FB800F0
(1790978395.997405) can0 017FFF02#7FFF7FFF00000000
(1790978395.997562) can0 02800263#7FFF8017800200F0
(1790978395.997703) can0 017FFF03#7FFF7FFF00000000
(1790978395.997936) can0 028003FD#7FFF801D7FD900E6
(1790978395.998068) can0 017FFF04#7FFF7FFF00000000
(1790978395.998305) can0 028004FD#7FFF7FD5802100F0
(1790978395.998437) can0 017FFF05#7FFF7FFF00000000
(1790978395.998674) can0 028005FD#7FFF801B7FCD00F0
(1790978395.998801) can0 11006403#1970000000000000
(1790978395.998990) can0 11000364#197000006BAD1BB9
(1790978395.999121) can0 017FFF01#7FFF7FFF00000000
(1790978395.999318) can0 02800161#800080147FC700F0
(1790978395.999449) can0 017FFF02#7FFF7FFF00000000
(1790978395.999612) can0 02800263#7FFF807F7FFB00F0
(1790978395.999753) can0 017FFF03#7FFF7FFF00000000
(1790978395.999987) can0 02800364#7FFF80337FE800E6
(1790978396.000119) can0 017FFF04#7FFF7FFF00000000
(1790978396.000355) can0 028004FD#7FFF7FCA803D00F0
(1790978396.000491) can0 017FFF05#7FFF7FFF00000000
(1790978396.000729) can0 028005FD#800080367FE400F0
(1790978396.000856) can0 11006503#2870000000000000
(1790978396.001041) can0 11000365#2870000058020000
(1790978396.001172) can0 017FFF01#7FFF7FFF00000000
(1790978396.001368) can0 02800161#800080637FC800F0
(1790978396.001499) can0 017FFF02#7FFF7FFF00000000
(1790978396.001660) can0 02800263#7FFF7FF0801700F0
(1790978396.001801) can0 017FFF03#7FFF7FFF00000000
(1790978396.002035) can0 02800365#7FFF803B7FF700E6
(1790978396.002168) can0 017FFF04#7FFF7FFF00000000
(1790978396.002408) can0 028004FD#7FFF8016801D00F0
(1790978396.002539) can0 017FFF05#7FFF7FFF00000000
(1790978396.002773) can0 028005FD#7FFF80327FD500F0
(1790978396.002902) can0 11006604#1970000000000000
(1790978396.003057) can0 11000466#19700000DF7B4FB8
(1790978396.003198) can0 017FFF01#7FFF7FFF00000000
(1790978396.003363) can0 02800161#80007FBF7FC500F0
(1790978396.003504) can0 017FFF02#7FFF7FFF00000000
(1790978396.003660) can0 02800263#7FFF7FD3800A00F0
(1790978396.003801) can0 017FFF03#7FFF7FFF00000000
(1790978396.004038) can0 02800365#7FFF7FF9800200E6
(1790978396.004169) can0 017FFF04#7FFF7FFF00000000
(1790978396.004405) can0 02800466#7FFF80267FD700F0
(1790978396.004538) can0 017FFF05#7FFF7FFF00000000
(1790978396.004774) can0 028005FD#7FFF80277FBD00F0
(1790978396.004903) can0 11006704#2870000000000000
(1790978396.005107) can0 11000467#2870000058020000
(1790978396.005238) can0 017FFF01#7FFF7FFF00000000
(1790978396.005420) can0 02800161#800080E07FDC00F0
(1790978396.005551) can0 017FFF02#7FFF7FFF00000000
(1790978396.005714) can0 02800263#7FFF7FA67FEC00F0
(1790978396.005855) can0 017FFF03#7FFF7FFF00000000
(1790978396.006087) can0 02800365#7FFF80617FF400E6
(1790978396.006219) can0 017FFF04#7FFF7FFF00000000
(1790978396.006458) can0 02800467#7FFF7FFD7FF500F0
(1790978396.006590) can0 017FFF05#7FFF7FFF00000000
(1790978396.006824) can0 028005FD#7FFF7FEE7FDA00F0
(1790978396.006951) can0 11006805#1970000000000000
(1790978396.007129) can0 11000568#197000009AD92039
(1790978396.007259) can0 017FFF01#7FFF7FFF00000000
(1790978396.007462) can0 02800161#80007F747FED00F0
(1790978396.007594) can0 017FFF02#7FFF7FFF00000000
(1790978396.007760) can0 02800263#7FFF7F41801300F0
(1790978396.007902) can0 017FFF03#7FFF7FFF00000000
(1790978396.008136) can0 02800365#7FFF8019800B00E6
(1790978396.008268) can0 017FFF04#7FFF7FFF00000000
(1790978396.008509) can0 02800467#7FFF7FDC7FF800F0
(1790978396.008639) can0 017FFF05#7FFF7FFF00000000
(1790978396.008877) can0 02800568#7FFF7FEF7FEC00F0
(1790978396.009005) can0 11006905#2870000000000000
(1790978396.009174) can0 11000569#2870000058020000
(1790978396.009315) can0 017FFF01#7FFF7FFF00000000
(1790978396.009514) can0 02800161#800080087FBF00F0
(1790978396.009646) can0 017FFF02#7FFF7FFF00000000
(1790978396.009810) can0 02800263#7FFF8024800100F0
(1790978396.009951) can0 017FFF03#7FFF7FFF00000000
(1790978396.010185) can0 02800365#7FFF803A7FEA00E6
(1790978396.010317) can0 017FFF04#7FFF7FFF00000000
(1790978396.010556) can0 02800467#7FFF7FF4800600F0
(1790978396.010688) can0 017FFF05#7FFF7FFF00000000
(1790978396.010923) can0 02800569#7FFF7FD47FE700F0
(1790978396.011054) can0 017FFF01#7FFF7FFF00000000
(1790978396.011214) can0 02800161#80007F547FD900F0
(1790978396.011356) can0 017FFF02#7FFF7FFF00000000
(1790978396.011513) can0 02800263#7FFF8014800800F0
(1790978396.011655) can0 017FFF03#7FFF7FFF00000000
(1790978396.011887) can0 02800365#7FFF7F93800100E6
(1790978396.012019) can0 017FFF04#7FFF7FFF00000000
(1790978396.012255) can0 02800467#7FFF8074802F00F0
(1790978396.012382) can0 017FFF05#7FFF7FFF0F5C3333
(1790978396.012627) can0 02800569#8000804F801700F0
(1790978396.015594) can0 017FFF01#7FFF7FFF00000000
(1790978396.015764) can0 02800161#80007F8F7FE000F0
(1790978396.015906) can0 017FFF02#7FFF7FFF00000000
(1790978396.016062) can0 02800263#7FFF7FEA800F00F0
(1790978396.016204) can0 017FFF03#7FFF7FFF00000000
(1790978396.016436) can0 02800365#7FFF80647FDC00E6
(1790978396.016568) can0 017FFF04#7FFF7FFF00000000
(1790978396.016808) can0 02800467#7FFF7FDA801700F0
(1790978396.016934) can0 017FFF05#7FFE7FFF0F5C3333
(1790978396.017171) can0 02800569#7FFF80357FDA00F0
(1790978396.020596) can0 017FFF01#7FFF7FFF00000000
(1790978396.020765) can0 02800161#8000802C7FEC00F0
(1790978396.020907) can0 017FFF02#7FFF7FFF00000000
(1790978396.021061) can0 02800263#7FFF80767FE500F0
(1790978396.021203) can0 017FFF03#7FFF7FFF00000000
(1790978396.021437) can0 02800365#7FFF80337FED00E6
(1790978396.021569) can0 017FFF04#7FFF7FFF00000000
(1790978396.021806) can0 02800467#7FFF7FBD7FFE00F0
(1790978396.021932) can0 017FFF05#7FFE7FFF0F5C3333
(1790978396.022173) can0 02800569#7FFF80217FEF00F0
(1790978396.025598) can0 017FFF01#7FFF7FFF00000000
(1790978396.025764) can0 02800161#800080327FF100F0
(1790978396.025906) can0 017FFF02#7FFF7FFF00000000
(1790978396.026060) can0 02800263#7FFF7FC9801600F0
(1790978396.026202) can0 017FFF03#7FFF7FFF00000000
(1790978396.026436) can0 02800365#7FFF7FF0801900E6
(1790978396.026568) can0 017FFF04#7FFF7FFF00000000
(1790978396.026809) can0 02800467#7FFF800F7FEC00F0
(1790978396.026935) can0 017FFF05#7FFD7FFF0F5C3333
(1790978396.027175) can0 02800569#7FFF802C7FE400F0
(1790978396.030597) can0 017FFF01#7FFF7FFF00000000
(1790978396.030765) can0 02800161#80007FB7801000F0
(1790978396.030906) can0 017FFF02#7FFF7FFF00000000
(1790978396.031063) can0 02800263#7FFF7FE47FF000F0
(1790978396.031205) can0 017FFF03#7FFF7FFF00000000
(1790978396.031436) can0 02800365#7FFE7FD0800500E6
(1790978396.031568) can0 017FFF04#7FFF7FFF00000000
(1790978396.031806) can0 02800467#7FFF7FD57FF700F0
(1790978396.031934) can0 017FFF05#7FFC7FFF0F5C3333
(1790978396.032175) can0 02800569#7FFF7FF37FCE00F0
(1790978396.035591) can0 017FFF01#7FFF7FFF00000000
(1790978396.035761) can0 02800161#800180F3801500F0
(1790978396.035902) can0 017FFF02#7FFF7FFF00000000
(1790978396.036061) can0 02800263#7FFF802E7FED00F0
(1790978396.036201) can0 017FFF03#7FFF7FFF00000000
(1790978396.036436) can0 02800365#7FFF7FE87FF600E6
(1790978396.036568) can0 017FFF04#7FFF7FFF00000000
(1790978396.036806) can0 02800467#7FFF7FEE7FD600F0
(1790978396.036934) can0 017FFF05#7FFC7FFF0F5C3333
(1790978396.037172) can0 02800569#7FFF7FCF7FBA00F0
(1790978396.040591) can0 017FFF01#7FFF7FFF00000000
(1790978396.040769) can0 02800161#80018036800300F0
(1790978396.040898) can0 017FFF02#7FFF7FFF00000000
(1790978396.041063) can0 02800263#7FFF7F9E800C00F0
(1790978396.041204) can0 017FFF03#7FFF7FFF00000000
(1790978396.041438) can0 02800365#7FFF7FE07FFE00E6
(1790978396.041570) can0 017FFF04#7FFF7FFF00000000
(1790978396.041808) can0 02800467#7FFF7FC17FCC00F0
(1790978396.041935) can0 017FFF05#7FFB7FFF0F5C3333
(1790978396.042172) can0 02800569#7FFF802D7FA500F0
(1790978396.045593) can0 017FFF01#7FFF7FFF00000000
(1790978396.045763) can0 02800161#80007FBC800600F0
(1790978396.045904) can0 017FFF02#7FFF7FFF00000000
(1790978396.046062) can0 02800263#7FFF7F70800400F0
(1790978396.046203) can0 017FFF03#7FFF7FFF00000000
(1790978396.046437) can0 02800365#7FFF7FE77FFB00E6
(1790978396.046568) can0 017FFF04#7FFF7FFF00000000
(1790978396.046809) can0 02800467#7FFF7FFA7FEC00F0
(1790978396.046935) can0 017FFF05#7FFA7FFF0F5C3333
(1790978396.047173) can0 02800569#7FFF80137FA300F0
(1790978396.050599) can0 017FFF01#7FFF7FFF00000000
(1790978396.050763) can0 02800161#8000809D801700F0
(1790978396.050904) can0 017FFF02#7FFF7FFF00000000
(1790978396.051060) can0 02800263#7FFF80437FF300F0
(1790978396.051201) can0 017FFF03#7FFF7FFF00000000
(1790978396.051436) can0 02800365#7FFF802F7FF600E6
(1790978396.051568) can0 017FFF04#7FFF7FFF00000000
(1790978396.051807) can0 02800467#7FFF7FF4800500F0
(1790978396.051933) can0 017FFF05#7FFA7FFF0F5C3333
(1790978396.052173) can0 02800569#7FFF7FB67F9700F0
(1790978396.055600) can0 017FFF01#7FFF7FFF00000000
(1790978396.055768) can0 02800161#80007F7F800400F0
(1790978396.055910) can0 017FFF02#7FFF7FFF00000000
(1790978396.056107) can0 02800263#7FFF7FE4800E00F0
(1790978396.056238) can0 017FFF03#7FFF7FFF00000000
(1790978396.056488) can0 02800365#7FFF802E7FFE00E6
(1790978396.056620) can0 017FFF04#7FFF7FFF00000000
(1790978396.056857) can0 02800467#7FFF801F7FE500F0
(1790978396.056983) can0 017FFF05#7FF97FFF0F5C3333
(1790978396.057223) can0 02800569#7FFF802F7F7800F0
(1790978396.060615) can0 017FFF01#7FFF7FFF00000000
(1790978396.060810) can0 02800161#80008067800600F0
(1790978396.060941) can0 017FFF02#7FFF7FFF00000000
(1790978396.061111) can0 02800263#7FFF80657FFF00F0
(1790978396.061252) can0 017FFF03#7FFF7FFF00000000
(1790978396.061485) can0 02800365#7FFF7F9A7FFB00E6
(1790978396.061618) can0 017FFF04#7FFF7FFF00000000
(1790978396.061855) can0 02800467#7FFF8077802500F0
(1790978396.061981) can0 017FFF05#7FF87FFF0F5C3333
(1790978396.062224) can0 02800569#7FFF80217F8200F0
(1790978396.065611) can0 017FFF01#7FFF7FFF00000000
(1790978396.065765) can0 02800161#800180B3800E00F0
(1790978396.065906) can0 017FFF02#7FFF7FFF00000000
(1790978396.066062) can0 02800263#7FFF80257FFB00F0
(1790978396.066203) can0 017FFF03#7FFF7FFF00000000
(1790978396.066437) can0 02800365#7FFF7FB57FF000E6
(1790978396.066568) can0 017FFF04#7FFF7FFF00000000
(1790978396.066806) can0 02800467#7FFF7F8D7FE600F0
(1790978396.066932) can0 017FFF05#7FF87FFF0F5C3333
(1790978396.067171) can0 02800569#7FFF802D7F6A00F0
(1790978396.070607) can0 017FFF01#7FFF7FFF00000000
(1790978396.070764) can0 02800161#8000806C801000F0
(1790978396.070905) can0 017FFF02#7FFF7FFF00000000
(1790978396.071063) can0 02800263#7FFF801F801B00F0
(1790978396.071204) can0 017FFF03#7FFF7FFF00000000
(1790978396.071437) can0 02800365#7FFF7FD37FEA00E6
(1790978396.071568) can0 017FFF04#7FFF7FFF00000000
(1790978396.071806) can0 02800467#7FFF7FF77FEB00F0
(1790978396.071933) can0 017FFF05#7FF77FFF0F5C3333
(1790978396.072173) can0 02800569#7FFF801E7F4B00F0
(1790978396.075606) can0 017FFF01#7FFF7FFF00000000
(1790978396.075763) can0 02800161#8000805D800800F0
(1790978396.075904) can0 017FFF02#7FFF7FFF00000000
(1790978396.076062) can0 02800263#7FFE7F6B7FEC00F0
(1790978396.076203) can0 017FFF03#7FFF7FFF00000000
(1790978396.076436) can0 02800365#7FFF804D800500E6
(1790978396.076567) can0 017FFF04#7FFF7FFF00000000
(1790978396.076807) can0 02800467#7FFF7FEE7FF900F0
(1790978396.076934) can0 017FFF05#7FF77FFF0F5C3333
(1790978396.077173) can0 02800569#7FFF80047F4100F0
(1790978396.080607) can0 017FFF01#7FFF7FFF00000000
(1790978396.080762) can0 02800161#80007FCB7FED00F0
(1790978396.080903) can0 017FFF02#7FFF7FFF00000000
(1790978396.081058) can0 02800263#7FFF7FD17FF500F0
(1790978396.081199) can0 017FFF03#7FFF7FFF00000000
(1790978396.081435) can0 02800365#7FFF7FC5800B00E6
(1790978396.081567) can0 017FFF04#7FFF7FFF00000000
(1790978396.081808) can0 02800467#7FFF80177FDC00F0
(1790978396.081934) can0 017FFF05#7FF67FFF0F5C3333
(1790978396.082173) can0 02800569#7FFF7FF67F4E00F0
(1790978396.085608) can0 017FFF01#7FFF7FFF00000000
(1790978396.085762) can0 02800161#80007FC3801B00F0
(1790978396.085903) can0 017FFF02#7FFF7FFF00000000
(1790978396.086059) can0 02800263#7FFF8061800000F0
(1790978396.086200) can0 017FFF03#7FFF7FFF00000000
(1790978396.086436) can0 02800365#7FFF802C800400E6
(1790978396.086568) can0 017FFF04#7FFF7FFF00000000
(1790978396.086806) can0 02800467#7FFF7FEE7FE700F0
(1790978396.086933) can0 017FFF05#7FF57FFF0F5C3333
(1790978396.087174) can0 02800569#7FFF80107F3800F0
(1790978396.090607) can0 017FFF01#7FFF7FFF00000000
(1790978396.090764) can0 02800161#80007F447FFE00F0
(1790978396.090905) can0 017FFF02#7FFF7FFF00000000
(1790978396.091061) can0 02800263#7FFF807D7FFE00F0
(1790978396.091202) can0 017FFF03#7FFF7FFF00000000
(1790978396.091436) can0 02800365#7FFF7FEC801500E6
(1790978396.091568) can0 017FFF04#7FFF7FFF00000000
(1790978396.091808) can0 02800467#7FFF7FC07FF400F0
(1790978396.091935) can0 017FFF05#7FF57FFF0F5C3333
(1790978396.092172) can0 02800569#7FFE7FF17F1800F0
(1790978396.095608) can0 017FFF01#7FFF7FFF00000000
(1790978396.095765) can0 02800161#80007FC27FEC00F0
(1790978396.095906) can0 017FFF02#7FFF7FFF00000000
(1790978396.096063) can0 02800263#7FFF80807FEB00F0
(1790978396.096204) can0 017FFF03#7FFF7FFF00000000
(1790978396.096436) can0 02800365#7FFF8042801F00E6
(1790978396.096568) can0 017FFF04#7FFF7FFF00000000
(1790978396.096807) can0 02800467#7FFF7FE1802B00F0
(1790978396.096934) can0 017FFF05#7FF47FFF0F5C3333
(1790978396.097171) can0 02800569#7FFE7FAF7F0800F0
(1790978396.100607) can0 017FFF01#7FFF7FFF00000000
(1790978396.100764) can0 02800161#800080157FF500F0
(1790978396.100905) can0 017FFF02#7FFF7FFF00000000
(1790978396.101062) can0 02800263#7FFF7FFB7FF200F0
(1790978396.101203) can0 017FFF03#7FFF7FFF00000000
(1790978396.101436) can0 02800365#7FFF7FCC7FE700E6
(1790978396.101568) can0 017FFF04#7FFF7FFF00000000
(1790978396.101806) can0 02800467#7FFF80177FEE00F0
(1790978396.101933) can0 017FFF05#7FF37FFF0F5C3333
(1790978396.102174) can0 02800569#7FFE7FEE7F1400F0
(1790978396.105607) can0 017FFF01#7FFF7FFF00000000
(1790978396.105762) can0 02800161#800180987FF300F0
(1790978396.105903) can0 017FFF02#7FFF7FFF00000000
(1790978396.106058) can0 02800263#7FFF80BB802200F0
(1790978396.106199) can0 017FFF03#7FFF7FFF00000000
(1790978396.106436) can0 02800365#7FFF7FE37FE700E6
(1790978396.106568) can0 017FFF04#7FFF7FFF00000000
(1790978396.106804) can0 02800467#7FFF804E802E00F0
(1790978396.106930) can0 017FFF05#7FF37FFF0F5C3333
(1790978396.107171) can0 02800569#7FFE7FD27EFA00F0
(1790978396.110611) can0 017FFF01#7FFF7FFF00000000
(1790978396.110767) can0 02800161#8001801D7FD400F0
(1790978396.110908) can0 017FFF02#7FFF7FFF00000000
(1790978396.111105) can0 02800263#7FFF7F0A800600F0
(1790978396.111236) can0 017FFF03#7FFF7FFF00000000
(1790978396.111484) can0 02800365#7FFF7FB2800C00E6
(1790978396.111616) can0 017FFF04#7FFF7FFF00000000
(1790978396.111856) can0 02800467#7FFF7FCC7FE000F0
(1790978396.111984) can0 017FFF05#7FF27FFF0F5C3333
(1790978396.112222) can0 02800569#7FFE80267EDD00F0
(1790978396.115609) can0 017FFF01#7FFF7FFF00000000
(1790978396.115764) can0 02800161#80008077800800F0
(1790978396.115905) can0 017FFF02#7FFF7FFF00000000
(1790978396.116063) can0 02800263#7FFF7FAF7FF800F0
(1790978396.116204) can0 017FFF03#7FFF7FFF00000000
(1790978396.116436) can0 02800365#7FFF806A800E00E6
(1790978396.116568) can0 017FFF04#7FFF7FFF00000000
(1790978396.116806) can0 02800467#7FFF804C805200F0
(1790978396.116931) can0 017FFF05#7FF17FFF0F5C3333
(1790978396.117174) can0 02800569#7FFE801E7ED800F0
(1790978396.120605) can0 017FFF01#7FFF7FFF00000000
(1790978396.120764) can0 02800161#8000801B7FEE00F0
(1790978396.120906) can0 017FFF02#7FFF7FFF00000000
(1790978396.121065) can0 02800263#7FFF7FE8800400F0
(1790978396.121206) can0 017FFF03#7FFF7FFF00000000
(1790978396.121435) can0 02800365#7FFF803A7FF700E6
(1790978396.121567) can0 017FFF04#7FFF7FFF00000000
(1790978396.121803) can0 02800467#7FFF8021803300F0
(1790978396.121929) can0 017FFF05#7FF17FFF0F5C3333
(1790978396.122171) can0 02800569#7FFE7FE57EAB00F0
(1790978396.125609) can0 017FFF01#7FFF7FFF00000000
(1790978396.125763) can0 02800161#80007FF47FDA00F0
(1790978396.125904) can0 017FFF02#7FFF7FFF00000000
(1790978396.126063) can0 02800263#7FFF800C7FE100F0
(1790978396.126204) can0 017FFF03#7FFF7FFF00000000
(1790978396.126435) can0 02800365#7FFF80547FFA00E6
(1790978396.126567) can0 017FFF04#7FFF7FFF00000000
(1790978396.126805) can0 02800467#7FFF8020804300F0
(1790978396.126931) can0 017FFF05#7FF07FFF0F5C3333
(1790978396.127170) can0 02800569#7FFE7FB27EC100F0
(1790978396.130609) can0 017FFF01#7FFF7FFF00000000
(1790978396.130763) can0 02800161#80007FDA7FFE00F0
(1790978396.130904) can0 017FFF02#7FFF7FFF00000000
(1790978396.131064) can0 02800263#7FFF7F907FEC00F0
(1790978396.131205) can0 017FFF03#7FFF7FFF00000000
(1790978396.131438) can0 02800365#7FFF8000800C00E6
(1790978396.131570) can0 017FFF04#7FFF7FFF00000000
(1790978396.131805) can0 02800467#7FFF8023800600F0
(1790978396.131931) can0 017FFF05#7FEF7FFF0F5C3333
(1790978396.132169) can0 02800569#7FFD7FB67EC200F0
(1790978396.135607) can0 017FFF01#7FFF7FFF00000000
(1790978396.135762) can0 02800161#80017FB97FF700F0
(1790978396.135903) can0 017FFF02#7FFF7FFF00000000
(1790978396.136059) can0 02800263#7FFF7F2B800B00F0
(1790978396.136201) can0 017FFF03#7FFF7FFF00000000
(1790978396.136435) can0 02800365#7FFF8097800200E6
(1790978396.136567) can0 017FFF04#7FFF7FFF00000000
(1790978396.136805) can0 02800467#7FFF7F9C800B00F0
(1790978396.136931) can0 017FFF05#7FEF7FFF0F5C3333
(1790978396.137173) can0 02800569#7FFE800C7E8600F0
(1790978396.140606) can0 017FFF01#7FFF7FFF00000000
(1790978396.140762) can0 02800161#80017FDF800B00F0
(1790978396.140904) can0 017FFF02#7FFF7FFF00000000
(1790978396.141060) can0 02800263#7FFF7FED802300F0
(1790978396.141201) can0 017FFF03#7FFF7FFF00000000
(1790978396.141436) can0 02800365#7FFF80307FCD00E6
(1790978396.141575) can0 017FFF04#7FFF7FFF00000000
(1790978396.141804) can0 02800467#7FFF7FA7804500F0
(1790978396.141931) can0 017FFF05#7FEE7FFF0F5C3333
(1790978396.142169) can0 02800569#7FFD7F947EA100F0
(1790978396.145609) can0 017FFF01#7FFF7FFF00000000
(1790978396.145763) can0 02800161#800180BC7FFC00F0
(1790978396.145905) can0 017FFF02#7FFF7FFF00000000
(1790978396.146062) can0 02800263#7FFF7FEF7FFD00F0
(1790978396.146204) can0 017FFF03#7FFF7FFF00000000
(1790978396.146437) can0 02800365#7FFF800F7FED00E6
(1790978396.146569) can0 017FFF04#7FFF7FFF00000000
(1790978396.146804) can0 02800467#7FFF7FED7FD200F0
(1790978396.146931) can0 017FFF05#7FED7FFF0F5C3333
(1790978396.147174) can0 02800569#7FFE801D7E6400F0
(1790978396.150607) can0 017FFF01#7FFF7FFF00000000
(1790978396.150762) can0 02800161#80017FDC7FFF00F0
(1790978396.150904) can0 017FFF02#7FFF7FFF00000000
(1790978396.151060) can0 02800263#7FFF80C5800E00F0
(1790978396.151201) can0 017FFF03#7FFF7FFF00000000
(1790978396.151435) can0 02800365#7FFF802B7FF500E6
(1790978396.151574) can0 017FFF04#7FFF7FFF00000000
(1790978396.151806) can0 02800467#7FFF7FD0802C00F0
(1790978396.151933) can0 017FFF05#7FED7FFF0F5C3333
(1790978396.152171) can0 02800569#7FFD7FFC7E6F00F0
(1790978396.155606) can0 017FFF01#7FFF7FFF00000000
(1790978396.155761) can0 02800161#80007F65800300F0
(1790978396.155903) can0 017FFF02#7FFF7FFF00000000
(1790978396.156059) can0 02800263#7FFF7FDB7FFE00F0
(1790978396.156200) can0 017FFF03#7FFF7FFF00000000
(1790978396.156436) can0 02800365#7FFF7FD47FFB00E6
(1790978396.156568) can0 017FFF04#7FFF7FFF00000000
(1790978396.156804) can0 02800467#7FFF8047801300F0
(1790978396.156930) can0 017FFF05#7FEC7FFF0F5C3333
(1790978396.157172) can0 02800569#7FFD7FD07E4000F0
(1790978396.160637) can0 017FFF01#7FFF7FFF00000000
(1790978396.160819) can0 02800161#80007FF3801400F0
(1790978396.160951) can0 017FFF02#7FFF7FFF00000000
(1790978396.161153) can0 02800263#7FFF7FCD800500F0
(1790978396.161285) can0 017FFF03#7FFF7FFF00000000
(1790978396.161493) can0 02800365#7FFF800E7FFB00E6
(1790978396.161625) can0 017FFF04#7FFF7FFF00000000
(1790978396.161856) can0 02800467#7FFF7FE37FE000F0
(1790978396.161982) can0 017FFF05#7FEB7FFF0F5C3333
(1790978396.162222) can0 02800569#7FFD80007E3900F0
(1790978396.165623) can0 017FFF01#7FFF7FFF00000000
(1790978396.165821) can0 02800161#80007FEF801A00F0
(1790978396.165951) can0 017FFF02#7FFF7FFF00000000
(1790978396.166155) can0 02800263#7FFF805F7FFD00F0
(1790978396.166286) can0 017FFF03#7FFF7FFF00000000
(1790978396.166536) can0 02800365#7FFF80327FF800E6
(1790978396.166667) can0 017FFF04#7FFF7FFF00000000
(1790978396.166906) can0 02800467#7FFF7FBB7FDE00F0
(1790978396.167032) can0 017FFF05#7FEB7FFF0F5C3333
(1790978396.167274) can0 02800569#7FFD80067E4C00F0
(1790978396.170617) can0 017FFF01#7FFF7FFF00000000
(1790978396.170813) can0 02800161#80007FC5800000F0
(1790978396.170944) can0 017FFF02#7FFF7FFF00000000
(1790978396.171108) can0 02800263#7FFF809B800700F0
(1790978396.171250) can0 017FFF03#7FFF7FFF00000000
(1790978396.171486) can0 02800365#7FFF7FC77FED00E6
(1790978396.171618) can0 017FFF04#7FFF7FFF00000000
(1790978396.171859) can0 02800467#7FFF80307FF800F0
(1790978396.171986) can0 017FFF05#7FEA7FFF0F5C3333
(1790978396.172221) can0 02800569#7FFD7FDD7E0700F0
(1790978396.175618) can0 017FFF01#7FFF7FFF00000000
(1790978396.175815) can0 02800161#800180447FF800F0
(1790978396.175946) can0 017FFF02#7FFF7FFF00000000
(1790978396.176110) can0 02800263#7FFF809C7FF300F0
(1790978396.176252) can0 017FFF03#7FFF7FFF00000000
(1790978396.176487) can0 02800365#7FFF7FAE7FD800E6
(1790978396.176618) can0 017FFF04#7FFF7FFF00000000
(1790978396.176854) can0 02800467#7FFF80387FEE00F0
(1790978396.176981) can0 017FFF05#7FE97FFF0F5C3333
(1790978396.177220) can0 02800569#7FFC7FAF7E5700F0
(1790978396.180620) can0 017FFF01#7FFF7FFF00000000
(1790978396.180814) can0 02800161#800180017FFE00F0
(1790978396.180945) can0 017FFF02#7FFF7FFF00000000
(1790978396.181110) can0 02800263#7FFF8087800800F0
(1790978396.181252) can0 017FFF03#7FFF7FFF00000000
(1790978396.181486) can0 02800365#7FFF801B801A00E6
(1790978396.181619) can0 017FFF04#7FFF7FFF00000000
(1790978396.181857) can0 02800467#7FFF800A7FEA00F0
(1790978396.181984) can0 017FFF05#7FE97FFF0F5C3333
(1790978396.182223) can0 02800569#7FFC7FEE7E3900F0
(1790978396.185619) can0 017FFF01#7FFF7FFF00000000
(1790978396.185815) can0 02800161#80007F85801800F0
(1790978396.185946) can0 017FFF02#7FFF7FFF00000000
(1790978396.186108) can0 02800263#7FFF805B7FFD00F0
(1790978396.186250) can0 017FFF03#7FFF7FFF00000000
(1790978396.186486) can0 02800365#7FFF8078800900E6
(1790978396.186618) can0 017FFF04#7FFF7FFF00000000
(1790978396.186855) can0 02800467#7FFF7FE6803D00F0
(1790978396.186983) can0 017FFF05#7FE87FFF0F5C3333
(1790978396.187221) can0 02800569#7FFC7FB57E3200F0
(1790978396.190616) can0 017FFF01#7FFF7FFF00000000
(1790978396.190813) can0 02800161#8000801A800B00F0
(1790978396.190944) can0 017FFF02#7FFF7FFF00000000
(1790978396.191109) can0 02800263#7FFF7F9B7FF100F0
(1790978396.191251) can0 017FFF03#7FFF7FFF00000000
(1790978396.191489) can0 02800365#7FFF8004802800E6
(1790978396.191620) can0 017FFF04#7FFF7FFF00000000
(1790978396.191854) can0 02800467#7FFF8022800100F0
(1790978396.191982) can0 017FFF05#7FE87FFF0F5C3333
(1790978396.192223) can0 02800569#7FFC7FE07E0E00F0
(1790978396.195618) can0 017FFF01#7FFF7FFF00000000
(1790978396.195814) can0 02800161#80007F487FF700F0
(1790978396.195945) can0 017FFF02#7FFF7FFF00000000
(1790978396.196111) can0 02800263#7FFF7F037FED00F0
(1790978396.196253) can0 017FFF03#7FFF7FFF00000000
(1790978396.196486) can0 02800365#7FFF806A800D00E6
(1790978396.196617) can0 017FFF04#7FFF7FFF00000000
(1790978396.196856) can0 02800467#7FFF80177FF900F0
(1790978396.196983) can0 017FFF05#7FE77FFF0F5C3333
(1790978396.197223) can0 02800569#7FFC80347E0300F0
(1790978396.200616) can0 017FFF01#7FFF7FFF00000000
(1790978396.200816) can0 02800161#800080587FF400F0
(1790978396.200947) can0 017FFF02#7FFF7FFF00000000
(1790978396.201108) can0 02800263#7FFF7FA47FEB00F0
(1790978396.201249) can0 017FFF03#7FFF7FFF00000000
(1790978396.201485) can0 02800365#7FFF80347FEE00E6
(1790978396.201617) can0 017FFF04#7FFF7FFF00000000
(1790978396.201856) can0 02800467#7FFF80327FF600F0
(1790978396.201983) can0 017FFF05#7FE67FFF0F5C3333
(1790978396.202222) can0 02800569#7FFC80087E0000F0
(1790978396.205617) can0 017FFF01#7FFF7FFF00000000
(1790978396.205815) can0 02800161#80007FCA800400F0
(1790978396.205946) can0 017FFF02#7FFF7FFF00000000
(1790978396.206110) can0 02800263#7FFF7F867FFF00F0
(1790978396.206251) can0 017FFF03#7FFF7FFF00000000
(1790978396.206486) can0 02800365#7FFF802F7FE000E6
(1790978396.206618) can0 017FFF04#7FFF7FFF00000000
(1790978396.206859) can0 02800467#7FFF800E7FE400F0
(1790978396.206986) can0 017FFF05#7FE67FFF0F5C3333
(1790978396.207222) can0 02800569#7FFC7FF97DD900F0
(1790978396.210626) can0 017FFF01#7FFF7FFF00000000
(1790978396.210816) can0 02800161#80007FDE801B00F0
(1790978396.210947) can0 017FFF02#7FFF7FFF00000000
(1790978396.211110) can0 02800263#7FFF80DD800300F0
(1790978396.211251) can0 017FFF03#7FFF7FFF00000000
(1790978396.211486) can0 02800365#7FFF800C800200E6
(1790978396.211618) can0 017FFF04#7FFF7FFF00000000
(1790978396.211857) can0 02800467#7FFF80037FF100F0
(1790978396.211983) can0 017FFF05#7FE57FFF0F5C3333
(1790978396.212222) can0 02800569#7FFB7FEB7DFD00F0
(1790978396.215620) can0 017FFF01#7FFF7FFF00000000
(1790978396.215815) can0 02800161#8000804C7FF200F0
(1790978396.215946) can0 017FFF02#7FFF7FFF00000000
(1790978396.216112) can0 02800263#7FFF8071800C00F0
(1790978396.216253) can0 017FFF03#7FFF7FFF00000000
(1790978396.216487) can0 02800365#7FFF7F947FF400E6
(1790978396.216618) can0 017FFF04#7FFF7FFF00000000
(1790978396.216856) can0 02800467#7FFF7FA37FF100F0
(1790978396.216983) can0 017FFF05#7FE47FFF0F5C3333
(1790978396.217223) can0 02800569#7FFB80827DE300F0
(1790978396.220617) can0 017FFF01#7FFF7FFF00000000
(1790978396.220813) can0 02800161#80007FB2800500F0
(1790978396.220944) can0 017FFF02#7FFF7FFF00000000
(1790978396.221109) can0 02800263#7FFF7FBB7FED00F0
(1790978396.221250) can0 017FFF03#7FFF7FFF00000000
(1790978396.221485) can0 02800365#7FFE7FD97FFC00E6
(1790978396.221617) can0 017FFF04#7FFF7FFF00000000
(1790978396.221858) can0 02800467#7FFF8009802000F0
(1790978396.221986) can0 017FFF05#7FE47FFF0F5C3333
(1790978396.222220) can0 02800569#7FFB7FEA7DCB00F0
(1790978396.225619) can0 017FFF01#7FFF7FFF00000000
(1790978396.225815) can0 02800161#80007F21800900F0
(1790978396.225946) can0 017FFF02#7FFF7FFF00000000
(1790978396.226108) can0 02800263#7FFF7FB2800600F0
(1790978396.226249) can0 017FFF03#7FFF7FFF00000000
(1790978396.226489) can0 02800365#7FFF7FE07FFC00E6
(1790978396.226621) can0 017FFF04#7FFF7FFF00000000
(1790978396.226860) can0 02800467#7FFF801E7FFF00F0
(1790978396.226989) can0 017FFF05#7FE37FFF0F5C3333
(1790978396.227222) can0 02800569#7FFB80157DAF00F0
(1790978396.230619) can0 017FFF01#7FFF7FFF00000000
(1790978396.230814) can0 02800161#80007F737FF200F0
(1790978396.230945) can0 017FFF02#7FFF7FFF00000000
(1790978396.231107) can0 02800263#7FFF80A4800300F0
(1790978396.231249) can0 017FFF03#7FFF7FFF00000000
(1790978396.231485) can0 02800365#7FFF80277FF600E6
(1790978396.231617) can0 017FFF04#7FFF7FFF00000000
(1790978396.231856) can0 02800467#7FFF803B7F9400F0
(1790978396.231982) can0 017FFF05#7FE27FFF0F5C3333
(1790978396.232220) can0 02800569#7FFA7FBB7DA800F0
(1790978396.235618) can0 017FFF01#7FFF7FFF00000000
(1790978396.235811) can0 02800161#80017F637FDB00F0
(1790978396.235942) can0 017FFF02#7FFF7FFF00000000
(1790978396.236110) can0 02800263#7FFF7FF47FE000F0
(1790978396.236252) can0 017FFF03#7FFF7FFF00000000
(1790978396.236491) can0 02800365#7FFF8013801400E6
(1790978396.236622) can0 017FFF04#7FFF7FFF00000000
(1790978396.236858) can0 02800467#7FFF7FEA7FEC00F0
(1790978396.236984) can0 017FFF05#7FE27FFF0F5C3333
(1790978396.237224) can0 02800569#7FFA7FE37DBC00F0
(1790978396.240617) can0 017FFF01#7FFF7FFF00000000
(1790978396.240814) can0 02800161#80007F7D7FE800F0
(1790978396.240945) can0 017FFF02#7FFF7FFF00000000
(1790978396.241110) can0 02800263#7FFF7FE97FF800F0
(1790978396.241252) can0 017FFF03#7FFF7FFF00000000
(1790978396.241488) can0 02800365#7FFF7FB97FFC00E6
(1790978396.241620) can0 017FFF04#7FFF7FFF00000000
(1790978396.241856) can0 02800467#7FFF7FAE7FC000F0
(1790978396.241984) can0 017FFF05#7FE17FFF0F5C3333
(1790978396.242219) can0 02800569#7FF97FDB7DD700F0
(1790978396.245618) can0 017FFF01#7FFF7FFF00000000
(1790978396.245813) can0 02800161#80018004800700F0
(1790978396.245944) can0 017FFF02#7FFF7FFF00000000
(1790978396.246107) can0 02800263#7FFF8039801500F0
(1790978396.246249) can0 017FFF03#7FFF7FFF00000000
(1790978396.246485) can0 02800365#7FFF8035800100E6
(1790978396.246617) can0 017FFF04#7FFF7FFF00000000
(1790978396.246856) can0 02800467#7FFF7FE3800500F0
(1790978396.246984) can0 017FFF05#7FE07FFF0F5C3333
(1790978396.247223) can0 02800569#7FF97FFD7DC600F0
(1790978396.250618) can0 017FFF01#7FFF7FFF00000000
(1790978396.250814) can0 02800161#800180467FF000F0
(1790978396.250945) can0 017FFF02#7FFF7FFF00000000
(1790978396.251108) can0 02800263#7FFF7F917FFA00F0
(1790978396.251250) can0 017FFF03#7FFF7FFF00000000
(1790978396.251484) can0 02800365#7FFF7FCE802D00E6
(1790978396.251616) can0 017FFF04#7FFF7FFF00000000
(1790978396.251858) can0 02800467#7FFF8043800C00F0
(1790978396.251986) can0 017FFF05#7FE07FFF0F5C3333
(1790978396.252222) can0 02800569#7FF87FF87DDB00F0
(1790978396.255617) can0 017FFF01#7FFF7FFF00000000
(1790978396.255814) can0 02800161#80007F89800000F0
(1790978396.255945) can0 017FFF02#7FFF7FFF00000000
(1790978396.256108) can0 02800263#7FFF7FF37FF600F0
(1790978396.256250) can0 017FFF03#7FFF7FFF00000000
(1790978396.256487) can0 02800365#7FFF80207FF100E6
(1790978396.256618) can0 017FFF04#7FFF7FFF00000000
(1790978396.256854) can0 02800467#7FFF7F567FE900F0
(1790978396.256980) can0 017FFF05#7FDF7FFF0F5C3333
(1790978396.257222) can0 02800569#7FF87FA97DF200F0
(1790978396.260627) can0 017FFF01#7FFF7FFF00000000
(1790978396.260815) can0 02800161#80017FDF7FFB00F0
(1790978396.260946) can0 017FFF02#7FFF7FFF00000000
(1790978396.261109) can0 02800263#7FFF7FD9800900F0
(1790978396.261251) can0 017FFF03#7FFF7FFF00000000
(1790978396.261484) can0 02800365#7FFF80687FDF00E6
(1790978396.261616) can0 017FFF04#7FFF7FFF00000000
(1790978396.261853) can0 02800467#7FFF7FA67FFD00F0
(1790978396.261978) can0 017FFF05#7FDE7FFF0F5C3333
(1790978396.262223) can0 02800569#7FF77FD27DCC00F0
(1790978396.265620) can0 017FFF01#7FFF7FFF00000000
(1790978396.265817) can0 02800161#80017FE17FF100F0
(1790978396.265948) can0 017FFF02#7FFF7FFF00000000
(1790978396.266111) can0 02800263#7FFF7FFF7FFB00F0
(1790978396.266252) can0 017FFF03#7FFF7FFF00000000
(1790978396.266486) can0 02800365#7FFF7FE9801700E6
(1790978396.266617) can0 017FFF04#7FFF7FFF00000000
(1790978396.266855) can0 02800467#7FFF80087FE900F0
(1790978396.266980) can0 017FFF05#7FDE7FFF0F5C3333
(1790978396.267220) can0 02800569#7FF6800D7DEB00F0
(1790978396.270617) can0 017FFF01#7FFF7FFF00000000
(1790978396.270811) can0 02800161#800180BB7FEA00F0
(1790978396.270942) can0 017FFF02#7FFF7FFF00000000
(1790978396.271110) can0 02800263#7FFF8009800B00F0
(1790978396.271251) can0 017FFF03#7FFF7FFF00000000
(1790978396.271485) can0 02800365#7FFF8034800700E6
(1790978396.271617) can0 017FFF04#7FFF7FFF00000000
(1790978396.271856) can0 02800467#7FFF7FEB7FF200F0
(1790978396.271981) can0 017FFF05#7FDD7FFF0F5C3333
(1790978396.272224) can0 02800569#7FF57FF37E0C00F0
(1790978396.275620) can0 017FFF01#7FFF7FFF00000000
(1790978396.275814) can0 02800161#80017FB37FDF00F0
(1790978396.275945) can0 017FFF02#7FFF7FFF00000000
(1790978396.276107) can0 02800263#7FFF7F49800E00F0
(1790978396.276249) can0 017FFF03#7FFF7FFF00000000
(1790978396.276487) can0 02800365#7FFF8008800D00E6
(1790978396.276617) can0 017FFF04#7FFF7FFF00000000
(1790978396.276855) can0 02800467#7FFF7FBC800B00F0
(1790978396.276980) can0 017FFF05#7FDC7FFF0F5C3333
(1790978396.277222) can0 02800569#7FF57FE47DD500F0
(1790978396.280619) can0 017FFF01#7FFF7FFF00000000
(1790978396.280814) can0 02800161#80017FD07FF100F0
(1790978396.280945) can0 017FFF02#7FFF7FFF00000000
(1790978396.281110) can0 02800263#7FFF7F887FFA00F0
(1790978396.281251) can0 017FFF03#7FFF7FFF00000000
(1790978396.281486) can0 02800365#7FFF7FB37FFC00E6
(1790978396.281618) can0 017FFF04#7FFF7FFF00000000
(1790978396.281855) can0 02800467#7FFE7F59803000F0
(1790978396.281979) can0 017FFF05#7FDC7FFF0F5C3333
(1790978396.282221) can0 02800569#7FF47FA87DC000F0
(1790978396.285618) can0 017FFF01#7FFF7FFF00000000
(1790978396.285814) can0 02800161#80017FB67FFB00F0
(1790978396.285945) can0 017FFF02#7FFF7FFF00000000
(1790978396.286108) can0 02800263#7FFF80DF800500F0
(1790978396.286249) can0 017FFF03#7FFF7FFF00000000
(1790978396.286486) can0 02800365#7FFF8020801000E6
(1790978396.286618) can0 017FFF04#7FFF7FFF00000000
(1790978396.286855) can0 02800467#7FFF7FE2802000F0
(1790978396.286980) can0 017FFF05#7FDB7FFF0F5C3333
(1790978396.287221) can0 02800569#7FF37FE97DC700F0
(1790978396.290627) can0 017FFF01#7FFF7FFF00000000
(1790978396.290815) can0 02800161#80018063800100F0
(1790978396.290946) can0 017FFF02#7FFF7FFF00000000
(1790978396.291109) can0 02800263#7FFF7F7C7FF600F0
(1790978396.291250) can0 017FFF03#7FFF7FFF00000000
(1790978396.291484) can0 02800365#7FFF80457FD000E6
(1790978396.291616) can0 017FFF04#7FFF7FFF00000000
(1790978396.291857) can0 02800467#7FFF800C801400F0
(1790978396.291982) can0 017FFF05#7FDA7FFF0F5C3333
(1790978396.292223) can0 02800569#7FF37FE17DD700F0
(1790978396.295625) can0 017FFF01#7FFF7FFF00000000
(1790978396.295814) can0 02800161#8001809C801700F0
(1790978396.295945) can0 017FFF02#7FFF7FFF00000000
(1790978396.296106) can0 02800263#7FFF7FA57FD700F0
(1790978396.296247) can0 017FFF03#7FFF7FFF00000000
(1790978396.296486) can0 02800365#7FFF803A800100E6
(1790978396.296616) can0 017FFF04#7FFF7FFF00000000
(1790978396.296856) can0 02800467#7FFF8020801B00F0
(1790978396.296981) can0 017FFF05#7FDA7FFF0F5C3333
(1790978396.297221) can0 02800569#7FF17FB87DFE00F0
(1790978396.300621) can0 017FFF01#7FFF7FFF00000000
(1790978396.300816) can0 02800161#80018082800A00F0
(1790978396.300947) can0 017FFF02#7FFF7FFF00000000
(1790978396.301108) can0 02800263#7FFF7FA2800200F0
(1790978396.301249) can0 017FFF03#7FFF7FFF00000000
(1790978396.301487) can0 02800365#7FFF7FFD7FEF00E6
(1790978396.301619) can0 017FFF04#7FFF7FFF00000000
(1790978396.301855) can0 02800467#7FFF80037FC900F0
(1790978396.301981) can0 017FFF05#7FD97FFF0F5C3333
(1790978396.302219) can0 02800569#7FF17FD57DEB00F0
(1790978396.305620) can0 017FFF01#7FFF7FFF00000000
(1790978396.305815) can0 02800161#80017FF3800900F0
(1790978396.305946) can0 017FFF02#7FFF7FFF00000000
(1790978396.306108) can0 02800263#7FFF800D801500F0
(1790978396.306249) can0 017FFF03#7FFF7FFF00000000
(1790978396.306487) can0 02800365#7FFF7FE8801400E6
(1790978396.306619) can0 017FFF04#7FFF7FFF00000000
(1790978396.306856) can0 02800467#7FFF7FBE7FE500F0
(1790978396.306982) can0 017FFF05#7FD97FFF0F5C3333
(1790978396.307221) can0 02800569#7FF07F9B7DE300F0
(1790978396.310625) can0 017FFF01#7FFF7FFF00000000
(1790978396.310814) can0 02800161#800180917FFD00F0
(1790978396.310945) can0 017FFF02#7FFF7FFF00000000
(1790978396.311111) can0 02800263#7FFF7FC4800400F0
(1790978396.311252) can0 017FFF03#7FFF7FFF00000000
(1790978396.311485) can0 02800365#7FFF7FF37FFD00E6
(1790978396.311617) can0 017FFF04#7FFF7FFF00000000
(1790978396.311853) can0 02800467#7FFF804C7FE000F0
(1790978396.311979) can0 017FFF05#7FD87FFF0F5C3333
(1790978396.312222) can0 02800569#7FEF7FD17E0C00F0
(1790978396.315623) can0 017FFF01#7FFF7FFF00000000
(1790978396.315814) can0 02800161#8001802B801300F0
(1790978396.315945) can0 017FFF02#7FFF7FFF00000000
(1790978396.316110) can0 02800263#7FFF7FD97FE400F0
(1790978396.316251) can0 017FFF03#7FFF7FFF00000000
(1790978396.316485) can0 02800365#7FFF7FCA7FF600E6
(1790978396.316616) can0 017FFF04#7FFF7FFF00000000
(1790978396.316856) can0 02800467#7FFF80077FFF00F0
(1790978396.316980) can0 017FFF05#7FD77FFF0F5C3333
(1790978396.317220) can0 02800569#7FEE7F5C7E6600F0
(1790978396.320618) can0 017FFF01#7FFF7FFF00000000
(1790978396.320813) can0 02800161#80017FD9801600F0
(1790978396.320944) can0 017FFF02#7FFF7FFF00000000
(1790978396.321106) can0 02800263#7FFE7F157FDD00F0
(1790978396.321247) can0 017FFF03#7FFF7FFF00000000
(1790978396.321485) can0 02800365#7FFF7FEF7FF200E6
(1790978396.321617) can0 017FFF04#7FFF7FFF00000000
(1790978396.321855) can0 02800467#7FFF8038801300F0
(1790978396.321980) can0 017FFF05#7FD77FFF0F5C3333
(1790978396.322219) can0 02800569#7FED7FA87E5100F0
(1790978396.325620) can0 017FFF01#7FFF7FFF00000000
(1790978396.325816) can0 02800161#80017F9B801800F0
(1790978396.325947) can0 017FFF02#7FFF7FFF00000000
(1790978396.326107) can0 02800263#7FFF806A7FEF00F0
(1790978396.326248) can0 017FFF03#7FFF7FFF00000000
(1790978396.326485) can0 02800365#7FFF8002800200E6
(1790978396.326617) can0 017FFF04#7FFF7FFF00000000
(1790978396.326851) can0 02800467#7FFE7FD7800E00F0
(1790978396.326977) can0 017FFF05#7FD67FFF0F5C3333
(1790978396.327219) can0 02800569#7FEC7FB37E4600F0
(1790978396.330620) can0 017FFF01#7FFF7FFF00000000
(1790978396.330816) can0 02800161#80018056801D00F0
(1790978396.330947) can0 017FFF02#7FFF7FFF00000000
(1790978396.331110) can0 02800263#7FFF7FE37FFF00F0
(1790978396.331252) can0 017FFF03#7FFF7FFF00000000
(1790978396.331484) can0 02800365#7FFF7FC9801100E6
(1790978396.331616) can0 017FFF04#7FFF7FFF00000000
(1790978396.331855) can0 02800467#7FFF80187FE500F0
(1790978396.331980) can0 017FFF05#7FD57FFF0F5C3333
(1790978396.332220) can0 02800569#7FEB7FA67E1E00F0
(1790978396.335619) can0 017FFF01#7FFF7FFF00000000
(1790978396.335815) can0 02800161#80017F72801500F0
(1790978396.335946) can0 017FFF02#7FFF7FFF00000000
(1790978396.336108) can0 02800263#7FFF7FAB800100F0
(1790978396.336249) can0 017FFF03#7FFF7FFF00000000
(1790978396.336487) can0 02800365#7FFF7FA0801800E6
(1790978396.336618) can0 017FFF04#7FFF7FFF00000000
(1790978396.336855) can0 02800467#7FFF7FE67FDF00F0
(1790978396.336980) can0 017FFF05#7FD57FFF0F5C3333
(1790978396.337219) can0 02800569#7FEA7FB47DEF00F0
(1790978396.340618) can0 017FFF01#7FFF7FFF00000000
(1790978396.340811) can0 02800161#8001805E800F00F0
(1790978396.340943) can0 017FFF02#7FFF7FFF00000000
(1790978396.341110) can0 02800263#7FFF80AA800200F0
(1790978396.341251) can0 017FFF03#7FFF7FFF00000000
(1790978396.341486) can0 02800365#7FFF7FC67FF400E6
(1790978396.341618) can0 017FFF04#7FFF7FFF00000000
(1790978396.341856) can0 02800467#7FFF80477FEC00F0
(1790978396.341982) can0 017FFF05#7FD47FFF0F5C3333
(1790978396.342218) can0 02800569#7FEA7FCB7E2A00F0
(1790978396.345620) can0 017FFF01#7FFF7FFF00000000
(1790978396.345814) can0 02800161#80018075800800F0
(1790978396.345945) can0 017FFF02#7FFF7FFF00000000
(1790978396.346107) can0 02800263#7FFF7F927FF700F0
(1790978396.346249) can0 017FFF03#7FFF7FFF00000000
(1790978396.346484) can0 02800365#7FFF80247FFD00E6
(1790978396.346616) can0 017FFF04#7FFF7FFF00000000
(1790978396.346854) can0 02800467#7FFF7F88802200F0
(1790978396.346980) can0 017FFF05#7FD37FFF0F5C3333
(1790978396.347220) can0 02800569#7FEA80047DEE00F0
(1790978396.350623) can0 017FFF01#7FFF7FFF00000000
(1790978396.350815) can0 02800161#80017FDB7FFF00F0
(1790978396.350946) can0 017FFF02#7FFF7FFF00000000
(1790978396.351111) can0 02800263#7FFF7F607FEC00F0
(1790978396.351253) can0 017FFF03#7FFF7FFF00000000
(1790978396.351486) can0 02800365#7FFF80757FED00E6
(1790978396.351618) can0 017FFF04#7FFF7FFF00000000
(1790978396.351854) can0 02800467#7FFE7FF1800200F0
(1790978396.351980) can0 017FFF05#7FD37FFF0F5C3333
(1790978396.352220) can0 02800569#7FE97FDF7E2800F0
(1790978396.355621) can0 017FFF01#7FFF7FFF00000000
(1790978396.355816) can0 02800161#80017F96802400F0
(1790978396.355947) can0 017FFF02#7FFF7FFF00000000
(1790978396.356107) can0 02800263#7FFF80287FF200F0
(1790978396.356249) can0 017FFF03#7FFF7FFF00000000
(1790978396.356485) can0 02800365#7FFF7FC27FF500E6
(1790978396.356616) can0 017FFF04#7FFF7FFF00000000
(1790978396.356854) can0 02800467#7FFF8009805100F0
(1790978396.356980) can0 017FFF05#7FD27FFF0F5C3333
(1790978396.357221) can0 02800569#7FE97F9C7DC400F0
(1790978396.360628) can0 017FFF01#7FFF7FFF00000000
(1790978396.360814) can0 02800161#80017F877FFB00F0
(1790978396.360945) can0 017FFF02#7FFF7FFF00000000
(1790978396.361110) can0 02800263#7FFF7F007FF400F0
(1790978396.361252) can0 017FFF03#7FFF7FFF00000000
(1790978396.361485) can0 02800365#7FFF7FD17FF800E6
(1790978396.361617) can0 017FFF04#7FFF7FFF00000000
(1790978396.361853) can0 02800467#7FFF7FDD7FD800F0
(1790978396.361978) can0 017FFF05#7FD17FFF0F5C3333
(1790978396.362218) can0 02800569#7FE87FCF7DB700F0
(1790978396.365624) can0 017FFF01#7FFF7FFF00000000
(1790978396.365814) can0 02800161#80017FDF7FFE00F0
(1790978396.365945) can0 017FFF02#7FFF7FFF00000000
(1790978396.366106) can0 02800263#7FFF8050801100F0
(1790978396.366248) can0 017FFF03#7FFF7FFF00000000
(1790978396.366486) can0 02800365#7FFF803D7FFF00E6
(1790978396.366618) can0 017FFF04#7FFF7FFF00000000
(1790978396.366854) can0 02800467#7FFF7FF07FEA00F0
(1790978396.366979) can0 017FFF05#7FD17FFF0F5C3333
(1790978396.367222) can0 02800569#7FE880067DCC00F0
(1790978396.370621) can0 017FFF01#7FFF7FFF00000000
(1790978396.370816) can0 02800161#800180C17FFF00F0
(1790978396.370947) can0 017FFF02#7FFF7FFF00000000
(1790978396.371111) can0 02800263#7FFF80237FF400F0
(1790978396.371252) can0 017FFF03#7FFF7FFF00000000
(1790978396.371484) can0 02800365#7FFF80497FE500E6
(1790978396.371616) can0 017FFF04#7FFF7FFF00000000
(1790978396.371852) can0 02800467#7FFE7FF67FDD00F0
(1790978396.371977) can0 017FFF05#7FD07FFF0F5C3333
(1790978396.372219) can0 02800569#7FE8806A7DB300F0
(1790978396.375622) can0 017FFF01#7FFF7FFF00000000
(1790978396.375814) can0 02800161#80017FF17FF600F0
(1790978396.375945) can0 017FFF02#7FFF7FFF00000000
(1790978396.376106) can0 02800263#7FFF80B9800700F0
(1790978396.376248) can0 017FFF03#7FFF7FFF00000000
(1790978396.376486) can0 02800365#7FFF80017FFD00E6
(1790978396.376617) can0 017FFF04#7FFF7FFF00000000
(1790978396.376853) can0 02800467#7FFF7FD67FFB00F0
(1790978396.376978) can0 017FFF05#7FCF7FFF0F5C3333
(1790978396.377221) can0 02800569#7FE77FF77DAF00F0
(1790978396.380623) can0 017FFF01#7FFF7FFF00000000
(1790978396.380812) can0 02800161#800180587FF700F0
(1790978396.380943) can0 017FFF02#7FFF7FFF00000000
(1790978396.381106) can0 02800263#7FFF80FC7FFA00F0
(1790978396.381248) can0 017FFF03#7FFF7FFF00000000
(1790978396.381485) can0 02800365#7FFF7FA87FFA00E6
(1790978396.381617) can0 017FFF04#7FFF7FFF00000000
(1790978396.381855) can0 02800467#7FFF801C7FFA00F0
(1790978396.381980) can0 017FFF05#7FCF7FFF0F5C3333
(1790978396.382220) can0 02800569#7FE77FD87DCD00F0
(1790978396.385621) can0 017FFF01#7FFF7FFF00000000
(1790978396.385814) can0 02800161#800180157FEB00F0
(1790978396.385945) can0 017FFF02#7FFF7FFF00000000
(1790978396.386107) can0 02800263#7FFF80587FF300F0
(1790978396.386249) can0 017FFF03#7FFF7FFF00000000
(1790978396.386485) can0 02800365#7FFF7FEF7FF600E6
(1790978396.386617) can0 017FFF04#7FFF7FFF00000000
(1790978396.386852) can0 02800467#7FFF7FC8801200F0
(1790978396.386978) can0 017FFF05#7FCE7FFF0F5C3333
(1790978396.387218) can0 02800569#7FE780427DC200F0
(1790978396.390621) can0 017FFF01#7FFF7FFF00000000
(1790978396.390816) can0 02800161#80017F877FEC00F0
(1790978396.390947) can0 017FFF02#7FFF7FFF00000000
(1790978396.391108) can0 02800263#7FFF7F407FDB00F0
(1790978396.391250) can0 017FFF03#7FFF7FFF00000000
(1790978396.391487) can0 02800365#7FFF80467FE800E6
(1790978396.391619) can0 017FFF04#7FFF7FFF00000000
(1790978396.391854) can0 02800467#7FFF7FEB802300F0
(1790978396.391979) can0 017FFF05#7FCD7FFF0F5C3333
(1790978396.392222) can0 02800569#7FE67FF47DD400F0
(1790978396.395619) can0 017FFF01#7FFF7FFF00000000
(1790978396.395812) can0 02800161#80018079800100F0
(1790978396.395943) can0 017FFF02#7FFF7FFF00000000
(1790978396.396105) can0 02800263#7FFF7FB27FFB00F0
(1790978396.396246) can0 017FFF03#7FFF7FFF00000000
(1790978396.396486) can0 02800365#7FFF80127FFD00E6
(1790978396.396617) can0 017FFF04#7FFF7FFF00000000
(1790978396.396853) can0 02800467#7FFF7F96801F00F0
(1790978396.396978) can0 017FFF05#7FCD7FFF0F5C3333
(1790978396.397219) can0 02800569#7FE67FCD7DA100F0
(1790978396.400629) can0 017FFF01#7FFF7FFF00000000
(1790978396.400814) can0 02800161#80017F8B800E00F0
(1790978396.400944) can0 017FFF02#7FFF7FFF00000000
(1790978396.401105) can0 02800263#7FFF7FAD800D00F0
(1790978396.401246) can0 017FFF03#7FFF7FFF00000000
(1790978396.401484) can0 02800365#7FFF7FCC7FE300E6
(1790978396.401615) can0 017FFF04#7FFF7FFF00000000
(1790978396.401854) can0 02800467#7FFF7FE47FDE00F0
(1790978396.401979) can0 017FFF05#7FCC7FFF0F5C3333
(1790978396.402219) can0 02800569#7FE57FFA7DDB00F0
(1790978396.405626) can0 017FFF01#7FFF7FFF00000000
(1790978396.405814) can0 02800161#800180377FE600F0
(1790978396.405945) can0 017FFF02#7FFF7FFF00000000
(1790978396.406108) can0 02800263#7FFF7F73800A00F0
(1790978396.406249) can0 017FFF03#7FFF7FFF00000000
(1790978396.406487) can0 02800365#7FFF8027800800E6
(1790978396.406618) can0 017FFF04#7FFF7FFF00000000
(1790978396.406853) can0 02800467#7FFF80307FF300F0
(1790978396.406978) can0 017FFF05#7FCB7FFF0F5C3333
(1790978396.407221) can0 02800569#7FE57F817E0600F0
(1790978396.410623) can0 017FFF01#7FFF7FFF00000000
(1790978396.410814) can0 02800161#80018028800200F0
(1790978396.410945) can0 017FFF02#7FFF7FFF00000000
(1790978396.411108) can0 02800263#7FFF7FD77FFC00F0
(1790978396.411250) can0 017FFF03#7FFF7FFF00000000
(1790978396.411484) can0 02800365#7FFF804D801200E6
(1790978396.411615) can0 017FFF04#7FFF7FFF00000000
(1790978396.411853) can0 02800467#7FFF7FF17FD800F0
(1790978396.411978) can0 017FFF05#7FCB7FFF0F5C3333
(1790978396.412219) can0 02800569#7FE57FC97DAF00F0
(1790978396.415621) can0 017FFF01#7FFF7FFF00000000
(1790978396.415813) can0 02800161#80017EDD7FF900F0
(1790978396.415944) can0 017FFF02#7FFF7FFF00000000
(1790978396.416105) can0 02800263#7FFF7FC57FF600F0
(1790978396.416246) can0 017FFF03#7FFF7FFF00000000
(1790978396.416487) can0 02800365#7FFF7FFF7FEE00E6
(1790978396.416618) can0 017FFF04#7FFF7FFF00000000
(1790978396.416855) can0 02800467#7FFF8029800600F0
(1790978396.416980) can0 017FFF05#7FCC7FFF0F5C3333
(1790978396.417220) can0 02800569#7FE4801C7DBA00F0
(1790978396.420618) can0 017FFF01#7FFF7FFF00000000
(1790978396.420817) can0 02800161#800180317FF400F0
(1790978396.420948) can0 017FFF02#7FFF7FFF00000000
(1790978396.421155) can0 02800263#7FFF800B7FFC00F0
(1790978396.421286) can0 017FFF03#7FFF7FFF00000000
(1790978396.421535) can0 02800365#7FFF7FF47FFC00E6
(1790978396.421667) can0 017FFF04#7FFF7FFF00000000
(1790978396.421904) can0 02800467#7FFF7FE87FE700F0
(1790978396.422028) can0 017FFF05#7FCC7FFF0F5C3333
(1790978396.422273) can0 02800569#7FE480007D6400F0
(1790978396.425623) can0 017FFF01#7FFF7FFF00000000
(1790978396.425816) can0 02800161#80017F8A7FD400F0
(1790978396.425947) can0 017FFF02#7FFF7FFF00000000
(1790978396.426113) can0 02800263#7FFF80C07FEC00F0
(1790978396.426254) can0 017FFF03#7FFF7FFF00000000
(1790978396.426484) can0 02800365#7FFF8009802000E6
(1790978396.426616) can0 017FFF04#7FFF7FFF00000000
(1790978396.426853) can0 02800467#7FFF7FF17FC200F0
(1790978396.426978) can0 017FFF05#7FCD7FFF0F5C3333
(1790978396.427221) can0 02800569#7FE380057D7000F0
(1790978396.430621) can0 017FFF01#7FFF7FFF00000000
(1790978396.430814) can0 02800161#800180227FEE00F0
(1790978396.430945) can0 017FFF02#7FFF7FFF00000000
(1790978396.431107) can0 02800263#7FFF7FEF7FEB00F0
(1790978396.431248) can0 017FFF03#7FFF7FFF00000000
(1790978396.431485) can0 02800365#7FFF80287FF700E6
(1790978396.431617) can0 017FFF04#7FFF7FFF00000000
(1790978396.431852) can0 02800467#7FFE7F70802D00F0
(1790978396.431976) can0 017FFF05#7FCD7FFF0F5C3333
(1790978396.432222) can0 02800569#7FE3804B7D8C00F0
(1790978396.435619) can0 017FFF01#7FFF7FFF00000000
(1790978396.435812) can0 02800161#80017FD97FF700F0
(1790978396.435943) can0 017FFF02#7FFF7FFF00000000
(1790978396.436105) can0 02800263#7FFF7FA7801B00F0
(1790978396.436246) can0 017FFF03#7FFF7FFF00000000
(1790978396.436487) can0 02800365#7FFF8041800400E6
(1790978396.436619) can0 017FFF04#7FFF7FFF00000000
(1790978396.436853) can0 02800467#7FFF8004800100F0
(1790978396.436979) can0 017FFF05#7FCE7FFF0F5C3333
(1790978396.437217) can0 02800569#7FE37FBC7D7300F0
(1790978396.440617) can0 017FFF01#7FFF7FFF00000000
(1790978396.440812) can0 02800161#80017FDC7FE300F0
(1790978396.440943) can0 017FFF02#7FFF7FFF00000000
(1790978396.441106) can0 02800263#7FFF804D800200F0
(1790978396.441247) can0 017FFF03#7FFF7FFF00000000
(1790978396.441486) can0 02800365#7FFF7FE0800D00E6
(1790978396.441618) can0 017FFF04#7FFF7FFF00000000
(1790978396.441854) can0 02800467#7FFF7FC3801900F0
(1790978396.441979) can0 017FFF05#7FCF7FFF0F5C3333
(1790978396.442218) can0 02800569#7FE37FD57D5600F0
(1790978396.445620) can0 017FFF01#7FFF7FFF00000000
(1790978396.445817) can0 02800161#8002800A800400F0
(1790978396.445948) can0 017FFF02#7FFF7FFF00000000
(1790978396.446151) can0 02800263#7FFF805B800000F0
(1790978396.446282) can0 017FFF03#7FFF7FFF00000000
(1790978396.446489) can0 02800365#7FFF7FEE7FF700E6
(1790978396.446621) can0 017FFF04#7FFF7FFF00000000
(1790978396.446853) can0 02800467#7FFF80337FE900F0
(1790978396.446978) can0 017FFF05#7FCF7FFF0F5C3333
(1790978396.447218) can0 02800569#7FE480387D9200F0
(1790978396.450620) can0 017FFF01#7FFF7FFF00000000
(1790978396.450813) can0 02800161#80028078801A00F0
(1790978396.450944) can0 017FFF02#7FFF7FFF00000000
(1790978396.451106) can0 02800263#7FFF806C7FF100F0
(1790978396.451247) can0 017FFF03#7FFF7FFF00000000
(1790978396.451482) can0 02800365#7FFF804C7FDD00E6
(1790978396.451614) can0 017FFF04#7FFF7FFF00000000
(1790978396.451852) can0 02800467#7FFF8051800100F0
(1790978396.451977) can0 017FFF05#7FD07FFF0F5C3333
(1790978396.452219) can0 02800569#7FE380027DA100F0
(1790978396.455619) can0 017FFF01#7FFF7FFF00000000
(1790978396.455814) can0 02800161#80028075800100F0
(1790978396.455945) can0 017FFF02#7FFF7FFF00000000
(1790978396.456106) can0 02800263#7FFF7F527FFE00F0
(1790978396.456247) can0 017FFF03#7FFF7FFF00000000
(1790978396.456485) can0 02800365#7FFF7FEE7FFB00E6
(1790978396.456616) can0 017FFF04#7FFF7FFF00000000
(1790978396.456853) can0 02800467#7FFF7FEF7FF700F0
(1790978396.456977) can0 017FFF05#7FD17FFF0F5C3333
(1790978396.457221) can0 02800569#7FE480597DB400F0
(1790978396.460629) can0 017FFF01#7FFF7FFF00000000
(1790978396.460813) can0 02800161#80028031801100F0
(1790978396.460944) can0 017FFF02#7FFF7FFF00000000
(1790978396.461105) can0 02800263#7FFF804E801D00F0
(1790978396.461246) can0 017FFF03#7FFF7FFF00000000
(1790978396.461484) can0 02800365#7FFF80287FE800E6
(1790978396.461616) can0 017FFF04#7FFF7FFF00000000
(1790978396.461853) can0 02800467#7FFF8004800600F0
(1790978396.461978) can0 017FFF05#7FD17FFF0F5C3333
(1790978396.462219) can0 02800569#7FE480177DD700F0
(1790978396.465621) can0 017FFF01#7FFF7FFF00000000
(1790978396.465812) can0 02800161#80027FC3800300F0
(1790978396.465943) can0 017FFF02#7FFF7FFF00000000
(1790978396.466109) can0 02800263#7FFF7FB6801800F0
(1790978396.466250) can0 017FFF03#7FFF7FFF00000000
(1790978396.466484) can0 02800365#7FFF8004800600E6
(1790978396.466616) can0 017FFF04#7FFF7FFF00000000
(1790978396.466855) can0 02800467#7FFF8009802000F0
(1790978396.466981) can0 017FFF05#7FD27FFF0F5C3333
(1790978396.467218) can0 02800569#7FE480347DDE00F0
(1790978396.470619) can0 017FFF01#7FFF7FFF00000000
(1790978396.470811) can0 02800161#80018088801A00F0
(1790978396.470943) can0 017FFF02#7FFF7FFF00000000
(1790978396.471108) can0 02800263#7FFF80287FEC00F0
(1790978396.471249) can0 017FFF03#7FFF7FFF00000000
(1790978396.471485) can0 02800365#7FFF801C800300E6
(1790978396.471617) can0 017FFF04#7FFF7FFF00000000
(1790978396.471852) can0 02800467#7FFF7FD57FF600F0
(1790978396.471978) can0 017FFF05#7FD37FFF0F5C3333
(1790978396.472219) can0 02800569#7FE47FFB7E1A00F0
(1790978396.475622) can0 017FFF01#7FFF7FFF00000000
(1790978396.475811) can0 02800161#80027FD57FE900F0
(1790978396.475942) can0 017FFF02#7FFF7FFF00000000
(1790978396.476105) can0 02800263#7FFF7FFA801B00F0
(1790978396.476247) can0 017FFF03#7FFF7FFF00000000
(1790978396.476484) can0 02800365#7FFF802A7FED00E6
(1790978396.476615) can0 017FFF04#7FFF7FFF00000000
(1790978396.476852) can0 02800467#7FFF80167FFB00F0
(1790978396.476978) can0 017FFF05#7FD37FFF0F5C3333
(1790978396.477219) can0 02800569#7FE37FE37E0700F0
(1790978396.480620) can0 017FFF01#7FFF7FFF00000000
(1790978396.480814) can0 02800161#800280187FF000F0
(1790978396.480945) can0 017FFF02#7FFF7FFF00000000
(1790978396.481106) can0 02800263#7FFF804F7FF600F0
(1790978396.481248) can0 017FFF03#7FFF7FFF00000000
(1790978396.481485) can0 02800365#7FFF7FD07FF700E6
(1790978396.481617) can0 017FFF04#7FFF7FFF00000000
(1790978396.481851) can0 02800467#7FFF7FC87FC800F0
(1790978396.481977) can0 017FFF05#7FD47FFF0F5C3333
(1790978396.482219) can0 02800569#7FE47FF57E2500F0
(1790978396.485619) can0 017FFF01#7FFF7FFF00000000
(1790978396.485813) can0 02800161#80027FF5801300F0
(1790978396.485944) can0 017FFF02#7FFF7FFF00000000
(1790978396.486109) can0 02800263#7FFF8000800C00F0
(1790978396.486250) can0 017FFF03#7FFF7FFF00000000
(1790978396.486484) can0 02800365#7FFF7FBD7FF000E6
(1790978396.486616) can0 017FFF04#7FFF7FFF00000000
(1790978396.486853) can0 02800467#7FFF800E801300F0
(1790978396.486978) can0 017FFF05#7FD57FFF0F5C3333
(1790978396.487217) can0 02800569#7FE480217E1500F0
(1790978396.490618) can0 017FFF01#7FFF7FFF00000000
(1790978396.490812) can0 02800161#800280607FE500F0
(1790978396.490943) can0 017FFF02#7FFF7FFF00000000
(1790978396.491107) can0 02800263#7FFF802F803000F0
(1790978396.491249) can0 017FFF03#7FFF7FFF00000000
(1790978396.491484) can0 02800365#7FFF80857FEB00E6
(1790978396.491616) can0 017FFF04#7FFF7FFF00000000
(1790978396.491850) can0 02800467#7FFF802B802700F0
(1790978396.491975) can0 017FFF05#7FD57FFF0F5C3333
(1790978396.492219) can0 02800569#7FE480277E3000F0
(1790978396.495619) can0 017FFF01#7FFF7FFF00000000
(1790978396.495812) can0 02800161#80027FF87FF300F0
(1790978396.495943) can0 017FFF02#7FFF7FFF00000000
(1790978396.496106) can0 02800263#7FFF7FEA7FFF00F0
(1790978396.496247) can0 017FFF03#7FFF7FFF00000000
(1790978396.496488) can0 02800365#7FFF8011800C00E6
(1790978396.496618) can0 017FFF04#7FFF7FFF00000000
(1790978396.496852) can0 02800467#7FFF8024803800F0
(1790978396.496978) can0 017FFF05#7FD67FFF0F5C3333
(1790978396.497218) can0 02800569#7FE47FEF7E6500F0
(1790978396.500618) can0 017FFF01#7FFF7FFF00000000
(1790978396.500813) can0 02800161#80027FE67FEA00F0
(1790978396.500944) can0 017FFF02#7FFF7FFF00000000
(1790978396.501107) can0 02800263#7FFF7FA4802400F0
(1790978396.501249) can0 017FFF03#7FFF7FFF00000000
(1790978396.501485) can0 02800365#7FFF80037FEA00E6
(1790978396.501617) can0 017FFF04#7FFF7FFF00000000
(1790978396.501852) can0 02800467#7FFF80047FB600F0
(1790978396.501977) can0 017FFF05#7FD77FFF0F5C3333
(1790978396.502219) can0 02800569#7FE47FF67E1500F0
(1790978396.505623) can0 017FFF01#7FFF7FFF00000000
(1790978396.505814) can0 02800161#800280697FFC00F0
(1790978396.505945) can0 017FFF02#7FFF7FFF00000000
(1790978396.506106) can0 02800263#7FFF808B7FF300F0
(1790978396.506247) can0 017FFF03#7FFF7FFF00000000
(1790978396.506482) can0 02800365#7FFF80287FD600E6
(1790978396.506614) can0 017FFF04#7FFF7FFF00000000
(1790978396.506854) can0 02800467#7FFF800B800B00F0
(1790978396.506979) can0 017FFF05#7FD77FFF0F5C3333
(1790978396.507219) can0 02800569#7FE480087E3900F0
(1790978396.510622) can0 017FFF01#7FFF7FFF00000000
(1790978396.510811) can0 02800161#8002806B801200F0
(1790978396.510942) can0 017FFF02#7FFF7FFF00000000
(1790978396.511103) can0 02800263#7FFE7FAD802300F0
(1790978396.511244) can0 017FFF03#7FFF7FFF00000000
(1790978396.511484) can0 02800365#7FFF7FFE7FF300E6
(1790978396.511616) can0 017FFF04#7FFF7FFF00000000
(1790978396.511852) can0 02800467#7FFF7FED800100F0
(1790978396.511978) can0 017FFF05#7FD87FFF0F5C3333
(1790978396.512221) can0 02800569#7FE4801C7E9C00F0
(1790978396.515619) can0 017FFF01#7FFF7FFF00000000
(1790978396.515813) can0 02800161#800280CE7FD800F0
(1790978396.515944) can0 017FFF02#7FFF7FFF00000000
(1790978396.516107) can0 02800263#7FFF8050801400F0
(1790978396.516248) can0 017FFF03#7FFF7FFF00000000
(1790978396.516485) can0 02800365#7FFF8057800F00E6
(1790978396.516616) can0 017FFF04#7FFF7FFF00000000
(1790978396.516854) can0 02800467#7FFF804C7FE100F0
(1790978396.516979) can0 017FFF05#7FD97FFF0F5C3333
(1790978396.517219) can0 02800569#7FE480097E6900F0
(1790978396.520618) can0 017FFF01#7FFF7FFF00000000
(1790978396.520811) can0 02800161#80027F53800B00F0
(1790978396.520942) can0 017FFF02#7FFF7FFF00000000
(1790978396.521106) can0 02800263#7FFF7FC8803600F0
(1790978396.521247) can0 017FFF03#7FFF7FFF00000000
(1790978396.521484) can0 02800365#7FFF7FD77FFD00E6
(1790978396.521616) can0 017FFF04#7FFF7FFF00000000
(1790978396.521853) can0 02800467#7FFF804F7FE800F0
(1790978396.521979) can0 017FFF05#7FD97FFF0F5C3333
(1790978396.522217) can0 02800569#7FE5802C7E4800F0
(1790978396.525616) can0 017FFF01#7FFF7FFF00000000
(1790978396.525814) can0 02800161#800380097FF100F0
(1790978396.525945) can0 017FFF02#7FFF7FFF00000000
(1790978396.526106) can0 02800263#7FFF7FD1802500F0
(1790978396.526247) can0 017FFF03#7FFF7FFF00000000
(1790978396.526483) can0 02800365#7FFF7FFD802100E6
(1790978396.526615) can0 017FFF04#7FFF7FFF00000000
(1790978396.526853) can0 02800467#7FFF7FB47FF600F0
(1790978396.526977) can0 017FFF05#7FDA7FFF0F5C3333
(1790978396.527221) can0 02800569#7FE5801C7E7100F0
(1790978396.530621) can0 017FFF01#7FFF7FFF00000000
(1790978396.530814) can0 02800161#8003801E7FF500F0
(1790978396.530945) can0 017FFF02#7FFF7FFF00000000
(1790978396.531107) can0 02800263#7FFF8073800B00F0
(1790978396.531248) can0 017FFF03#7FFF7FFF00000000
(1790978396.531483) can0 02800365#7FFF804C800E00E6
(1790978396.531615) can0 017FFF04#7FFF7FFF00000000
(1790978396.531853) can0 02800467#7FFF8013800B00F0
(1790978396.531979) can0 017FFF05#7FDB7FFF0F5C3333
(1790978396.532217) can0 02800569#7FE5802D7E9300F0
(1790978396.535618) can0 017FFF01#7FFF7FFF00000000
(1790978396.535812) can0 02800161#8003805B7FE600F0
(1790978396.535942) can0 017FFF02#7FFF7FFF00000000
(1790978396.536107) can0 02800263#7FFF802F802800F0
(1790978396.536248) can0 017FFF03#7FFF7FFF00000000
(1790978396.536485) can0 02800365#7FFF806C800100E6
(1790978396.536616) can0 017FFF04#7FFF7FFF00000000
(1790978396.536853) can0 02800467#7FFF80137FFF00F0
(1790978396.536979) can0 017FFF05#7FDB7FFF0F5C3333
(1790978396.537218) can0 02800569#7FE57FB77EFF00F0
(1790978396.540617) can0 017FFF01#7FFF7FFF00000000
(1790978396.540812) can0 02800161#800480517FF800F0
(1790978396.540942) can0 017FFF02#7FFF7FFF00000000
(1790978396.541103) can0 02800263#7FFE808A7FF900F0
(1790978396.541245) can0 017FFF03#7FFF7FFF00000000
(1790978396.541485) can0 02800365#7FFF80077FFC00E6
(1790978396.541617) can0 017FFF04#7FFF7FFF00000000
(1790978396.541850) can0 02800467#7FFF803A805A00F0
(1790978396.541975) can0 017FFF05#7FDC7FFF0F5C3333
(1790978396.542220) can0 02800569#7FE57FB87F0C00F0
(1790978396.545618) can0 017FFF01#7FFF7FFF00000000
(1790978396.545810) can0 02800161#80047FDC7FF300F0
(1790978396.545941) can0 017FFF02#7FFF7FFF00000000
(1790978396.546105) can0 02800263#7FFE801B7FF900F0
(1790978396.546246) can0 017FFF03#7FFF7FFF00000000
(1790978396.546483) can0 02800365#7FFF7FDA803400E6
(1790978396.546615) can0 017FFF04#7FFF7FFF00000000
(1790978396.546851) can0 02800467#7FFE7FAE800E00F0
(1790978396.546976) can0 017FFF05#7FDC7FFF0F5C3333
(1790978396.547219) can0 02800569#7FE680317EE400F0
(1790978396.550619) can0 017FFF01#7FFF7FFF00000000
(1790978396.550811) can0 02800161#800480517FE200F0
(1790978396.550942) can0 017FFF02#7FFF7FFF00000000
(1790978396.551107) can0 02800263#7FFF80447FF400F0
(1790978396.551248) can0 017FFF03#7FFF7FFF00000000
(1790978396.551485) can0 02800365#7FFF80077FFD00E6
(1790978396.551617) can0 017FFF04#7FFF7FFF00000000
(1790978396.551854) can0 02800467#7FFE80007FFD00F0
(1790978396.551979) can0 017FFF05#7FDD7FFF0F5C3333
(1790978396.552218) can0 02800569#7FE67FF27EE300F0
(1790978396.555617) can0 017FFF01#7FFF7FFF00000000
(1790978396.555811) can0 02800161#80057FEF7FEB00F0
(1790978396.555942) can0 017FFF02#7FFF7FFF00000000
(1790978396.556105) can0 02800263#7FFF7FF3800600F0
(1790978396.556246) can0 017FFF03#7FFF7FFF00000000
(1790978396.556484) can0 02800365#7FFF80547FEE00E6
(1790978396.556615) can0 017FFF04#7FFF7FFF00000000
(1790978396.556851) can0 02800467#7FFF7FFC7FCD00F0
(1790978396.556976) can0 017FFF05#7FDE7FFF0F5C3333
(1790978396.557219) can0 02800569#7FE680007EAB00F0
(1790978396.560624) can0 017FFF01#7FFF7FFF00000000
(1790978396.560812) can0 02800161#800580CE7FE100F0
(1790978396.560943) can0 017FFF02#7FFF7FFF00000000
(1790978396.561103) can0 02800263#7FFF80577FF300F0
(1790978396.561245) can0 017FFF03#7FFF7FFF00000000
(1790978396.561485) can0 02800365#7FFF7FD5800C00E6
(1790978396.561617) can0 017FFF04#7FFF7FFF00000000
(1790978396.561853) can0 02800467#7FFF7FEC7FE600F0
(1790978396.561978) can0 017FFF05#7FDE7FFF0F5C3333
(1790978396.562219) can0 02800569#7FE680147ED500F0
(1790978396.565618) can0 017FFF01#7FFF7FFF00000000
(1790978396.565811) can0 02800161#800580BA7FE200F0
(1790978396.565942) can0 017FFF02#7FFF7FFF00000000
(1790978396.566102) can0 02800263#7FFE805D7FF700F0
(1790978396.566244) can0 017FFF03#7FFF7FFF00000000
(1790978396.566485) can0 02800365#7FFF8003801D00E6
(1790978396.566617) can0 017FFF04#7FFF7FFF00000000
(1790978396.566853) can0 02800467#7FFF8039800500F0
(1790978396.566979) can0 017FFF05#7FDF7FFF0F5C3333
(1790978396.567220) can0 02800569#7FE67FE77EEB00F0
(1790978396.570614) can0 017FFF01#7FFF7FFF00000000
(1790978396.570810) can0 02800161#8006802D800300F0
(1790978396.570941) can0 017FFF02#7FFF7FFF00000000
(1790978396.571104) can0 02800263#7FFF800A802600F0
(1790978396.571246) can0 017FFF03#7FFF7FFF00000000
(1790978396.571486) can0 02800365#7FFF80007FF500E6
(1790978396.571617) can0 017FFF04#7FFF7FFF00000000
(1790978396.571854) can0 02800467#7FFF80087FFB00F0
(1790978396.571982) can0 017FFF05#7FE07FFF0F5C3333
(1790978396.572217) can0 02800569#7FE67FD17ED900F0
(1790978396.575619) can0 017FFF01#7FFF7FFF00000000
(1790978396.575812) can0 02800161#80067F647FF000F0
(1790978396.575943) can0 017FFF02#7FFF7FFF00000000
(1790978396.576103) can0 02800263#7FFE7F96802800F0
(1790978396.576244) can0 017FFF03#7FFF7FFF00000000
(1790978396.576486) can0 02800365#7FFF7FEC800C00E6
(1790978396.576616) can0 017FFF04#7FFF7FFF00000000
(1790978396.576853) can0 02800467#7FFF7F9F800500F0
(1790978396.576981) can0 017FFF05#7FE07FFF0F5C3333
(1790978396.577217) can0 02800569#7FE680297F4900F0
(1790978396.580617) can0 017FFF01#7FFF7FFF00000000
(1790978396.580811) can0 02800161#800780727FE300F0
(1790978396.580942) can0 017FFF02#7FFF7FFF00000000
(1790978396.581105) can0 02800263#7FFE7F9E7FFC00F0
(1790978396.581247) can0 017FFF03#7FFF7FFF00000000
(1790978396.581484) can0 02800365#800080407FF100E6
(1790978396.581616) can0 017FFF04#7FFF7FFF00000000
(1790978396.581852) can0 02800467#7FFF804A801500F0
(1790978396.581981) can0 017FFF05#7FE17FFF0F5C3333
(1790978396.582217) can0 02800569#7FE680217F2B00F0
(1790978396.585617) can0 017FFF01#7FFF7FFF00000000
(1790978396.585814) can0 02800161#800780817FFB00F0
(1790978396.585945) can0 017FFF02#7FFF7FFF00000000
(1790978396.586104) can0 02800263#7FFE7F897FEF00F0
(1790978396.586245) can0 017FFF03#7FFF7FFF00000000
(1790978396.586485) can0 02800365#7FFF802B800400E6
(1790978396.586617) can0 017FFF04#7FFF7FFF00000000
(1790978396.586851) can0 02800467#7FFE7FFC801A00F0
(1790978396.586977) can0 017FFF05#7FE27FFF0F5C3333
(1790978396.587219) can0 02800569#7FE7804C7ECC00F0
(1790978396.590618) can0 017FFF01#7FFF7FFF00000000
(1790978396.590811) can0 02800161#80087F95801500F0
(1790978396.590942) can0 017FFF02#7FFF7FFF00000000
(1790978396.591105) can0 02800263#7FFF80DF7FE300F0
(1790978396.591246) can0 017FFF03#7FFF7FFF00000000
(1790978396.591484) can0 02800365#7FFF7FD07FF800E6
(1790978396.591616) can0 017FFF04#7FFF7FFF00000000
(1790978396.591853) can0 02800467#7FFF80097FFF00F0
(1790978396.591979) can0 017FFF05#7FE27FFF0F5C3333
(1790978396.592217) can0 02800569#7FE780147E9700F0
(1790978396.595618) can0 017FFF01#7FFF7FFF00000000
(1790978396.595814) can0 02800161#800880C57FF400F0
(1790978396.595945) can0 017FFF02#7FFF7FFF00000000
(1790978396.596105) can0 02800263#7FFE7F25800500F0
(1790978396.596246) can0 017FFF03#7FFF7FFF00000000
(1790978396.596487) can0 02800365#7FFF8041800000E6
(1790978396.596618) can0 017FFF04#7FFF7FFF00000000
(1790978396.596853) can0 02800467#7FFF8021801500F0
(1790978396.596981) can0 017FFF05#7FE37FFF0F5C3333
(1790978396.597219) can0 02800569#7FE880167F0200F0
(1790978396.600617) can0 017FFF01#7FFF7FFF00000000
(1790978396.600812) can0 02800161#80098093800800F0
(1790978396.600943) can0 017FFF02#7FFF7FFF00000000
(1790978396.601103) can0 02800263#7FFE8038800A00F0
(1790978396.601244) can0 017FFF03#7FFF7FFF00000000
(1790978396.601482) can0 02800365#7FFF805B802200E6
(1790978396.601614) can0 017FFF04#7FFF7FFF00000000
(1790978396.601850) can0 02800467#7FFF806A7FED00F0
(1790978396.601978) can0 017FFF05#7FE47FFF0F5C3333
(1790978396.602217) can0 02800569#7FE87FFA7F4500F0
(1790978396.605616) can0 017FFF01#7FFF7FFF00000000
(1790978396.605812) can0 02800161#800A803F7FFA00F0
(1790978396.605943) can0 017FFF02#7FFF7FFF00000000
(1790978396.606104) can0 02800263#7FFF80A47FE200F0
(1790978396.606245) can0 017FFF03#7FFF7FFF00000000
(1790978396.606482) can0 02800365#7FFF7FC37FFA00E6
(1790978396.606614) can0 017FFF04#7FFF7FFF00000000
(1790978396.606851) can0 02800467#7FFF8038800E00F0
(1790978396.606979) can0 017FFF05#7FE47FFF0F5C3333
(1790978396.607218) can0 02800569#7FE880067F4300F0
(1790978396.610620) can0 017FFF01#7FFF7FFF00000000
(1790978396.610813) can0 02800161#800A80D27FEE00F0
(1790978396.610944) can0 017FFF02#7FFF7FFF00000000
(1790978396.611105) can0 02800263#7FFE7F43802100F0
(1790978396.611246) can0 017FFF03#7FFF7FFF00000000
(1790978396.611484) can0 02800365#7FFF7FDA7FEC00E6
(1790978396.611616) can0 017FFF04#7FFF7FFF00000000
(1790978396.611853) can0 02800467#7FFF802C800400F0
(1790978396.611979) can0 017FFF05#7FE57FFF0F5C3333
(1790978396.612216) can0 02800569#7FE9805D7F5300F0
(1790978396.615618) can0 017FFF01#7FFF7FFF00000000
(1790978396.615813) can0 02800161#800A80077FF800F0
(1790978396.615944) can0 017FFF02#7FFF7FFF00000000
(1790978396.616103) can0 02800263#7FFE80207FEB00F0
(1790978396.616245) can0 017FFF03#7FFF7FFF00000000
(1790978396.616484) can0 02800365#7FFF8017800700E6
(1790978396.616615) can0 017FFF04#7FFF7FFF00000000
(1790978396.616851) can0 02800467#7FFF7FF77FF100F0
(1790978396.616978) can0 017FFF05#7FE67FFF0F5C3333
(1790978396.617220) can0 02800569#7FE980327F4400F0
(1790978396.620617) can0 017FFF01#7FFF7FFF00000000
(1790978396.620813) can0 02800161#800B80A87FD400F0
(1790978396.620944) can0 017FFF02#7FFF7FFF00000000
(1790978396.621103) can0 02800263#7FFF7FD87FDD00F0
(1790978396.621244) can0 017FFF03#7FFF7FFF00000000
(1790978396.621484) can0 02800365#7FFF7FD47FF000E6
(1790978396.621616) can0 017FFF04#7FFF7FFF00000000
(1790978396.621851) can0 02800467#7FFF80167FDE00F0
(1790978396.621978) can0 017FFF05#7FE67FFF0F5C3333
(1790978396.622217) can0 02800569#7FE97FD87F5000F0
(1790978396.625616) can0 017FFF01#7FFF7FFF00000000
(1790978396.625812) can0 02800161#800C809F7FFD00F0
(1790978396.625943) can0 017FFF02#7FFF7FFF00000000
(1790978396.626103) can0 02800263#7FFF8045801500F0
(1790978396.626244) can0 017FFF03#7FFF7FFF00000000
(1790978396.626483) can0 02800365#7FFF8024800D00E6
(1790978396.626615) can0 017FFF04#7FFF7FFF00000000
(1790978396.626851) can0 02800467#7FFF80097FE600F0
(1790978396.626978) can0 017FFF05#7FE77FFF0F5C3333
(1790978396.627216) can0 02800569#7FEA804D7F7600F0
(1790978396.630616) can0 017FFF01#7FFF7FFF00000000
(1790978396.630810) can0 02800161#800D80297FF100F0
(1790978396.630941) can0 017FFF02#7FFF7FFF00000000
(1790978396.631102) can0 02800263#7FFE7FB2800900F0
(1790978396.631243) can0 017FFF03#7FFF7FFF00000000
(1790978396.631483) can0 02800365#7FFF80167FE900E6
(1790978396.631615) can0 017FFF04#7FFF7FFF00000000
(1790978396.631849) can0 02800467#7FFF8027802700F0
(1790978396.631977) can0 017FFF05#7FE87FFF0F5C3333
(1790978396.632217) can0 02800569#7FEA80267F5F00F0
(1790978396.635615) can0 017FFF01#7FFF7FFF00000000
(1790978396.635812) can0 02800161#800E804D800100F0
(1790978396.635942) can0 017FFF02#7FFF7FFF00000000
(1790978396.636105) can0 02800263#7FFE80047FE700F0
(1790978396.636246) can0 017FFF03#7FFF7FFF00000000
(1790978396.636484) can0 02800365#7FFF7FCD801700E6
(1790978396.636615) can0 017FFF04#7FFF7FFF00000000
(1790978396.636852) can0 02800467#7FFF7FFD804A00F0
(1790978396.636980) can0 017FFF05#7FE87FFF0F5C3333
(1790978396.637219) can0 02800569#7FEA7FFF7F6500F0
(1790978396.640618) can0 017FFF01#7FFF7FFF00000000
(1790978396.640812) can0 02800161#800F80807FF600F0
(1790978396.640942) can0 017FFF02#7FFF7FFF00000000
(1790978396.641103) can0 02800263#7FFF7F6C800E00F0
(1790978396.641244) can0 017FFF03#7FFF7FFF00000000
(1790978396.641484) can0 02800365#7FFF801E800E00E6
(1790978396.641616) can0 017FFF04#7FFF7FFF00000000
(1790978396.641849) can0 02800467#7FFE7F82802500F0
(1790978396.641976) can0 017FFF05#7FE97FFF0F5C3333
(1790978396.642219) can0 02800569#7FEA800F7F5C00F0
(1790978396.645617) can0 017FFF01#7FFF7FFF00000000
(1790978396.645810) can0 02800161#801080C87FED00F0
(1790978396.645941) can0 017FFF02#7FFF7FFF00000000
(1790978396.646103) can0 02800263#7FFF804F7FFB00F0
(1790978396.646243) can0 017FFF03#7FFF7FFF00000000
(1790978396.646483) can0 02800365#7FFF7FEE7FFB00E6
(1790978396.646615) can0 017FFF04#7FFF7FFF00000000
(1790978396.646852) can0 02800467#7FFF8029801800F0
(1790978396.646979) can0 017FFF05#7FE97FFF0F5C3333
(1790978396.647217) can0 02800569#7FEB803A7F8D00F0
(1790978396.650618) can0 017FFF01#7FFF7FFF00000000
(1790978396.650811) can0 02800161#801180BC801200F0
(1790978396.650942) can0 017FFF02#7FFF7FFF00000000
(1790978396.651103) can0 02800263#7FFF804B7FF700F0
(1790978396.651245) can0 017FFF03#7FFF7FFF00000000
(1790978396.651483) can0 02800365#7FFF7FC6800000E6
(1790978396.651615) can0 017FFF04#7FFF7FFF00000000
(1790978396.651853) can0 02800467#7FFF8000800B00F0
(1790978396.651980) can0 017FFF05#7FEA7FFF0F5C3333
(1790978396.652217) can0 02800569#7FEB80157F7D00F0
(1790978396.655617) can0 017FFF01#7FFF7FFF00000000
(1790978396.655811) can0 02800161#801280D9800800F0
(1790978396.655941) can0 017FFF02#7FFF7FFF00000000
(1790978396.656105) can0 02800263#7FFF8104801200F0
(1790978396.656247) can0 017FFF03#7FFF7FFF00000000
(1790978396.656485) can0 02800365#7FFF800E7FF900E6
(1790978396.656616) can0 017FFF04#7FFF7FFF00000000
(1790978396.656851) can0 02800467#7FFF8028800300F0
(1790978396.656977) can0 017FFF05#7FEB7FFF0F5C3333
(1790978396.657217) can0 02800569#7FEB7FE77FC500F0
(1790978396.660625) can0 017FFF01#7FFF7FFF00000000
(1790978396.660810) can0 02800161#801380CE802600F0
(1790978396.660941) can0 017FFF02#7FFF7FFF00000000
(1790978396.661104) can0 02800263#7FFF7FD0800500F0
(1790978396.661245) can0 017FFF03#7FFF7FFF00000000
(1790978396.661482) can0 02800365#7FFF7FD3800900E6
(1790978396.661614) can0 017FFF04#7FFF7FFF00000000
(1790978396.661853) can0 02800467#7FFF8071801600F0
(1790978396.661979) can0 017FFF05#7FEB7FFF0F5C3333
(1790978396.662219) can0 02800569#7FEB7FF77F8600F0
(1790978396.665618) can0 017FFF01#7FFF7FFF00000000
(1790978396.665809) can0 02800161#80148062802A00F0
(1790978396.665939) can0 017FFF02#7FFF7FFF00000000
(1790978396.666106) can0 02800263#7FFF8012800700F0
(1790978396.666247) can0 017FFF03#7FFF7FFF00000000
(1790978396.666485) can0 02800365#7FFF801E800C00E6
(1790978396.666617) can0 017FFF04#7FFF7FFF00000000
(1790978396.666851) can0 02800467#7FFF807C802D00F0
(1790978396.666977) can0 017FFF05#7FEC7FFF0F5C3333
(1790978396.667215) can0 02800569#7FEB80337F9E00F0
(1790978396.670616) can0 017FFF01#7FFF7FFF00000000
(1790978396.670810) can0 02800161#80148044800E00F0
(1790978396.670941) can0 017FFF02#7FFF7FFF00000000
(1790978396.671105) can0 02800263#7FFF7FA17FE400F0
(1790978396.671247) can0 017FFF03#7FFF7FFF00000000
(1790978396.671482) can0 02800365#7FFF7FB9801500E6
(1790978396.671614) can0 017FFF04#7FFF7FFF00000000
(1790978396.671848) can0 02800467#7FFE7FD77FDA00F0
(1790978396.671975) can0 017FFF05#7FED7FFF0F5C3333
(1790978396.672219) can0 02800569#7FEC80027F7E00F0
(1790978396.675618) can0 017FFF01#7FFF7FFF00000000
(1790978396.675808) can0 02800161#801580B2802D00F0
(1790978396.675939) can0 017FFF02#7FFF7FFF00000000
(1790978396.676102) can0 02800263#7FFF811E7FFB00F0
(1790978396.676244) can0 017FFF03#7FFF7FFF00000000
(1790978396.676484) can0 02800365#7FFF7FEE800400E6
(1790978396.676616) can0 017FFF04#7FFF7FFF00000000
(1790978396.676852) can0 02800467#7FFF80087FEA00F0
(1790978396.676979) can0 017FFF05#7FED7FFF0F5C3333
(1790978396.677215) can0 02800569#7FED80257FA100F0
(1790978396.680616) can0 017FFF01#7FFF7FFF00000000
(1790978396.680812) can0 02800161#80168089800C00F0
(1790978396.680943) can0 017FFF02#7FFF7FFF00000000
(1790978396.681105) can0 02800263#7FFF80047FE200F0
(1790978396.681246) can0 017FFF03#7FFF7FFF00000000
(1790978396.681482) can0 02800365#7FFF803C7FF800E6
(1790978396.681614) can0 017FFF04#7FFF7FFF00000000
(1790978396.681851) can0 02800467#7FFE7FCD802700F0
(1790978396.681978) can0 017FFF05#7FEE7FFF0F5C3333
(1790978396.682218) can0 02800569#7FED80207FD200F0
(1790978396.685628) can0 017FFF01#7FFF7FFF00000000
(1790978396.685812) can0 02800161#8017812E801C00F0
(1790978396.685943) can0 017FFF02#7FFF7FFF00000000
(1790978396.686104) can0 02800263#7FFF80E67FEB00F0
(1790978396.686245) can0 017FFF03#7FFF7FFF00000000
(1790978396.686484) can0 02800365#7FFF7FE4801000E6
(1790978396.686616) can0 017FFF04#7FFF7FFF00000000
(1790978396.686849) can0 02800467#7FFF7FD47FFD00F0
(1790978396.686976) can0 017FFF05#7FEF7FFF0F5C3333
(1790978396.687176) can0 02800569#7FED7FD9802F00F0
(1790978396.690621) can0 017FFF01#7FFF7FFF00000000
(1790978396.690809) can0 02800161#8017808A802500F0
(1790978396.690940) can0 017FFF02#7FFF7FFF00000000
(1790978396.691103) can0 02800263#7FFE7FEF801D00F0
(1790978396.691244) can0 017FFF03#7FFF7FFF00000000
(1790978396.691483) can0 02800365#7FFF7FE27FF400E6
(1790978396.691615) can0 017FFF04#7FFF7FFF00000000
(1790978396.691853) can0 02800467#7FFF7FFE801400F0
(1790978396.691979) can0 017FFF05#7FEF7FFF0F5C3333
(1790978396.692216) can0 02800569#7FED8059803500F0
(1790978396.695618) can0 017FFF01#7FFF7FFF00000000
(1790978396.695809) can0 02800161#801880B8801D00F0
(1790978396.695940) can0 017FFF02#7FFF7FFF00000000
(1790978396.696103) can0 02800263#7FFE7F70801100F0
(1790978396.696244) can0 017FFF03#7FFF7FFF00000000
(1790978396.696482) can0 02800365#7FFF806B7FF900E6
(1790978396.696613) can0 017FFF04#7FFF7FFF00000000
(1790978396.696851) can0 02800467#7FFF80317FFE00F0
(1790978396.696976) can0 017FFF05#7FF07FFF0F5C3333
(1790978396.697218) can0 02800569#7FED7FCD7FC700F0
(1790978396.700616) can0 017FFF01#7FFF7FFF00000000
(1790978396.700811) can0 02800161#8018807E801900F0
(1790978396.700942) can0 017FFF02#7FFF7FFF00000000
(1790978396.701102) can0 02800263#7FFF80BC800200F0
(1790978396.701243) can0 017FFF03#7FFF7FFF00000000
(1790978396.701481) can0 02800365#7FFF80277FFD00E6
(1790978396.701613) can0 017FFF04#7FFF7FFF00000000
(1790978396.701852) can0 02800467#7FFF802D802C00F0
(1790978396.701978) can0 017FFF05#7FF17FFF0F5C3333
(1790978396.702217) can0 02800569#7FEE80527FC900F0
(1790978396.705617) can0 017FFF01#7FFF7FFF00000000
(1790978396.705810) can0 02800161#8019806A800700F0
(1790978396.705941) can0 017FFF02#7FFF7FFF00000000
(1790978396.706103) can0 02800263#7FFF8062801D00F0
(1790978396.706244) can0 017FFF03#7FFF7FFF00000000
(1790978396.706483) can0 02800365#7FFF80187FF600E6
(1790978396.706615) can0 017FFF04#7FFF7FFF00000000
(1790978396.706851) can0 02800467#7FFF8003800A00F0
(1790978396.706976) can0 017FFF05#7FF17FFF0F5C3333
(1790978396.707217) can0 02800569#7FEE7FF57FEE00F0
(1790978396.710619) can0 017FFF01#7FFF7FFF00000000
(1790978396.710811) can0 02800161#801A8102800D00F0
(1790978396.710942) can0 017FFF02#7FFF7FFF00000000
(1790978396.711101) can0 02800263#7FFE8088802900F0
(1790978396.711242) can0 017FFF03#7FFF7FFF00000000
(1790978396.711484) can0 02800365#7FFF7FBF801000E6
(1790978396.711616) can0 017FFF04#7FFF7FFF00000000
(1790978396.711848) can0 02800467#7FFF7FB97FBD00F0
(1790978396.711976) can0 017FFF05#7FF27FFF0F5C3333
(1790978396.712219) can0 02800569#7FEF80337FAA00F0
(1790978396.715619) can0 017FFF01#7FFF7FFF00000000
(1790978396.715811) can0 02800161#801A7FF3801100F0
(1790978396.715942) can0 017FFF02#7FFF7FFF00000000
(1790978396.716103) can0 02800263#7FFF80E67FFA00F0
(1790978396.716244) can0 017FFF03#7FFF7FFF00000000
(1790978396.716484) can0 02800365#7FFF8041801900E6
(1790978396.716615) can0 017FFF04#7FFF7FFF00000000
(1790978396.716849) can0 02800467#7FFF80437FCE00F0
(1790978396.716976) can0 017FFF05#7FF37FFF0F5C3333
(1790978396.717218) can0 02800569#7FF07FFF7FCD00F0
(1790978396.720616) can0 017FFF01#7FFF7FFF00000000
(1790978396.720811) can0 02800161#801B808B800100F0
(1790978396.720942) can0 017FFF02#7FFF7FFF00000000
(1790978396.721106) can0 02800263#7FFF7F497FFC00F0
(1790978396.721247) can0 017FFF03#7FFF7FFF00000000
(1790978396.721481) can0 02800365#7FFE7FA0801300E6
(1790978396.721613) can0 017FFF04#7FFF7FFF00000000
(1790978396.721851) can0 02800467#7FFF801C802600F0
(1790978396.721978) can0 017FFF05#7FF37FFF0F5C3333
(1790978396.722215) can0 02800569#7FF180447F9700F0
(1790978396.725615) can0 017FFF01#7FFF7FFF00000000
(1790978396.725809) can0 02800161#801C80EE800B00F0
(1790978396.725940) can0 017FFF02#7FFF7FFF00000000
(1790978396.726103) can0 02800263#7FFF80E47FD800F0
(1790978396.726244) can0 017FFF03#7FFF7FFF00000000
(1790978396.726483) can0 02800365#7FFF7FB7800400E6
(1790978396.726615) can0 017FFF04#7FFF7FFF00000000
(1790978396.726852) can0 02800467#7FFF800A800000F0
(1790978396.726979) can0 017FFF05#7FF47FFF0F5C3333
(1790978396.727215) can0 02800569#7FF2802F7FAB00F0
(1790978396.730620) can0 017FFF01#7FFF7FFF00000000
(1790978396.730809) can0 02800161#801C7FD1801600F0
(1790978396.730940) can0 017FFF02#7FFF7FFF00000000
(1790978396.731102) can0 02800263#7FFF808E801A00F0
(1790978396.731243) can0 017FFF03#7FFF7FFF00000000
(1790978396.731483) can0 02800365#7FFF805B7FFE00E6
(1790978396.731615) can0 017FFF04#7FFF7FFF00000000
(1790978396.731850) can0 02800467#7FFF7F97800B00F0
(1790978396.731977) can0 017FFF05#7FF57FFF0F5C3333
(1790978396.732217) can0 02800569#7FF37FED7F8A00F0
(1790978396.735617) can0 017FFF01#7FFF7FFF00000000
(1790978396.735809) can0 02800161#801D80AA801900F0
(1790978396.735940) can0 017FFF02#7FFF7FFF00000000
(1790978396.736102) can0 02800263#7FFF80557FE700F0
(1790978396.736243) can0 017FFF03#7FFF7FFF00000000
(1790978396.736483) can0 02800365#7FFF805B801400E6
(1790978396.736614) can0 017FFF04#7FFF7FFF00000000
(1790978396.736851) can0 02800467#7FFE7FD67FE800F0
(1790978396.736977) can0 017FFF05#7FF57FFF0F5C3333
(1790978396.737214) can0 02800569#7FF480767F2F00F0
(1790978396.740617) can0 017FFF01#7FFF7FFF00000000
(1790978396.740808) can0 02800161#801D804A802D00F0
(1790978396.740940) can0 017FFF02#7FFF7FFF00000000
(1790978396.741102) can0 02800263#7FFF7F797FF200F0
(1790978396.741243) can0 017FFF03#7FFF7FFF00000000
(1790978396.741484) can0 02800365#7FFF80117FF600E6
(1790978396.741616) can0 017FFF04#7FFF7FFF00000000
(1790978396.741849) can0 02800467#7FFF800C7FC500F0
(1790978396.741975) can0 017FFF05#7FF67FFF0F5C3333
(1790978396.742217) can0 02800569#7FF580257F5E00F0
(1790978396.745617) can0 017FFF01#7FFF7FFF00000000
(1790978396.745814) can0 02800161#801E80AC801C00F0
(1790978396.745945) can0 017FFF02#7FFF7FFF00000000
(1790978396.746148) can0 02800263#7FFE7FF67FF800F0
(1790978396.746279) can0 017FFF03#7FFF7FFF00000000
(1790978396.746487) can0 02800365#7FFF7FC0800B00E6
(1790978396.746619) can0 017FFF04#7FFF7FFF00000000
(1790978396.746850) can0 02800467#7FFF80327FE000F0
(1790978396.746977) can0 017FFF05#7FF77FFF0F5C3333
(1790978396.747219) can0 02800569#7FF680547F4400F0
(1790978396.750617) can0 017FFF01#7FFF7FFF00000000
(1790978396.750810) can0 02800161#801E7FFA802100F0
(1790978396.750941) can0 017FFF02#7FFF7FFF00000000
(1790978396.751102) can0 02800263#7FFF801A7FF200F0
(1790978396.751243) can0 017FFF03#7FFF7FFF00000000
(1790978396.751483) can0 02800365#7FFF7FF17FF900E6
(1790978396.751615) can0 017FFF04#7FFF7FFF00000000
(1790978396.751851) can0 02800467#7FFF7FD07FD100F0
(1790978396.751978) can0 017FFF05#7FF77FFF0F5C3333
(1790978396.752216) can0 02800569#7FF77FF47F7E00F0
(1790978396.755617) can0 017FFF01#7FFF7FFF00000000
(1790978396.755809) can0 02800161#801F7FC6801700F0
(1790978396.755940) can0 017FFF02#7FFF7FFF00000000
(1790978396.756103) can0 02800263#7FFF7F837FEF00F0
(1790978396.756244) can0 017FFF03#7FFF7FFF00000000
(1790978396.756485) can0 02800365#7FFF8020801000E6
(1790978396.756616) can0 017FFF04#7FFF7FFF00000000
(1790978396.756849) can0 02800467#7FFF80217FED00F0
(1790978396.756975) can0 017FFF05#7FF87FFF0F5C3333
(1790978396.757216) can0 02800569#7FF8804F7F4D00F0
(1790978396.760623) can0 017FFF01#7FFF7FFF00000000
(1790978396.760810) can0 02800161#801F8057801600F0
(1790978396.760940) can0 017FFF02#7FFF7FFF00000000
(1790978396.761103) can0 02800263#7FFE7F497FEC00F0
(1790978396.761244) can0 017FFF03#7FFF7FFF00000000
(1790978396.761483) can0 02800365#7FFF7FED7FDC00E6
(1790978396.761615) can0 017FFF04#7FFF7FFF00000000
(1790978396.761852) can0 02800467#7FFF8015802400F0
(1790978396.761978) can0 017FFF05#7FF87FFF0F5C3333
(1790978396.762218) can0 02800569#7FF980147F6C00F0
(1790978396.765619) can0 017FFF01#7FFF7FFF00000000
(1790978396.765812) can0 02800161#801F80C2802C00F0
(1790978396.765942) can0 017FFF02#7FFF7FFF00000000
(1790978396.766104) can0 02800263#7FFF808C800000F0
(1790978396.766245) can0 017FFF03#7FFF7FFF00000000
(1790978396.766481) can0 02800365#7FFF7FD87FF200E6
(1790978396.766613) can0 017FFF04#7FFF7FFF00000000
(1790978396.766849) can0 02800467#7FFF7FF6803200F0
(1790978396.766975) can0 017FFF05#7FF97FFF0F5C3333
(1790978396.767215) can0 02800569#7FFA80227F2F00F0
(1790978396.770620) can0 017FFF01#7FFF7FFF00000000
(1790978396.770811) can0 02800161#801F7FC1803000F0
(1790978396.770941) can0 017FFF02#7FFF7FFF00000000
(1790978396.771100) can0 02800263#7FFE7F9A800300F0
(1790978396.771242) can0 017FFF03#7FFF7FFF00000000
(1790978396.771483) can0 02800365#7FFF7FF67FDC00E6
(1790978396.771615) can0 017FFF04#7FFF7FFF00000000
(1790978396.771850) can0 02800467#7FFF7FD3801100F0
(1790978396.771976) can0 017FFF05#7FFA7FFF0F5C3333
(1790978396.772216) can0 02800569#7FFC80767F5100F0
(1790978396.775618) can0 017FFF01#7FFF7FFF00000000
(1790978396.775814) can0 02800161#801F7FA2801E00F0
(1790978396.775945) can0 017FFF02#7FFF7FFF00000000
(1790978396.776149) can0 02800263#7FFF80247FF800F0
(1790978396.776280) can0 017FFF03#7FFF7FFF00000000
(1790978396.776490) can0 02800365#7FFF7FE07FDE00E6
(1790978396.776621) can0 017FFF04#7FFF7FFF00000000
(1790978396.776852) can0 02800467#7FFF800E800100F0
(1790978396.776978) can0 017FFF05#7FFA7FFF0F5C3333
(1790978396.777215) can0 02800569#7FFC80277F7100F0
(1790978396.780616) can0 017FFF01#7FFF7FFF00000000
(1790978396.780812) can0 02800161#8020800F802D00F0
(1790978396.780943) can0 017FFF02#7FFF7FFF00000000
(1790978396.781147) can0 02800263#7FFF7F9F800E00F0
(1790978396.781278) can0 017FFF03#7FFF7FFF00000000
(1790978396.781485) can0 02800365#7FFF80647FE000E6
(1790978396.781617) can0 017FFF04#7FFF7FFF00000000
(1790978396.781850) can0 02800467#7FFF802D800600F0
(1790978396.781977) can0 017FFF05#7FFB7FFF0F5C3333
(1790978396.782216) can0 02800569#7FFD806E7F7E00F0
