(1790978685.291884) can0 1200FD01#0A70000000000000
(1790978685.292031) can0 020001FD#7FFF7F747FFF00F0
(1790978685.292170) can0 017FFF01#7FFF7FFF00000000
(1790978685.292331) can0 020001FD#800080407FFF00F0
(1790978685.292483) can0 0400FD01#0000000000000000
(1790978685.292630) can0 020001FD#7FFF80747FFF00F0
(1790978685.292769) can0 1200FD02#0A70000000000000
(1790978685.292927) can0 020002FD#7FFF7FE67FFF00F0
(1790978685.293068) can0 017FFF02#7FFF7FFF00000000
(1790978685.293223) can0 020002FD#7FFF7FA77FFF00F0
(1790978685.293364) can0 0400FD02#0000000000000000
(1790978685.293524) can0 020002FD#7FFF7F297FFF00F0
(1790978685.293662) can0 1200FD03#0A70000000000000
(1790978685.293819) can0 020003FD#7FFF805C7FFF00E6
(1790978685.293960) can0 017FFF03#7FFF7FFF00000000
(1790978685.294117) can0 020003FD#7FFF801E7FFF00E6
(1790978685.294260) can0 0400FD03#0000000000000000
(1790978685.294415) can0 020003FD#7FFF7F937FFF00E6
(1790978685.294555) can0 1200FD04#0A70000000000000
(1790978685.294736) can0 020004FD#7FFF7FFA7FFF00F0
(1790978685.294873) can0 017FFF04#7FFF7FFF00000000
(1790978685.295028) can0 020004FD#7FFF7FC67FFF00F0
(1790978685.295172) can0 0400FD04#0000000000000000
(1790978685.295330) can0 020004FD#7FFF7FF67FFF00F0
(1790978685.295468) can0 1200FD05#0A70000000000000
(1790978685.295627) can0 020005FD#7FF67FF07FFF00F0
(1790978685.295769) can0 017FFF05#7FFF7FFF00000000
(1790978685.295924) can0 020005FD#7FF67FDC7FFF00F0
(1790978685.296066) can0 0400FD05#0000000000000000
(1790978685.296221) can0 020005FD#7FF67FE67FFF00F0
(1790978685.296358) can0 1800FD01#0102030405060000
(1790978685.296535) can0 020001FD#7FFF7F5E7FFF00F0
(1790978685.296669) can0 1800FD02#0102030405060000
(1790978685.296826) can0 020002FD#7FFF7FF37FFF00F0
(1790978685.296964) can0 1800FD03#0102030405060000
(1790978685.297122) can0 020003FD#7FFF7FD27FFF00E6
(1790978685.297261) can0 1800FD04#0102030405060000
(1790978685.297436) can0 020004FD#7FFF80017FFF00F0
(1790978685.297568) can0 1800FD05#0102030405060000
(1790978685.297722) can0 020005FD#7FF6802C7FFF00F0
(1790978685.297862) can0 04008001#00C4000000000000
(1790978685.298032) can0 02000180#00C4560003012A07
(1790978685.298316) can0 00008101#0000000000000000
(1790978685.298478) can0 000001FE#457B30020C323817
(1790978685.299371) can0 11008201#0570000000000000
(1790978685.299535) can0 11000182#0570000000000000
(1790978685.300432) can0 11008301#1970000000000000
(1790978685.300586) can0 11000183#19700000E4B83239
(1790978685.301491) can0 11008401#1B70000000000000
(1790978685.301651) can0 11000184#1B70000000000000
(1790978685.302551) can0 11008501#2870000000000000
(1790978685.302730) can0 11000185#2870000058020000
(1790978685.303607) can0 11008601#2970000000000000
(1790978685.303785) can0 11000186#2970000000000000
(1790978685.304666) can0 11008701#2B70000000000000
(1790978685.304833) can0 11000187#2B70000000000000
(1790978685.305726) can0 04008802#00C4000000000000
(1790978685.305882) can0 02000288#00C4560003012A07
(1790978685.306789) can0 00008902#0000000000000000
(1790978685.306967) can0 000002FE#785630020C343701
(1790978685.307842) can0 11008A02#0570000000000000
(1790978685.308026) can0 1100028A#0570000000000000
(1790978685.308903) can0 11008B02#1970000000000000
(1790978685.309070) can0 1100028B#19700000ABAA32B8
(1790978685.309960) can0 11008C02#1B70000000000000
(1790978685.310127) can0 1100028C#1B70000000000000
(1790978685.311019) can0 11008D02#2870000000000000
(1790978685.311175) can0 1100028D#2870000058020000
(1790978685.312076) can0 11008E02#2970000000000000
(1790978685.312235) can0 1100028E#2970000000000000
(1790978685.313136) can0 11008F02#2B70000000000000
(1790978685.313296) can0 1100028F#2B70000000000000
(1790978685.314197) can0 04009003#00C4000000000000
(1790978685.314367) can0 02000390#00C4560002032207
(1790978685.315257) can0 00009103#0000000000000000
(1790978685.315411) can0 000003FE#9D6A3B859C023019
(1790978685.316312) can0 11009203#0570000000000000
(1790978685.316473) can0 11000392#0570000000000000
(1790978685.317370) can0 11009303#1970000000000000
(1790978685.317524) can0 11000393#19700000EFBD4F38
(1790978685.318430) can0 11009403#1B70000000000000
(1790978685.318584) can0 11000394#1B700000DED894BD
(1790978685.319487) can0 11009503#2870000000000000
(1790978685.319666) can0 11000395#2870000058020000
(1790978685.320547) can0 11009603#2970000000000000
(1790978685.320719) can0 11000396#2970000000000000
(1790978685.321607) can0 11009703#2B70000000000000
(1790978685.321769) can0 11000397#2B70000000000000
(1790978685.322666) can0 04009804#00C4000000000000
(1790978685.322829) can0 02000498#00C4560002032207
(1790978685.323726) can0 00009904#0000000000000000
(1790978685.323878) can0 000004FE#8A063B8F2450B00D
(1790978685.324783) can0 11009A04#0570000000000000
(1790978685.324942) can0 1100049A#0570000000000000
(1790978685.325842) can0 11009B04#1970000000000000
(1790978685.325996) can0 1100049B#19700000DF7B4F38
(1790978685.326899) can0 11009C04#1B70000000000000
(1790978685.327075) can0 1100049C#1B700000A29316BD
(1790978685.327957) can0 11009D04#2870000000000000
(1790978685.328129) can0 1100049D#2870000058020000
(1790978685.329018) can0 11009E04#2970000000000000
(1790978685.329182) can0 1100049E#2970000000000000
(1790978685.330076) can0 11009F04#2B70000000000000
(1790978685.330235) can0 1100049F#2B70000000000000
(1790978685.331135) can0 0400A005#00C4000000000000
(1790978685.331294) can0 020005A0#00C4560000032007
(1790978685.332194) can0 0000A105#0000000000000000
(1790978685.332369) can0 000005FE#622C30020C343701
(1790978685.333251) can0 1100A205#0570000000000000
(1790978685.333423) can0 110005A2#0570000000000000
(1790978685.334309) can0 1100A305#1970000000000000
(1790978685.334468) can0 110005A3#1970000033B564BB
(1790978685.335367) can0 1100A405#1B70000000000000
(1790978685.335523) can0 110005A4#1B700000AC0C64BD
(1790978685.336425) can0 1100A505#2870000000000000
(1790978685.336582) can0 110005A5#2870000058020000
(1790978685.337486) can0 1100A605#2970000000000000
(1790978685.337645) can0 110005A6#2970000000000000
(1790978685.338544) can0 1100A705#2B70000000000000
(1790978685.338724) can0 110005A7#2B70000000000000
(1790978685.339624) can0 1200FD01#0A70000000000000
(1790978685.339779) can0 020001FD#7FFF80417FFF00F0
(1790978685.339921) can0 017FFF01#7FFF7FFF00000000
(1790978685.340077) can0 020001FD#7FFF80547FFF00F0
(1790978685.340218) can0 0400FD01#0000000000000000
(1790978685.340386) can0 020001FD#7FFF7FB67FFF00F0
(1790978685.340518) can0 1200FD02#0A70000000000000
(1790978685.340674) can0 020002FD#7FFF7FC27FFF00F0
(1790978685.340815) can0 017FFF02#7FFF7FFF00000000
(1790978685.340973) can0 020002FD#7FFF7FFA7FFF00F0
(1790978685.341113) can0 0400FD02#0000000000000000
(1790978685.341273) can0 020002FD#7FFF7FF27FFF00F0
(1790978685.341412) can0 1200FD03#0A70000000000000
(1790978685.341569) can0 020003FD#7FFF80307FFF00E6
(1790978685.341711) can0 017FFF03#7FFF7FFF00000000
(1790978685.341867) can0 020003FD#7FFF7F9D7FFF00E6
(1790978685.342009) can0 0400FD03#0000000000000000
(1790978685.342164) can0 020003FD#7FFF7FDA7FFF00E6
(1790978685.342303) can0 1200FD04#0A70000000000000
(1790978685.342485) can0 020004FD#7FFF7FEE7FFF00F0
(1790978685.342623) can0 017FFF04#7FFF7FFF00000000
(1790978685.342779) can0 020004FD#7FFF7FF17FFF00F0
(1790978685.342924) can0 0400FD04#0000000000000000
(1790978685.343081) can0 020004FD#7FFF801A7FFF00F0
(1790978685.343220) can0 1200FD05#0A70000000000000
(1790978685.343378) can0 020005FD#7FF67FEA7FFF00F0
(1790978685.343520) can0 017FFF05#7FFF7FFF00000000
(1790978685.343675) can0 020005FD#7FF680397FFF00F0
(1790978685.343816) can0 0400FD05#0000000000000000
(1790978685.343973) can0 020005FD#7FF6800B7FFF00F0
(1790978685.344109) can0 1200FD01#2870000058020000
(1790978685.344285) can0 020001FD#7FFF7FE27FFF00F0
(1790978685.344420) can0 1100B001#2870000000000000
(1790978685.344582) can0 110001B0#2870000058020000
(1790978685.344929) can0 1200FD02#2870000058020000
(1790978685.345084) can0 020002FD#7FFF7F727FFF00F0
(1790978685.345222) can0 1100B102#2870000000000000
(1790978685.345380) can0 110002B1#2870000058020000
(1790978685.345990) can0 1200FD03#2870000058020000
(1790978685.346170) can0 020003FD#7FFF80227FFF00E6
(1790978685.346303) can0 1100B203#2870000000000000
(1790978685.346467) can0 110003B2#2870000058020000
(1790978685.347052) can0 1200FD04#2870000058020000
(1790978685.347235) can0 020004FD#7FFF80047FFF00F0
(1790978685.347369) can0 1100B304#2870000000000000
(1790978685.347531) can0 110004B3#2870000058020000
(1790978685.348114) can0 1200FD05#2870000058020000
(1790978685.348270) can0 020005FD#7FF680157FFF00F0
(1790978685.348407) can0 1100B405#2870000000000000
(1790978685.348573) can0 110005B4#2870000058020000
(1790978685.349179) can0 0600D001#0100000000000000
(1790978685.349339) can0 020001D0#7FFF80A47FFF00F0
(1790978685.350247) can0 1100E001#1970000000000000
(1790978685.350426) can0 110001E0#19700000ABAA3238
(1790978685.351307) can0 0600D102#0100000000000000
(1790978685.351475) can0 020002D1#7FFF7F1A7FFF00F0
(1790978685.352365) can0 1100E102#1970000000000000
(1790978685.352523) can0 110002E1#19700000ABAAB238
(1790978685.353428) can0 0600D203#0100000000000000
(1790978685.353587) can0 020003D2#7FFF7FBF7FFF00E6
(1790978685.354487) can0 1100E203#1970000000000000
(1790978685.354665) can0 110003E2#19700000E79CCFB8
(1790978685.355548) can0 0600D304#0100000000000000
(1790978685.355730) can0 020004D3#7FFF80217FFF00F0
(1790978685.356605) can0 1100E304#1970000000000000
(1790978685.356782) can0 110004E3#1970000000000000
(1790978685.357666) can0 0600D405#0100000000000000
(1790978685.357825) can0 020005D4#7FFF80457FFF00F0
(1790978685.358724) can0 1100E405#1970000000000000
(1790978685.358878) can0 110005E4#19700000CDCC2038
(1790978685.359784) can0 1100C001#2870000000000000
(1790978685.359942) can0 110001C0#2870000058020000
(1790978685.360843) can0 1100C102#2870000000000000
(1790978685.361023) can0 110002C1#2870000058020000
(1790978685.361901) can0 1100C203#2870000000000000
(1790978685.362067) can0 110003C2#2870000058020000
(1790978685.362959) can0 1100C304#2870000000000000
(1790978685.363129) can0 110004C3#2870000058020000
(1790978685.364016) can0 1100C405#2870000000000000
(1790978685.364173) can0 110005C4#2870000058020000
(1790978685.365732) can0 1200FD01#0A70000000000000
(1790978685.365885) can0 020001FD#7FFF7F977FFF00F0
(1790978685.366026) can0 017FFF01#7FFF7FFF00000000
(1790978685.366182) can0 020001FD#7FFF80037FFF00F0
(1790978685.366323) can0 0400FD01#0000000000000000
(1790978685.366478) can0 020001FD#7FFF80EC7FFF00F0
(1790978685.366617) can0 1200FD02#0A70000000000000
(1790978685.366773) can0 020002FD#7FFF80227FFF00F0
(1790978685.366915) can0 017FFF02#7FFF7FFF00000000
(1790978685.367073) can0 020002FD#7FFF801F7FFF00F0
(1790978685.367214) can0 0400FD02#0000000000000000
(1790978685.367372) can0 020002FD#7FFF7FBA7FFF00F0
(1790978685.367510) can0 1200FD03#0A70000000000000
(1790978685.367667) can0 020003FD#7FFF80077FFF00E6
(1790978685.367808) can0 017FFF03#7FFF7FFF00000000
(1790978685.367964) can0 020003FD#7FFF7FB57FFF00E6
(1790978685.368107) can0 0400FD03#0000000000000000
(1790978685.368264) can0 020003FD#7FFF7FD87FFF00E6
(1790978685.368404) can0 1200FD04#0A70000000000000
(1790978685.368584) can0 020004FD#7FFF7FD37FFF00F0
(1790978685.368721) can0 017FFF04#7FFF7FFF00000000
(1790978685.368878) can0 020004FD#7FFF7FC67FFF00F0
(1790978685.369022) can0 0400FD04#0000000000000000
(1790978685.369177) can0 020004FD#7FFF7FDC7FFF00F0
(1790978685.369315) can0 1200FD05#0A70000000000000
(1790978685.369473) can0 020005FD#7FFF7FFF7FFF00F0
(1790978685.369616) can0 017FFF05#7FFF7FFF00000000
(1790978685.369773) can0 020005FD#7FFF7FED7FFF00F0
(1790978685.369915) can0 0400FD05#0000000000000000
(1790978685.370077) can0 020005FD#7FFF80187FFF00F0
(1790978685.380875) can0 11004001#1970000000000000
(1790978685.381027) can0 11000140#19700000E4B8B238
(1790978685.381934) can0 11004101#2870000000000000
(1790978685.382091) can0 11000141#2870000058020000
(1790978685.382989) can0 11004202#1970000000000000
(1790978685.383166) can0 11000242#19700000ABAA32B8
(1790978685.384048) can0 11004302#2870000000000000
(1790978685.384223) can0 11000243#2870000058020000
(1790978685.385110) can0 11004403#1970000000000000
(1790978685.385265) can0 11000344#197000006BAD1BB9
(1790978685.386166) can0 11004503#2870000000000000
(1790978685.386322) can0 11000345#2870000058020000
(1790978685.387226) can0 11004604#1970000000000000
(1790978685.387378) can0 11000446#19700000E79CCF38
(1790978685.388283) can0 11004704#2870000000000000
(1790978685.388439) can0 11000447#2870000058020000
(1790978685.389342) can0 11004805#1970000000000000
(1790978685.389517) can0 11000548#19700000CD4CF1B8
(1790978685.390400) can0 11004905#2870000000000000
(1790978685.390572) can0 11000549#2870000058020000
(1790978685.391743) can0 0300FD01#0000000000000000
(1790978685.392001) can0 1200FD01#0570000000000000
(1790978685.392259) can0 0300FD02#0000000000000000
(1790978685.392517) can0 1200FD02#0570000000000000
(1790978685.392777) can0 0300FD03#0000000000000000
(1790978685.393035) can0 1200FD03#0570000000000000
(1790978685.393186) can0 028001FD#7FFF80407FF500F0
(1790978685.393328) can0 0300FD04#0000000000000000
(1790978685.393586) can0 1200FD04#0570000000000000
(1790978685.393736) can0 028002FD#7FFF7FDF802100F0
(1790978685.393876) can0 0300FD05#0000000000000000
(1790978685.394133) can0 1200FD05#0570000000000000
(1790978685.394280) can0 028003FD#7FFF80227FCF00E6
(1790978685.394421) can0 017FFF01#7FFF7FFF00000000
(1790978685.394572) can0 028001FD#7FFF7FF67FDF00F0
(1790978685.394713) can0 017FFF02#7FFF7FFF00000000
(1790978685.394862) can0 028001FD#7FFF807C7FDB00F0
(1790978685.395004) can0 017FFF03#7FFF7FFF00000000
(1790978685.395154) can0 028002FD#7FFF7F99805000F0
(1790978685.395296) can0 017FFF04#7FFF7FFF00000000
(1790978685.395444) can0 028002FD#7FFF80A3805000F0
(1790978685.395587) can0 017FFF05#7FFF7FFF00000000
(1790978685.395735) can0 028003FD#7FFF80027FAE00E6
(1790978685.395883) can0 028003FD#7FFF7FF37FB000E6
(1790978685.396027) can0 028004FD#7FFF7FC9805F00F0
(1790978685.396161) can0 028004FD#7FFF8004805500F0
(1790978685.396308) can0 028004FD#7FFF8019805D00F0
(1790978685.396452) can0 028005FD#7FFF7FC37FE500F0
(1790978685.396584) can0 11006001#1970000000000000
(1790978685.396732) can0 028005FD#7FFF802C7F1F00F0
(1790978685.396874) can0 017FFF01#7FFF7FFF00000000
(1790978685.397022) can0 11000160#197000001D070639
(1790978685.397163) can0 017FFF02#7FFF7FFF00000000
(1790978685.397314) can0 02800160#7FFF80C17FEA00F0
(1790978685.397455) can0 017FFF03#7FFF7FFF00000000
(1790978685.397605) can0 028002FD#7FFF801E803900F0
(1790978685.397747) can0 017FFF04#7FFF7FFF00000000
(1790978685.397897) can0 028003FD#7FFF80077FC600E6
(1790978685.398039) can0 017FFF05#7FFF7FFF00000000
(1790978685.398191) can0 028004FD#7FFF803E805C00F0
(1790978685.398333) can0 017FFF01#7FFF7FFF00000000
(1790978685.398483) can0 028005FD#7FFF7FF27EB600F0
(1790978685.398625) can0 017FFF02#7FFF7FFF00000000
(1790978685.398776) can0 02800160#7FFF7FE47FE900F0
(1790978685.398917) can0 017FFF03#7FFF7FFF00000000
(1790978685.399066) can0 028002FD#7FFF7FEA804800F0
(1790978685.399208) can0 017FFF04#7FFF7FFF00000000
(1790978685.399356) can0 028003FD#7FFF7FB37FC200E6
(1790978685.399498) can0 017FFF05#7FFF7FFF00000000
(1790978685.399647) can0 028004FD#7FFF7FEB805700F0
(1790978685.399784) can0 11006101#2870000000000000
(1790978685.399934) can0 028005FD#7FFF800C7EA700F0
(1790978685.400076) can0 017FFF01#7FFF7FFF00000000
(1790978685.400224) can0 028005FD#7FFF7FE47EDD00F0
(1790978685.400366) can0 017FFF02#7FFF7FFF00000000
(1790978685.400513) can0 02800161#7FFF7FC97FE300F0
(1790978685.400654) can0 017FFF03#7FFF7FFF00000000
(1790978685.400802) can0 028002FD#7FFF8032802E00F0
(1790978685.400944) can0 017FFF04#7FFF7FFF00000000
(1790978685.401092) can0 028003FD#7FFF80227FD400E6
(1790978685.401234) can0 017FFF05#7FFF7FFF00000000
(1790978685.401388) can0 028004FD#7FFF8000803500F0
(1790978685.401533) can0 028005FD#7FFF80307F3F00F0
(1790978685.401677) can0 11000161#2870000058020000
(1790978685.402497) can0 11006202#1970000000000000
(1790978685.402683) can0 11000262#197000001DC7B2B8
(1790978685.402819) can0 017FFF01#7FFF7FFF00000000
(1790978685.402998) can0 02800161#7FFF80047FEE00F0
(1790978685.403134) can0 017FFF02#7FFF7FFF00000000
(1790978685.403330) can0 02800262#7FFF8026804F00F0
(1790978685.403466) can0 017FFF03#7FFF7FFF00000000
(1790978685.403682) can0 028003FD#800080147FE100E6
(1790978685.403819) can0 017FFF04#7FFF7FFF00000000
(1790978685.404045) can0 028004FD#7FFF7FBC804400F0
(1790978685.404183) can0 017FFF05#7FFF7FFF00000000
(1790978685.404385) can0 028005FD#8000803F7F9700F0
(1790978685.404519) can0 11006302#2870000000000000
(1790978685.404687) can0 11000263#2870000058020000
(1790978685.404822) can0 017FFF01#7FFF7FFF00000000
(1790978685.404998) can0 02800161#7FFF7F9B7FF200F0
(1790978685.405134) can0 017FFF02#7FFF7FFF00000000
(1790978685.405330) can0 02800263#7FFF810C802B00F0
(1790978685.405466) can0 017FFF03#7FFF7FFF00000000
(1790978685.405681) can0 028003FD#7FFF7FEF7FE100E6
(1790978685.405819) can0 017FFF04#7FFF7FFF00000000
(1790978685.406046) can0 028004FD#7FFF7F91801400F0
(1790978685.406183) can0 017FFF05#7FFF7FFF00000000
(1790978685.406383) can0 028005FD#8000802C7F6900F0
(1790978685.406516) can0 11006403#1970000000000000
(1790978685.406684) can0 11000364#19700000E79C1B39
(1790978685.406818) can0 017FFF01#7FFF7FFF00000000
(1790978685.406999) can0 02800161#7FFF80127FF000F0
(1790978685.407136) can0 017FFF02#7FFF7FFF00000000
(1790978685.407332) can0 02800263#7FFF7FA5802300F0
(1790978685.407469) can0 017FFF03#7FFF7FFF00000000
(1790978685.407679) can0 02800364#7FFF7FD5801200E6
(1790978685.407816) can0 017FFF04#7FFF7FFF00000000
(1790978685.408044) can0 028004FD#7FFF7FCC800800F0
(1790978685.408181) can0 017FFF05#7FFF7FFF00000000
(1790978685.408384) can0 028005FD#800080387F7300F0
(1790978685.408517) can0 11006503#2870000000000000
(1790978685.408685) can0 11000365#2870000058020000
(1790978685.408820) can0 017FFF01#7FFF7FFF00000000
(1790978685.408996) can0 02800161#7FFF80297FEA00F0
(1790978685.409132) can0 017FFF02#7FFF7FFF00000000
(1790978685.409330) can0 02800263#7FFF7FE8800300F0
(1790978685.409467) can0 017FFF03#7FFF7FFF00000000
(1790978685.409680) can0 02800365#800080117FF600E6
(1790978685.409817) can0 017FFF04#7FFF7FFF00000000
(1790978685.410042) can0 028004FD#7FFF7FA87FF700F0
(1790978685.410179) can0 017FFF05#7FFF7FFF00000000
(1790978685.410383) can0 028005FD#800080527F7200F0
(1790978685.410517) can0 11006604#1970000000000000
(1790978685.410700) can0 11000466#1970000000000000
(1790978685.410837) can0 017FFF01#7FFF7FFF00000000
(1790978685.410993) can0 02800161#7FFF801F800300F0
(1790978685.411135) can0 017FFF02#7FFF7FFF00000000
(1790978685.411333) can0 02800263#7FFF80817FF100F0
(1790978685.411470) can0 017FFF03#7FFF7FFF00000000
(1790978685.411679) can0 02800365#8000803C800E00E6
(1790978685.411816) can0 017FFF04#7FFF7FFF00000000
(1790978685.412041) can0 02800466#7FFF7FD97FE600F0
(1790978685.412178) can0 017FFF05#7FFF7FFF00000000
(1790978685.412383) can0 028005FD#8000804E7F4E00F0
(1790978685.412518) can0 11006704#2870000000000000
(1790978685.412697) can0 11000467#2870000058020000
(1790978685.412833) can0 017FFF01#7FFF7FFF00000000
(1790978685.412990) can0 02800161#7FFF80477FF100F0
(1790978685.413132) can0 017FFF02#7FFF7FFF00000000
(1790978685.413331) can0 02800263#7FFF800B7FFD00F0
(1790978685.413467) can0 017FFF03#7FFF7FFF00000000
(1790978685.413678) can0 02800365#8000805B800D00E6
(1790978685.413815) can0 017FFF04#7FFF7FFF00000000
(1790978685.414042) can0 02800467#7FFF801B800B00F0
(1790978685.414179) can0 017FFF05#7FFF7FFF00000000
(1790978685.414380) can0 028005FD#8001802F7F6700F0
(1790978685.414512) can0 11006805#1970000000000000
(1790978685.414689) can0 11000568#1970000000D8203A
(1790978685.414826) can0 017FFF01#7FFF7FFF00000000
(1790978685.414998) can0 02800161#7FFF7FEB800200F0
(1790978685.415134) can0 017FFF02#7FFF7FFF00000000
(1790978685.415331) can0 02800263#7FFF80397FC800F0
(1790978685.415467) can0 017FFF03#7FFF7FFF00000000
(1790978685.415679) can0 02800365#7FFF7FC3801700E6
(1790978685.415816) can0 017FFF04#7FFF7FFF00000000
(1790978685.416042) can0 02800467#7FFF8005800A00F0
(1790978685.416179) can0 017FFF05#7FFF7FFF00000000
(1790978685.416381) can0 02800568#8001803D7F4B00F0
(1790978685.416517) can0 11006905#2870000000000000
(1790978685.416689) can0 11000569#2870000058020000
(1790978685.416825) can0 017FFF01#7FFF7FFF00000000
(1790978685.417000) can0 02800161#7FFF804F7FFC00F0
(1790978685.417136) can0 017FFF02#7FFF7FFF00000000
(1790978685.417338) can0 02800263#7FFF7FFA7FEC00F0
(1790978685.417474) can0 017FFF03#7FFF7FFF00000000
(1790978685.417681) can0 02800365#7FFF7FA47FF400E6
(1790978685.417818) can0 017FFF04#7FFF7FFF00000000
(1790978685.418041) can0 02800467#7FFF8003800A00F0
(1790978685.418179) can0 017FFF05#7FFF7FFF00000000
(1790978685.418382) can0 02800569#8002804B7F9C00F0
(1790978685.418519) can0 017FFF01#7FFF7FFF00000000
(1790978685.418698) can0 02800161#7FFF7FAC7FF100F0
(1790978685.418834) can0 017FFF02#7FFF7FFF00000000
(1790978685.419032) can0 02800263#7FFE80427FE000F0
(1790978685.419168) can0 017FFF03#7FFF7FFF00000000
(1790978685.419379) can0 02800365#800080537FFF00E6
(1790978685.419516) can0 017FFF04#7FFF7FFF00000000
(1790978685.419744) can0 02800467#7FFF80837FF800F0
(1790978685.419876) can0 017FFF05#7FFF7FFF0F5C6666
(1790978685.420079) can0 02800569#8002809B7FB200F0
(1790978685.422844) can0 017FFF01#7FFF7FFF00000000
(1790978685.423041) can0 02800161#7FFF7F987FEA00F0
(1790978685.423177) can0 017FFF02#7FFF7FFF00000000
(1790978685.423334) can0 02800263#7FFF80AC800100F0
(1790978685.423475) can0 017FFF03#7FFF7FFF00000000
(1790978685.423681) can0 02800365#80008013800400E6
(1790978685.423818) can0 017FFF04#7FFF7FFF00000000
(1790978685.424039) can0 02800467#7FFE7FC2803B00F0
(1790978685.424172) can0 017FFF05#7FFE7FFF0F5C6666
(1790978685.424380) can0 02800569#8003805C7F2E00F0
(1790978685.427841) can0 017FFF01#7FFF7FFF00000000
(1790978685.428037) can0 02800161#7FFF7F947FED00F0
(1790978685.428173) can0 017FFF02#7FFF7FFF00000000
(1790978685.428340) can0 02800263#7FFF806B7FFD00F0
(1790978685.428476) can0 017FFF03#7FFF7FFF00000000
(1790978685.428679) can0 02800365#7FFF7FBC7FE300E6
(1790978685.428816) can0 017FFF04#7FFF7FFF00000000
(1790978685.429040) can0 02800467#7FFE7FD2801200F0
(1790978685.429172) can0 017FFF05#7FFE7FFF0F5C6666
(1790978685.429382) can0 02800569#8003801E7F6800F0
(1790978685.432797) can0 017FFF01#7FFF7FFF00000000
(1790978685.432993) can0 02800161#7FFF8052800200F0
(1790978685.433130) can0 017FFF02#7FFF7FFF00000000
(1790978685.433286) can0 02800263#7FFF80207FF600F0
(1790978685.433428) can0 017FFF03#7FFF7FFF00000000
(1790978685.433630) can0 02800365#7FFF7F6D802000E6
(1790978685.433767) can0 017FFF04#7FFF7FFF00000000
(1790978685.433993) can0 02800467#7FFE7FC9801A00F0
(1790978685.434125) can0 017FFF05#7FFD7FFF0F5C6666
(1790978685.434331) can0 02800569#80037FF57F5700F0
(1790978685.437840) can0 017FFF01#7FFF7FFF00000000
(1790978685.437995) can0 02800161#7FFF7F83800300F0
(1790978685.438137) can0 017FFF02#7FFF7FFF00000000
(1790978685.438335) can0 02800263#7FFF80647FF100F0
(1790978685.438472) can0 017FFF03#7FFF7FFF00000000
(1790978685.438678) can0 02800365#7FFF7FD67FF700E6
(1790978685.438815) can0 017FFF04#7FFF7FFF00000000
(1790978685.439044) can0 02800467#7FFF8011801000F0
(1790978685.439175) can0 017FFF05#7FFC7FFF0F5C6666
(1790978685.439382) can0 02800569#800380137F6300F0
(1790978685.442841) can0 017FFF01#7FFF7FFF00000000
(1790978685.443037) can0 02800161#7FFF7FBD7FEE00F0
(1790978685.443174) can0 017FFF02#7FFF7FFF00000000
(1790978685.443341) can0 02800263#7FFF804D7FDF00F0
(1790978685.443476) can0 017FFF03#7FFF7FFF00000000
(1790978685.443678) can0 02800365#7FFF800D7FE900E6
(1790978685.443816) can0 017FFF04#7FFF7FFF00000000
(1790978685.444044) can0 02800467#7FFF803C7FF400F0
(1790978685.444175) can0 017FFF05#7FFC7FFF0F5C6666
(1790978685.444379) can0 02800569#800480347F4500F0
(1790978685.447841) can0 017FFF01#7FFF7FFF00000000
(1790978685.448038) can0 02800161#7FFF7F9B7FFE00F0
(1790978685.448174) can0 017FFF02#7FFF7FFF00000000
(1790978685.448342) can0 02800263#7FFE8015801A00F0
(1790978685.448477) can0 017FFF03#7FFF7FFF00000000
(1790978685.448678) can0 02800365#7FFF7FBC7FEB00E6
(1790978685.448815) can0 017FFF04#7FFF7FFF00000000
(1790978685.449042) can0 02800467#7FFF7FF5801300F0
(1790978685.449173) can0 017FFF05#7FFB7FFF0F5C6666
(1790978685.449385) can0 02800569#800380127F6000F0
(1790978685.452844) can0 017FFF01#7FFF7FFF00000000
(1790978685.453044) can0 02800161#7FFF7FE0800400F0
(1790978685.453180) can0 017FFF02#7FFF7FFF00000000
(1790978685.453336) can0 02800263#7FFF80557FE300F0
(1790978685.453478) can0 017FFF03#7FFF7FFF00000000
(1790978685.453680) can0 02800365#80008040801800E6
(1790978685.453818) can0 017FFF04#7FFF7FFF00000000
(1790978685.454043) can0 02800467#7FFF7F917FF600F0
(1790978685.454175) can0 017FFF05#7FFA7FFF0F5C6666
(1790978685.454384) can0 02800569#80037FF17F4400F0
(1790978685.457842) can0 017FFF01#7FFF7FFF00000000
(1790978685.458038) can0 02800161#7FFF7F52800A00F0
(1790978685.458174) can0 017FFF02#7FFF7FFF00000000
(1790978685.458334) can0 02800263#7FFE7FC07FE600F0
(1790978685.458475) can0 017FFF03#7FFF7FFF00000000
(1790978685.458679) can0 02800365#800080667FFF00E6
(1790978685.458817) can0 017FFF04#7FFF7FFF00000000
(1790978685.459043) can0 02800467#7FFF808F7FEE00F0
(1790978685.459175) can0 017FFF05#7FFA7FFF0F5C6666
(1790978685.459382) can0 02800569#800380527F3400F0
(1790978685.462842) can0 017FFF01#7FFF7FFF00000000
(1790978685.463040) can0 02800161#7FFF8022800800F0
(1790978685.463176) can0 017FFF02#7FFF7FFF00000000
(1790978685.463333) can0 02800263#7FFF8119800200F0
(1790978685.463475) can0 017FFF03#7FFF7FFF00000000
(1790978685.463680) can0 02800365#7FFF7F857FFF00E6
(1790978685.463817) can0 017FFF04#7FFF7FFF00000000
(1790978685.464046) can0 02800467#7FFE800F800400F0
(1790978685.464178) can0 017FFF05#7FF97FFF0F5C6666
(1790978685.464383) can0 02800569#80037FE77F4000F0
(1790978685.467843) can0 017FFF01#7FFF7FFF00000000
(1790978685.468041) can0 02800161#7FFF801D800200F0
(1790978685.468177) can0 017FFF02#7FFF7FFF00000000
(1790978685.468334) can0 02800263#7FFF7FF27FEA00F0
(1790978685.468476) can0 017FFF03#7FFF7FFF00000000
(1790978685.468678) can0 02800365#7FFF7FD57FF900E6
(1790978685.468816) can0 017FFF04#7FFF7FFF00000000
(1790978685.469039) can0 02800467#7FFF7FC97FAB00F0
(1790978685.469170) can0 017FFF05#7FF87FFF0F5C6666
(1790978685.469380) can0 02800569#80037FD77ED100F0
(1790978685.472842) can0 017FFF01#7FFF7FFF00000000
(1790978685.473037) can0 02800161#7FFF80727FF200F0
(1790978685.473173) can0 017FFF02#7FFF7FFF00000000
(1790978685.473333) can0 02800263#7FFF7F61801600F0
(1790978685.473475) can0 017FFF03#7FFF7FFF00000000
(1790978685.473680) can0 02800365#800080047FF800E6
(1790978685.473817) can0 017FFF04#7FFF7FFF00000000
(1790978685.474043) can0 02800467#7FFF80187FEB00F0
(1790978685.474174) can0 017FFF05#7FF87FFF0F5C6666
(1790978685.474381) can0 02800569#8003802B7EFB00F0
(1790978685.477842) can0 017FFF01#7FFF7FFF00000000
(1790978685.478037) can0 02800161#7FFF802E7FFA00F0
(1790978685.478173) can0 017FFF02#7FFF7FFF00000000
(1790978685.478341) can0 02800263#7FFF8052801300F0
(1790978685.478475) can0 017FFF03#7FFF7FFF00000000
(1790978685.478679) can0 02800365#7FFF8016801800E6
(1790978685.478817) can0 017FFF04#7FFF7FFF00000000
(1790978685.479041) can0 02800467#7FFF7FF47FD600F0
(1790978685.479173) can0 017FFF05#7FF77FFF0F5C6666
(1790978685.479380) can0 02800569#80037FD77EA800F0
(1790978685.482841) can0 017FFF01#7FFF7FFF00000000
(1790978685.483036) can0 02800161#7FFF7F8F7FF200F0
(1790978685.483172) can0 017FFF02#7FFF7FFF00000000
(1790978685.483331) can0 02800263#7FFE7FCC801300F0
(1790978685.483473) can0 017FFF03#7FFF7FFF00000000
(1790978685.483681) can0 02800365#7FFF800F801200E6
(1790978685.483818) can0 017FFF04#7FFF7FFF00000000
(1790978685.484041) can0 02800467#7FFF80077FF700F0
(1790978685.484173) can0 017FFF05#7FF77FFF0F5C6666
(1790978685.484380) can0 02800569#80037FD67EF200F0
(1790978685.487842) can0 017FFF01#7FFF7FFF00000000
(1790978685.488039) can0 02800161#7FFF8004800200F0
(1790978685.488175) can0 017FFF02#7FFF7FFF00000000
(1790978685.488335) can0 02800263#7FFF800A800D00F0
(1790978685.488477) can0 017FFF03#7FFF7FFF00000000
(1790978685.488679) can0 02800365#7FFF7FB67FF800E6
(1790978685.488817) can0 017FFF04#7FFF7FFF00000000
(1790978685.489043) can0 02800467#7FFF80107FE100F0
(1790978685.489175) can0 017FFF05#7FF67FFF0F5C6666
(1790978685.489381) can0 02800569#800380027EC900F0
(1790978685.492843) can0 017FFF01#7FFF7FFF00000000
(1790978685.493039) can0 02800161#7FFF80A2800F00F0
(1790978685.493175) can0 017FFF02#7FFF7FFF00000000
(1790978685.493334) can0 02800263#7FFF7FDE7FEA00F0
(1790978685.493475) can0 017FFF03#7FFF7FFF00000000
(1790978685.493679) can0 02800365#7FFF7FE27FFD00E6
(1790978685.493816) can0 017FFF04#7FFF7FFF00000000
(1790978685.494043) can0 02800467#7FFF8011800D00F0
(1790978685.494176) can0 017FFF05#7FF57FFF0F5C6666
(1790978685.494379) can0 02800569#80037FDD7ED900F0
(1790978685.497841) can0 017FFF01#7FFF7FFF00000000
(1790978685.498040) can0 02800161#7FFF7FF67FFE00F0
(1790978685.498176) can0 017FFF02#7FFF7FFF00000000
(1790978685.498333) can0 02800263#7FFE80347FDF00F0
(1790978685.498474) can0 017FFF03#7FFF7FFF00000000
(1790978685.498679) can0 02800365#7FFF7FFC7FE600E6
(1790978685.498816) can0 017FFF04#7FFF7FFF00000000
(1790978685.499040) can0 02800467#7FFE7FCD802000F0
(1790978685.499173) can0 017FFF05#7FF57FFF0F5C6666
(1790978685.499379) can0 02800569#800380137ED100F0
(1790978685.502842) can0 017FFF01#7FFF7FFF00000000
(1790978685.503041) can0 02800161#7FFF7FE0800500F0
(1790978685.503177) can0 017FFF02#7FFF7FFF00000000
(1790978685.503333) can0 02800263#7FFF7FCE7FE100F0
(1790978685.503474) can0 017FFF03#7FFF7FFF00000000
(1790978685.503678) can0 02800365#7FFF7FD07FEE00E6
(1790978685.503815) can0 017FFF04#7FFF7FFF00000000
(1790978685.504040) can0 02800467#7FFE7FDD800A00F0
(1790978685.504173) can0 017FFF05#7FF47FFF0F5C6666
(1790978685.504379) can0 02800569#80027FBF7EC300F0
(1790978685.507842) can0 017FFF01#7FFF7FFF00000000
(1790978685.508041) can0 02800161#7FFF80307FF100F0
(1790978685.508177) can0 017FFF02#7FFF7FFF00000000
(1790978685.508335) can0 02800263#7FFF7FD0800C00F0
(1790978685.508477) can0 017FFF03#7FFF7FFF00000000
(1790978685.508678) can0 02800365#7FFF800C800200E6
(1790978685.508815) can0 017FFF04#7FFF7FFF00000000
(1790978685.509043) can0 02800467#7FFF7FD6800400F0
(1790978685.509177) can0 017FFF05#7FF37FFF0F5C6666
(1790978685.509379) can0 02800569#800380277EB600F0
(1790978685.512842) can0 017FFF01#7FFF7FFF00000000
(1790978685.513041) can0 02800161#7FFF7FF4800100F0
(1790978685.513177) can0 017FFF02#7FFF7FFF00000000
(1790978685.513334) can0 02800263#7FFF8019800900F0
(1790978685.513475) can0 017FFF03#7FFF7FFF00000000
(1790978685.513677) can0 02800365#7FFF8052802100E6
(1790978685.513814) can0 017FFF04#7FFF7FFF00000000
(1790978685.514040) can0 02800467#7FFF8039801B00F0
(1790978685.514174) can0 017FFF05#7FF37FFF0F5C6666
(1790978685.514382) can0 02800569#80027FF67E4100F0
(1790978685.517840) can0 017FFF01#7FFF7FFF00000000
(1790978685.518037) can0 02800161#7FFF80387FFD00F0
(1790978685.518173) can0 017FFF02#7FFF7FFF00000000
(1790978685.518333) can0 02800263#7FFF804B7FE700F0
(1790978685.518474) can0 017FFF03#7FFF7FFF00000000
(1790978685.518677) can0 02800365#8000808B7FF700E6
(1790978685.518814) can0 017FFF04#7FFF7FFF00000000
(1790978685.519044) can0 02800467#7FFF8009800800F0
(1790978685.519175) can0 017FFF05#7FF27FFF0F5C6666
(1790978685.519379) can0 02800569#80027FFE7E8900F0
(1790978685.522842) can0 017FFF01#7FFF7FFF00000000
(1790978685.523042) can0 02800161#7FFF7FFB800400F0
(1790978685.523178) can0 017FFF02#7FFF7FFF00000000
(1790978685.523336) can0 02800263#7FFF7F82800000F0
(1790978685.523477) can0 017FFF03#7FFF7FFF00000000
(1790978685.523679) can0 02800365#7FFF7FBE800200E6
(1790978685.523816) can0 017FFF04#7FFF7FFF00000000
(1790978685.524043) can0 02800467#7FFE7FE07FF800F0
(1790978685.524176) can0 017FFF05#7FF17FFF0F5C6666
(1790978685.524381) can0 02800569#80027FD07E7A00F0
(1790978685.527842) can0 017FFF01#7FFF7FFF00000000
(1790978685.528038) can0 02800161#7FFF801D7FEF00F0
(1790978685.528174) can0 017FFF02#7FFF7FFF00000000
(1790978685.528333) can0 02800263#7FFF7F937FF900F0
(1790978685.528475) can0 017FFF03#7FFF7FFF00000000
(1790978685.528678) can0 02800365#7FFF7FD27FEF00E6
(1790978685.528815) can0 017FFF04#7FFF7FFF00000000
(1790978685.529045) can0 02800467#7FFF801A801E00F0
(1790978685.529178) can0 017FFF05#7FF17FFF0F5C6666
(1790978685.529379) can0 02800569#80027FD27E6700F0
(1790978685.532842) can0 017FFF01#7FFF7FFF00000000
(1790978685.533039) can0 02800161#7FFF7FCB800100F0
(1790978685.533175) can0 017FFF02#7FFF7FFF00000000
(1790978685.533333) can0 02800263#7FFF80A77FEF00F0
(1790978685.533474) can0 017FFF03#7FFF7FFF00000000
(1790978685.533678) can0 02800365#7FFF7FFC7FE900E6
(1790978685.533815) can0 017FFF04#7FFF7FFF00000000
(1790978685.534040) can0 02800467#7FFF7FE4802300F0
(1790978685.534172) can0 017FFF05#7FF07FFF0F5C6666
(1790978685.534380) can0 02800569#8002803F7E5900F0
(1790978685.537842) can0 017FFF01#7FFF7FFF00000000
(1790978685.538037) can0 02800161#7FFF7FC37FFB00F0
(1790978685.538173) can0 017FFF02#7FFF7FFF00000000
(1790978685.538340) can0 02800263#7FFE7F807FF000F0
(1790978685.538476) can0 017FFF03#7FFF7FFF00000000
(1790978685.538678) can0 02800365#7FFF7FD7800600E6
(1790978685.538815) can0 017FFF04#7FFF7FFF00000000
(1790978685.539042) can0 02800467#7FFF7FEB800300F0
(1790978685.539173) can0 017FFF05#7FEF7FFF0F5C6666
(1790978685.539378) can0 02800569#800280437E3A00F0
(1790978685.542842) can0 017FFF01#7FFF7FFF00000000
(1790978685.543039) can0 02800161#7FFF7F98800E00F0
(1790978685.543175) can0 017FFF02#7FFF7FFF00000000
(1790978685.543343) can0 02800263#7FFF7FFA800C00F0
(1790978685.543478) can0 017FFF03#7FFF7FFF00000000
(1790978685.543681) can0 02800365#7FFF7FEB7FFF00E6
(1790978685.543819) can0 017FFF04#7FFF7FFF00000000
(1790978685.544041) can0 02800467#7FFF8009801D00F0
(1790978685.544173) can0 017FFF05#7FEF7FFF0F5C6666
(1790978685.544379) can0 02800569#80017FD37E8300F0
(1790978685.547842) can0 017FFF01#7FFF7FFF00000000
(1790978685.548038) can0 02800161#7FFF8022800200F0
(1790978685.548174) can0 017FFF02#7FFF7FFF00000000
(1790978685.548342) can0 02800263#7FFF807B800C00F0
(1790978685.548477) can0 017FFF03#7FFF7FFF00000000
(1790978685.548678) can0 02800365#7FFF80047FF200E6
(1790978685.548815) can0 017FFF04#7FFF7FFF00000000
(1790978685.549041) can0 02800467#7FFF8028801200F0
(1790978685.549172) can0 017FFF05#7FEE7FFF0F5C6666
(1790978685.549381) can0 02800569#80017FFA7E5100F0
(1790978685.552842) can0 017FFF01#7FFF7FFF00000000
(1790978685.553040) can0 02800161#7FFF7FD0800700F0
(1790978685.553176) can0 017FFF02#7FFF7FFF00000000
(1790978685.553332) can0 02800263#7FFF7FA57FF200F0
(1790978685.553473) can0 017FFF03#7FFF7FFF00000000
(1790978685.553678) can0 02800365#7FFF7FB8800200E6
(1790978685.553815) can0 017FFF04#7FFF7FFF00000000
(1790978685.554040) can0 02800467#7FFF802C800800F0
(1790978685.554171) can0 017FFF05#7FED7FFF0F5C6666
(1790978685.554381) can0 02800569#800180197E2A00F0
(1790978685.557841) can0 017FFF01#7FFF7FFF00000000
(1790978685.558039) can0 02800161#7FFF8044800C00F0
(1790978685.558176) can0 017FFF02#7FFF7FFF00000000
(1790978685.558332) can0 02800263#7FFF7FFD801300F0
(1790978685.558474) can0 017FFF03#7FFF7FFF00000000
(1790978685.558676) can0 02800365#800080247FCE00E6
(1790978685.558813) can0 017FFF04#7FFF7FFF00000000
(1790978685.559039) can0 02800467#7FFF8031801900F0
(1790978685.559170) can0 017FFF05#7FED7FFF0F5C6666
(1790978685.559378) can0 02800569#80017FD27EAE00F0
(1790978685.562841) can0 017FFF01#7FFF7FFF00000000
(1790978685.563038) can0 02800161#7FFF803B7FFB00F0
(1790978685.563175) can0 017FFF02#7FFF7FFF00000000
(1790978685.563334) can0 02800263#7FFF7FC6800000F0
(1790978685.563476) can0 017FFF03#7FFF7FFF00000000
(1790978685.563677) can0 02800365#7FFF7FD1801200E6
(1790978685.563814) can0 017FFF04#7FFF7FFF00000000
(1790978685.564042) can0 02800467#7FFF7FE8800000F0
(1790978685.564174) can0 017FFF05#7FEC7FFF0F5C6666
(1790978685.564379) can0 02800569#8001802C7E2E00F0
(1790978685.567842) can0 017FFF01#7FFF7FFF00000000
(1790978685.568038) can0 02800161#7FFF7FD87FF500F0
(1790978685.568174) can0 017FFF02#7FFF7FFF00000000
(1790978685.568332) can0 02800263#7FFF805A7FF500F0
(1790978685.568475) can0 017FFF03#7FFF7FFF00000000
(1790978685.568677) can0 02800365#7FFF80337FEE00E6
(1790978685.568814) can0 017FFF04#7FFF7FFF00000000
(1790978685.569042) can0 02800467#7FFF7FF6801D00F0
(1790978685.569174) can0 017FFF05#7FEB7FFF0F5C6666
(1790978685.569382) can0 02800569#80007FED7E8800F0
(1790978685.572841) can0 017FFF01#7FFF7FFF00000000
(1790978685.573040) can0 02800161#7FFF80017FF400F0
(1790978685.573177) can0 017FFF02#7FFF7FFF00000000
(1790978685.573331) can0 02800263#7FFE8044800100F0
(1790978685.573473) can0 017FFF03#7FFF7FFF00000000
(1790978685.573679) can0 02800365#7FFF800A7FF900E6
(1790978685.573816) can0 017FFF04#7FFF7FFF00000000
(1790978685.574041) can0 02800467#7FFF80177FF900F0
(1790978685.574173) can0 017FFF05#7FEB7FFF0F5C6666
(1790978685.574383) can0 02800569#80007F9E7E3400F0
(1790978685.577841) can0 017FFF01#7FFF7FFF00000000
(1790978685.578037) can0 02800161#7FFF7FC07FFD00F0
(1790978685.578174) can0 017FFF02#7FFF7FFF00000000
(1790978685.578332) can0 02800263#7FFE7FE9801500F0
(1790978685.578474) can0 017FFF03#7FFF7FFF00000000
(1790978685.578677) can0 02800365#7FFF7FC87FEB00E6
(1790978685.578814) can0 017FFF04#7FFF7FFF00000000
(1790978685.579039) can0 02800467#7FFF805E7FF200F0
(1790978685.579170) can0 017FFF05#7FEA7FFF0F5C6666
(1790978685.579381) can0 02800569#80007FBF7E4900F0
(1790978685.582843) can0 017FFF01#7FFF7FFF00000000
(1790978685.583038) can0 02800161#7FFF7FD5800500F0
(1790978685.583175) can0 017FFF02#7FFF7FFF00000000
(1790978685.583332) can0 02800263#7FFF80A1800000F0
(1790978685.583474) can0 017FFF03#7FFF7FFF00000000
(1790978685.583678) can0 02800365#7FFF8026800200E6
(1790978685.583815) can0 017FFF04#7FFF7FFF00000000
(1790978685.584042) can0 02800467#7FFF7FDB800B00F0
(1790978685.584173) can0 017FFF05#7FE97FFF0F5C6666
(1790978685.584381) can0 02800569#80007FD67DCB00F0
(1790978685.587842) can0 017FFF01#7FFF7FFF00000000
(1790978685.588037) can0 02800161#7FFF7F76801300F0
(1790978685.588173) can0 017FFF02#7FFF7FFF00000000
(1790978685.588333) can0 02800263#7FFF80957FE800F0
(1790978685.588476) can0 017FFF03#7FFF7FFF00000000
(1790978685.588677) can0 02800365#7FFF7FB77FF100E6
(1790978685.588814) can0 017FFF04#7FFF7FFF00000000
(1790978685.589040) can0 02800467#7FFF7FFE7FEA00F0
(1790978685.589171) can0 017FFF05#7FE97FFF0F5C6666
(1790978685.589381) can0 02800569#800080067E1E00F0
(1790978685.592841) can0 017FFF01#7FFF7FFF00000000
(1790978685.593039) can0 02800161#7FFF7FAB800800F0
(1790978685.593175) can0 017FFF02#7FFF7FFF00000000
(1790978685.593332) can0 02800263#7FFE7FF47FF500F0
(1790978685.593474) can0 017FFF03#7FFF7FFF00000000
(1790978685.593679) can0 02800365#80007FF07FF700E6
(1790978685.593816) can0 017FFF04#7FFF7FFF00000000
(1790978685.594040) can0 02800467#7FFE7FB47FE800F0
(1790978685.594171) can0 017FFF05#7FE87FFF0F5C6666
(1790978685.594380) can0 02800569#80007FBA7DEA00F0
(1790978685.597841) can0 017FFF01#7FFF7FFF00000000
(1790978685.598036) can0 02800161#7FFF7FA17FFA00F0
(1790978685.598172) can0 017FFF02#7FFF7FFF00000000
(1790978685.598340) can0 02800263#7FFF816E800400F0
(1790978685.598477) can0 017FFF03#7FFF7FFF00000000
(1790978685.598679) can0 02800365#800080037FFB00E6
(1790978685.598816) can0 017FFF04#7FFF7FFF00000000
(1790978685.599040) can0 02800467#7FFF7FC9800600F0
(1790978685.599171) can0 017FFF05#7FE87FFF0F5C6666
(1790978685.599380) can0 02800569#7FFF7FE77DA200F0
(1790978685.602840) can0 017FFF01#7FFF7FFF00000000
(1790978685.603039) can0 02800161#7FFF7F987FFC00F0
(1790978685.603175) can0 017FFF02#7FFF7FFF00000000
(1790978685.603335) can0 02800263#7FFF7FE0800F00F0
(1790978685.603476) can0 017FFF03#7FFF7FFF00000000
(1790978685.603681) can0 02800365#7FFF7FF87FF800E6
(1790978685.603819) can0 017FFF04#7FFF7FFF00000000
(1790978685.604042) can0 02800467#7FFF802C7FE400F0
(1790978685.604174) can0 017FFF05#7FE77FFF0F5C6666
(1790978685.604380) can0 02800569#7FFF80237DA800F0
(1790978685.607840) can0 017FFF01#7FFF7FFF00000000
(1790978685.608040) can0 02800161#7FFF801D7FFC00F0
(1790978685.608176) can0 017FFF02#7FFF7FFF00000000
(1790978685.608332) can0 02800263#7FFE7FBF7FE200F0
(1790978685.608474) can0 017FFF03#7FFF7FFF00000000
(1790978685.608679) can0 02800365#7FFF7F7D7FF200E6
(1790978685.608817) can0 017FFF04#7FFF7FFF00000000
(1790978685.609042) can0 02800467#7FFF7FE17FE200F0
(1790978685.609173) can0 017FFF05#7FE67FFF0F5C6666
(1790978685.609382) can0 02800569#7FFF7FEA7DA500F0
(1790978685.612841) can0 017FFF01#7FFF7FFF00000000
(1790978685.613039) can0 02800161#7FFF802F800B00F0
(1790978685.613175) can0 017FFF02#7FFF7FFF00000000
(1790978685.613332) can0 02800263#7FFF7FB37FE900F0
(1790978685.613474) can0 017FFF03#7FFF7FFF00000000
(1790978685.613680) can0 02800365#7FFF801D7FF400E6
(1790978685.613817) can0 017FFF04#7FFF7FFF00000000
(1790978685.614038) can0 02800467#7FFF7FD0802E00F0
(1790978685.614169) can0 017FFF05#7FE67FFF0F5C6666
(1790978685.614382) can0 02800569#7FFF7FEA7DB300F0
(1790978685.617841) can0 017FFF01#7FFF7FFF00000000
(1790978685.618036) can0 02800161#7FFF7F85800300F0
(1790978685.618172) can0 017FFF02#7FFF7FFF00000000
(1790978685.618330) can0 02800263#7FFF7FCE7FD200F0
(1790978685.618472) can0 017FFF03#7FFF7FFF00000000
(1790978685.618677) can0 02800365#800080387FF800E6
(1790978685.618815) can0 017FFF04#7FFF7FFF00000000
(1790978685.619039) can0 02800467#7FFF7FA37FD300F0
(1790978685.619171) can0 017FFF05#7FE57FFF0F5C6666
(1790978685.619380) can0 02800569#7FFE7FF87D9900F0
(1790978685.622842) can0 017FFF01#7FFF7FFF00000000
(1790978685.623040) can0 02800161#7FFF80F27FFF00F0
(1790978685.623176) can0 017FFF02#7FFF7FFF00000000
(1790978685.623333) can0 02800263#7FFF80D3800F00F0
(1790978685.623475) can0 017FFF03#7FFF7FFF00000000
(1790978685.623678) can0 02800365#7FFF7FDD7FF800E6
(1790978685.623815) can0 017FFF04#7FFF7FFF00000000
(1790978685.624040) can0 02800467#7FFF80287FF600F0
(1790978685.624171) can0 017FFF05#7FE47FFF0F5C6666
(1790978685.624379) can0 02800569#7FFE7FAF7DF900F0
(1790978685.627841) can0 017FFF01#7FFF7FFF00000000
(1790978685.628038) can0 02800161#7FFF805A800F00F0
(1790978685.628174) can0 017FFF02#7FFF7FFF00000000
(1790978685.628331) can0 02800263#7FFE8012800B00F0
(1790978685.628474) can0 017FFF03#7FFF7FFF00000000
(1790978685.628677) can0 02800365#7FFF7F547FF900E6
(1790978685.628815) can0 017FFF04#7FFF7FFF00000000
(1790978685.629043) can0 02800467#7FFF802F800400F0
(1790978685.629174) can0 017FFF05#7FE47FFF0F5C6666
(1790978685.629380) can0 02800569#7FFE7FDE7DC700F0
(1790978685.632842) can0 017FFF01#7FFF7FFF00000000
(1790978685.633040) can0 02800161#7FFF7FDE7FFC00F0
(1790978685.633176) can0 017FFF02#7FFF7FFF00000000
(1790978685.633331) can0 02800263#7FFF809B800700F0
(1790978685.633472) can0 017FFF03#7FFF7FFF00000000
(1790978685.633676) can0 02800365#8000804D7FFD00E6
(1790978685.633813) can0 017FFF04#7FFF7FFF00000000
(1790978685.634041) can0 02800467#7FFF8004801800F0
(1790978685.634174) can0 017FFF05#7FE37FFF0F5C6666
(1790978685.634379) can0 02800569#7FFD7FD77DBD00F0
(1790978685.637841) can0 017FFF01#7FFF7FFF00000000
(1790978685.638037) can0 02800161#7FFF80C7800500F0
(1790978685.638173) can0 017FFF02#7FFF7FFF00000000
(1790978685.638331) can0 02800263#7FFF8051801300F0
(1790978685.638472) can0 017FFF03#7FFF7FFF00000000
(1790978685.638678) can0 02800365#80008040801300E6
(1790978685.638815) can0 017FFF04#7FFF7FFF00000000
(1790978685.639041) can0 02800467#7FFF80097FFF00F0
(1790978685.639174) can0 017FFF05#7FE27FFF0F5C6666
(1790978685.639380) can0 02800569#7FFD7FBF7DD600F0
(1790978685.642840) can0 017FFF01#7FFF7FFF00000000
(1790978685.643036) can0 02800161#7FFF8047800200F0
(1790978685.643172) can0 017FFF02#7FFF7FFF00000000
(1790978685.643331) can0 02800263#7FFF7F38802A00F0
(1790978685.643472) can0 017FFF03#7FFF7FFF00000000
(1790978685.643677) can0 02800365#7FFF801A7FF700E6
(1790978685.643814) can0 017FFF04#7FFF7FFF00000000
(1790978685.644040) can0 02800467#7FFF7FC47FF800F0
(1790978685.644173) can0 017FFF05#7FE27FFF0F5C6666
(1790978685.644378) can0 02800569#7FFC7FCB7D9B00F0
(1790978685.647841) can0 017FFF01#7FFF7FFF00000000
(1790978685.648038) can0 02800161#7FFF803A7FF000F0
(1790978685.648174) can0 017FFF02#7FFF7FFF00000000
(1790978685.648332) can0 02800263#7FFF7F8F7FF600F0
(1790978685.648474) can0 017FFF03#7FFF7FFF00000000
(1790978685.648677) can0 02800365#7FFF7FE9800A00E6
(1790978685.648814) can0 017FFF04#7FFF7FFF00000000
(1790978685.649039) can0 02800467#7FFF80287FED00F0
(1790978685.649172) can0 017FFF05#7FE17FFF0F5C6666
(1790978685.649382) can0 02800569#7FFC80197DFC00F0
(1790978685.652841) can0 017FFF01#7FFF7FFF00000000
(1790978685.653038) can0 02800161#7FFF7FEE800300F0
(1790978685.653174) can0 017FFF02#7FFF7FFF00000000
(1790978685.653331) can0 02800263#7FFF802C7FEA00F0
(1790978685.653472) can0 017FFF03#7FFF7FFF00000000
(1790978685.653677) can0 02800365#7FFF8007800700E6
(1790978685.653814) can0 017FFF04#7FFF7FFF00000000
(1790978685.654037) can0 02800467#7FFF7FD7802600F0
(1790978685.654170) can0 017FFF05#7FE07FFF0F5C6666
(1790978685.654379) can0 02800569#7FFC7FEE7D9D00F0
(1790978685.657841) can0 017FFF01#7FFF7FFF00000000
(1790978685.658040) can0 02800161#7FFF7F61800400F0
(1790978685.658176) can0 017FFF02#7FFF7FFF00000000
(1790978685.658332) can0 02800263#7FFF8044800B00F0
(1790978685.658473) can0 017FFF03#7FFF7FFF00000000
(1790978685.658678) can0 02800365#7FFF803D801700E6
(1790978685.658815) can0 017FFF04#7FFF7FFF00000000
(1790978685.659039) can0 02800467#7FFF80697FCD00F0
(1790978685.659172) can0 017FFF05#7FE07FFF0F5C6666
(1790978685.659379) can0 02800569#7FFB7FFA7D8500F0
(1790978685.662841) can0 017FFF01#7FFF7FFF00000000
(1790978685.663042) can0 02800161#7FFF7FDB800C00F0
(1790978685.663177) can0 017FFF02#7FFF7FFF00000000
(1790978685.663334) can0 02800263#7FFF802F7FF000F0
(1790978685.663475) can0 017FFF03#7FFF7FFF00000000
(1790978685.663678) can0 02800365#7FFF80407FF600E6
(1790978685.663815) can0 017FFF04#7FFF7FFF00000000
(1790978685.664038) can0 02800467#7FFF7FDB800F00F0
(1790978685.664170) can0 017FFF05#7FDF7FFF0F5C6666
(1790978685.664382) can0 02800569#7FFB803C7DD000F0
(1790978685.667841) can0 017FFF01#7FFF7FFF00000000
(1790978685.668040) can0 02800161#7FFF7FBD800000F0
(1790978685.668176) can0 017FFF02#7FFF7FFF00000000
(1790978685.668333) can0 02800263#7FFF80127FFD00F0
(1790978685.668475) can0 017FFF03#7FFF7FFF00000000
(1790978685.668678) can0 02800365#7FFF7FE57FF300E6
(1790978685.668815) can0 017FFF04#7FFF7FFF00000000
(1790978685.669039) can0 02800467#7FFF80257FFD00F0
(1790978685.669170) can0 017FFF05#7FDE7FFF0F5C6666
(1790978685.669378) can0 02800569#7FFA7F977DBB00F0
(1790978685.672844) can0 017FFF01#7FFF7FFF00000000
(1790978685.673037) can0 02800161#7FFF7F3D7FFB00F0
(1790978685.673173) can0 017FFF02#7FFF7FFF00000000
(1790978685.673334) can0 02800263#7FFF7FF47FF000F0
(1790978685.673475) can0 017FFF03#7FFF7FFF00000000
(1790978685.673677) can0 02800365#80007FFD800B00E6
(1790978685.673814) can0 017FFF04#7FFF7FFF00000000
(1790978685.674039) can0 02800467#7FFF7FCD801700F0
(1790978685.674170) can0 017FFF05#7FDE7FFF0F5C6666
(1790978685.674377) can0 02800569#7FFA7FCD7DCF00F0
(1790978685.677842) can0 017FFF01#7FFF7FFF00000000
(1790978685.678039) can0 02800161#7FFF7FFA800200F0
(1790978685.678175) can0 017FFF02#7FFF7FFF00000000
(1790978685.678331) can0 02800263#7FFF7F787FFA00F0
(1790978685.678472) can0 017FFF03#7FFF7FFF00000000
(1790978685.678677) can0 02800365#7FFF802E800800E6
(1790978685.678814) can0 017FFF04#7FFF7FFF00000000
(1790978685.679037) can0 02800467#7FFE7FA97FE500F0
(1790978685.679169) can0 017FFF05#7FDD7FFF0F5C6666
(1790978685.679379) can0 02800569#7FF97FA87E3900F0
(1790978685.682841) can0 017FFF01#7FFF7FFF00000000
(1790978685.683038) can0 02800161#7FFF805E7FFB00F0
(1790978685.683175) can0 017FFF02#7FFF7FFF00000000
(1790978685.683331) can0 02800263#7FFF80A27FE800F0
(1790978685.683472) can0 017FFF03#7FFF7FFF00000000
(1790978685.683678) can0 02800365#8000801E7FF600E6
(1790978685.683817) can0 017FFF04#7FFF7FFF00000000
(1790978685.684040) can0 02800467#7FFF8018800700F0
(1790978685.684175) can0 017FFF05#7FDC7FFF0F5C6666
(1790978685.684383) can0 02800569#7FF87FFD7E0000F0
(1790978685.687844) can0 017FFF01#7FFF7FFF00000000
(1790978685.688040) can0 02800161#7FFF7FCF7FEF00F0
(1790978685.688176) can0 017FFF02#7FFF7FFF00000000
(1790978685.688333) can0 02800263#7FFF80257FF500F0
(1790978685.688475) can0 017FFF03#7FFF7FFF00000000
(1790978685.688676) can0 02800365#7FFF804E801300E6
(1790978685.688813) can0 017FFF04#7FFF7FFF00000000
(1790978685.689044) can0 02800467#7FFF7FE47FFC00F0
(1790978685.689175) can0 017FFF05#7FDC7FFF0F5C6666
(1790978685.689380) can0 02800569#7FF77F9F7E6500F0
(1790978685.692842) can0 017FFF01#7FFF7FFF00000000
(1790978685.693039) can0 02800161#7FFF80237FEE00F0
(1790978685.693175) can0 017FFF02#7FFF7FFF00000000
(1790978685.693331) can0 02800263#7FFF80F67FF700F0
(1790978685.693472) can0 017FFF03#7FFF7FFF00000000
(1790978685.693679) can0 02800365#80007FFF801900E6
(1790978685.693816) can0 017FFF04#7FFF7FFF00000000
(1790978685.694039) can0 02800467#7FFF80B17FF500F0
(1790978685.694170) can0 017FFF05#7FDB7FFF0F5C6666
(1790978685.694378) can0 02800569#7FF67F9B7E7500F0
(1790978685.697843) can0 017FFF01#7FFF7FFF00000000
(1790978685.698040) can0 02800161#7FFF80577FF100F0
(1790978685.698176) can0 017FFF02#7FFF7FFF00000000
(1790978685.698333) can0 02800263#7FFF80E07FFD00F0
(1790978685.698474) can0 017FFF03#7FFF7FFF00000000
(1790978685.698677) can0 02800365#7FFF80337FFC00E6
(1790978685.698814) can0 017FFF04#7FFF7FFF00000000
(1790978685.699039) can0 02800467#7FFF800E7FF300F0
(1790978685.699170) can0 017FFF05#7FDA7FFF0F5C6666
(1790978685.699378) can0 02800569#7FF57FBA7E9100F0
(1790978685.702843) can0 017FFF01#7FFF7FFF00000000
(1790978685.703042) can0 02800161#7FFF7F577FFC00F0
(1790978685.703178) can0 017FFF02#7FFF7FFF00000000
(1790978685.703377) can0 02800263#7FFF801C7FF100F0
(1790978685.703513) can0 017FFF03#7FFF7FFF00000000
(1790978685.703726) can0 02800365#8000802A801600E6
(1790978685.703863) can0 017FFF04#7FFF7FFF00000000
(1790978685.704088) can0 02800467#7FFF800D7FAF00F0
(1790978685.704219) can0 017FFF05#7FDA7FFF0F5C6666
(1790978685.704427) can0 02800569#7FF47FAF7EBD00F0
(1790978685.707844) can0 017FFF01#7FFF7FFF00000000
(1790978685.708042) can0 02800161#7FFF7F697FFB00F0
(1790978685.708178) can0 017FFF02#7FFF7FFF00000000
(1790978685.708376) can0 02800263#7FFF80997FF000F0
(1790978685.708515) can0 017FFF03#7FFF7FFF00000000
(1790978685.708729) can0 02800365#7FFF7FF47FE900E6
(1790978685.708866) can0 017FFF04#7FFF7FFF00000000
(1790978685.709090) can0 02800467#7FFF7FC6801100F0
(1790978685.709221) can0 017FFF05#7FD97FFF0F5C6666
(1790978685.709428) can0 02800569#7FF37FDD7E6600F0
(1790978685.712843) can0 017FFF01#7FFF7FFF00000000
(1790978685.713040) can0 02800161#7FFF7FF3800100F0
(1790978685.713176) can0 017FFF02#7FFF7FFF00000000
(1790978685.713334) can0 02800263#7FFF7F38801C00F0
(1790978685.713476) can0 017FFF03#7FFF7FFF00000000
(1790978685.713678) can0 02800365#7FFF8010800100E6
(1790978685.713815) can0 017FFF04#7FFF7FFF00000000
(1790978685.714039) can0 02800467#7FFF7FBA7FD200F0
(1790978685.714170) can0 017FFF05#7FD97FFF0F5C6666
(1790978685.714379) can0 02800569#7FF27FDB7E5A00F0
(1790978685.717843) can0 017FFF01#7FFF7FFF00000000
(1790978685.718039) can0 02800161#7FFF8073800600F0
(1790978685.718175) can0 017FFF02#7FFF7FFF00000000
(1790978685.718333) can0 02800263#7FFF80937FFB00F0
(1790978685.718475) can0 017FFF03#7FFF7FFF00000000
(1790978685.718677) can0 02800365#7FFF7FCE802000E6
(1790978685.718814) can0 017FFF04#7FFF7FFF00000000
(1790978685.719038) can0 02800467#7FFF7FDA7FD500F0
(1790978685.719169) can0 017FFF05#7FD87FFF0F5C6666
(1790978685.719377) can0 02800569#7FF17F937E7100F0
(1790978685.722842) can0 017FFF01#7FFF7FFF00000000
(1790978685.723038) can0 02800161#7FFF7F49800200F0
(1790978685.723174) can0 017FFF02#7FFF7FFF00000000
(1790978685.723329) can0 02800263#7FFF7FA67FFA00F0
(1790978685.723471) can0 017FFF03#7FFF7FFF00000000
(1790978685.723678) can0 02800365#7FFF7FEB7FFA00E6
(1790978685.723816) can0 017FFF04#7FFF7FFF00000000
(1790978685.724038) can0 02800467#7FFF802C7FF900F0
(1790978685.724169) can0 017FFF05#7FD77FFF0F5C6666
(1790978685.724380) can0 02800569#7FF17FB17E8400F0
(1790978685.727845) can0 017FFF01#7FFF7FFF00000000
(1790978685.728041) can0 02800161#7FFF807D7FFE00F0
(1790978685.728177) can0 017FFF02#7FFF7FFF00000000
(1790978685.728378) can0 02800263#7FFE801B801A00F0
(1790978685.728515) can0 017FFF03#7FFF7FFF00000000
(1790978685.728726) can0 02800365#8000806C800A00E6
(1790978685.728864) can0 017FFF04#7FFF7FFF00000000
(1790978685.729089) can0 02800467#7FFF7FE6801D00F0
(1790978685.729220) can0 017FFF05#7FD77FFF0F5C6666
(1790978685.729429) can0 02800569#7FEF7FA27EB600F0
(1790978685.732843) can0 017FFF01#7FFF7FFF00000000
(1790978685.733039) can0 02800161#7FFF7EC87FF600F0
(1790978685.733175) can0 017FFF02#7FFF7FFF00000000
(1790978685.733329) can0 02800263#7FFE80397FD200F0
(1790978685.733470) can0 017FFF03#7FFF7FFF00000000
(1790978685.733675) can0 02800365#7FFF80487FF700E6
(1790978685.733813) can0 017FFF04#7FFF7FFF00000000
(1790978685.734038) can0 02800467#7FFF80097FDB00F0
(1790978685.734169) can0 017FFF05#7FD67FFF0F5C6666
(1790978685.734379) can0 02800569#7FEF7FFA7EE100F0
(1790978685.737841) can0 017FFF01#7FFF7FFF00000000
(1790978685.738038) can0 02800161#7FFF80577FF100F0
(1790978685.738174) can0 017FFF02#7FFF7FFF00000000
(1790978685.738329) can0 02800263#7FFE80207FE900F0
(1790978685.738470) can0 017FFF03#7FFF7FFF00000000
(1790978685.738676) can0 02800365#7FFF7FD3800F00E6
(1790978685.738814) can0 017FFF04#7FFF7FFF00000000
(1790978685.739042) can0 02800467#7FFF8002800C00F0
(1790978685.739173) can0 017FFF05#7FD57FFF0F5C6666
(1790978685.739380) can0 02800569#7FEE7F927EF800F0
(1790978685.742844) can0 017FFF01#7FFF7FFF00000000
(1790978685.743044) can0 02800161#7FFF80717FEC00F0
(1790978685.743180) can0 017FFF02#7FFF7FFF00000000
(1790978685.743377) can0 02800263#7FFE7F7C800900F0
(1790978685.743513) can0 017FFF03#7FFF7FFF00000000
(1790978685.743726) can0 02800365#800080327FDD00E6
(1790978685.743863) can0 017FFF04#7FFF7FFF00000000
(1790978685.744087) can0 02800467#7FFE7FD5801F00F0
(1790978685.744219) can0 017FFF05#7FD57FFF0F5C6666
(1790978685.744426) can0 02800569#7FED7FCC7EB300F0
(1790978685.747843) can0 017FFF01#7FFF7FFF00000000
(1790978685.748041) can0 02800161#7FFF7E8D7FF800F0
(1790978685.748177) can0 017FFF02#7FFF7FFF00000000
(1790978685.748375) can0 02800263#7FFF80787FFF00F0
(1790978685.748514) can0 017FFF03#7FFF7FFF00000000
(1790978685.748728) can0 02800365#800080487FFA00E6
(1790978685.748866) can0 017FFF04#7FFF7FFF00000000
(1790978685.749086) can0 02800467#7FFE7FC47FE500F0
(1790978685.749218) can0 017FFF05#7FD47FFF0F5C6666
(1790978685.749428) can0 02800569#7FEC7FEE7F1300F0
(1790978685.752842) can0 017FFF01#7FFF7FFF00000000
(1790978685.753038) can0 02800161#7FFF80537FF700F0
(1790978685.753174) can0 017FFF02#7FFF7FFF00000000
(1790978685.753328) can0 02800263#7FFE80597FED00F0
(1790978685.753469) can0 017FFF03#7FFF7FFF00000000
(1790978685.753676) can0 02800365#7FFF7FCB7FF500E6
(1790978685.753813) can0 017FFF04#7FFF7FFF00000000
(1790978685.754039) can0 02800467#7FFF80177FFE00F0
(1790978685.754170) can0 017FFF05#7FD37FFF0F5C6666
(1790978685.754376) can0 02800569#7FEB7FBD7EA200F0
(1790978685.757844) can0 017FFF01#7FFF7FFF00000000
(1790978685.758043) can0 02800161#7FFF8041800300F0
(1790978685.758179) can0 017FFF02#7FFF7FFF00000000
(1790978685.758378) can0 02800263#7FFF7FE77FF700F0
(1790978685.758514) can0 017FFF03#7FFF7FFF00000000
(1790978685.758728) can0 02800365#80008005800400E6
(1790978685.758865) can0 017FFF04#7FFF7FFF00000000
(1790978685.759089) can0 02800467#7FFF80467FE200F0
(1790978685.759220) can0 017FFF05#7FD37FFF0F5C6666
(1790978685.759427) can0 02800569#7FEA7FA77EE300F0
(1790978685.762843) can0 017FFF01#7FFF7FFF00000000
(1790978685.763041) can0 02800161#7FFF804D800300F0
(1790978685.763177) can0 017FFF02#7FFF7FFF00000000
(1790978685.763334) can0 02800263#7FFF7FF1800F00F0
(1790978685.763476) can0 017FFF03#7FFF7FFF00000000
(1790978685.763677) can0 02800365#7FFF7F927FF100E6
(1790978685.763814) can0 017FFF04#7FFF7FFF00000000
(1790978685.764038) can0 02800467#7FFF802A7FC000F0
(1790978685.764169) can0 017FFF05#7FD27FFF0F5C6666
(1790978685.764377) can0 02800569#7FEA7FC47EF700F0
(1790978685.767842) can0 017FFF01#7FFF7FFF00000000
(1790978685.768039) can0 02800161#7FFF7FB87FFF00F0
(1790978685.768176) can0 017FFF02#7FFF7FFF00000000
(1790978685.768331) can0 02800263#7FFF81397FEB00F0
(1790978685.768474) can0 017FFF03#7FFF7FFF00000000
(1790978685.768680) can0 02800365#7FFF7FE17FFF00E6
(1790978685.768817) can0 017FFF04#7FFF7FFF00000000
(1790978685.769039) can0 02800467#7FFF7F7D800600F0
(1790978685.769170) can0 017FFF05#7FD17FFF0F5C6666
(1790978685.769378) can0 02800569#7FE97FCD7E7900F0
(1790978685.772842) can0 017FFF01#7FFF7FFF00000000
(1790978685.773037) can0 02800161#7FFF7FA87FF500F0
(1790978685.773174) can0 017FFF02#7FFF7FFF00000000
(1790978685.773330) can0 02800263#7FFF80BB7FF300F0
(1790978685.773472) can0 017FFF03#7FFF7FFF00000000
(1790978685.773678) can0 02800365#7FFF8004801400E6
(1790978685.773815) can0 017FFF04#7FFF7FFF00000000
(1790978685.774040) can0 02800467#7FFF8011800000F0
(1790978685.774171) can0 017FFF05#7FD17FFF0F5C6666
(1790978685.774380) can0 02800569#7FE87FC77E9C00F0
(1790978685.777845) can0 017FFF01#7FFF7FFF00000000
(1790978685.778040) can0 02800161#7FFF7FCA800100F0
(1790978685.778176) can0 017FFF02#7FFF7FFF00000000
(1790978685.778335) can0 02800263#7FFF7F9A7FE800F0
(1790978685.778477) can0 017FFF03#7FFF7FFF00000000
(1790978685.778681) can0 02800365#7FFF7FED7FE700E6
(1790978685.778818) can0 017FFF04#7FFF7FFF00000000
(1790978685.779042) can0 02800467#7FFF7FEF802E00F0
(1790978685.779166) can0 017FFF05#7FD07FFF0F5C6666
(1790978685.779379) can0 02800569#7FE77FA07E9800F0
(1790978685.782843) can0 017FFF01#7FFF7FFF00000000
(1790978685.783039) can0 02800161#7FFF7FD8801300F0
(1790978685.783175) can0 017FFF02#7FFF7FFF00000000
(1790978685.783330) can0 02800263#7FFF80B2800B00F0
(1790978685.783472) can0 017FFF03#7FFF7FFF00000000
(1790978685.783675) can0 02800365#7FFF7FC8800900E6
(1790978685.783813) can0 017FFF04#7FFF7FFF00000000
(1790978685.784039) can0 02800467#7FFF7FF77FE700F0
(1790978685.784170) can0 017FFF05#7FCF7FFF0F5C6666
(1790978685.784377) can0 02800569#7FE77FBA7E8D00F0
(1790978685.787843) can0 017FFF01#7FFF7FFF00000000
(1790978685.788038) can0 02800161#7FFF8077801300F0
(1790978685.788174) can0 017FFF02#7FFF7FFF00000000
(1790978685.788331) can0 02800263#7FFF7FEE7FF900F0
(1790978685.788473) can0 017FFF03#7FFF7FFF00000000
(1790978685.788675) can0 02800365#7FFF80657FF900E6
(1790978685.788813) can0 017FFF04#7FFF7FFF00000000
(1790978685.789039) can0 02800467#7FFF7FA6800000F0
(1790978685.789171) can0 017FFF05#7FCF7FFF0F5C6666
(1790978685.789378) can0 02800569#7FE67F9D7EF500F0
(1790978685.792844) can0 017FFF01#7FFF7FFF00000000
(1790978685.793041) can0 02800161#7FFF7FA47FEE00F0
(1790978685.793177) can0 017FFF02#7FFF7FFF00000000
(1790978685.793374) can0 02800263#7FFF80F2800700F0
(1790978685.793510) can0 017FFF03#7FFF7FFF00000000
(1790978685.793726) can0 02800365#800080A77FF200E6
(1790978685.793864) can0 017FFF04#7FFF7FFF00000000
(1790978685.794092) can0 02800467#7FFF8026801400F0
(1790978685.794223) can0 017FFF05#7FCE7FFF0F5C6666
(1790978685.794429) can0 02800569#7FE57FDC7ED500F0
(1790978685.797845) can0 017FFF01#7FFF7FFF00000000
(1790978685.798041) can0 02800161#7FFF80147FF800F0
(1790978685.798177) can0 017FFF02#7FFF7FFF00000000
(1790978685.798378) can0 02800263#7FFF80637FFC00F0
(1790978685.798514) can0 017FFF03#7FFF7FFF00000000
(1790978685.798726) can0 02800365#7FFF7FA17FE600E6
(1790978685.798863) can0 017FFF04#7FFF7FFF00000000
(1790978685.799088) can0 02800467#7FFF8003801500F0
(1790978685.799220) can0 017FFF05#7FCD7FFF0F5C6666
(1790978685.799429) can0 02800569#7FE37FD17F6800F0
(1790978685.802842) can0 017FFF01#7FFF7FFF00000000
(1790978685.803039) can0 02800161#7FFF8091800300F0
(1790978685.803175) can0 017FFF02#7FFF7FFF00000000
(1790978685.803330) can0 02800263#7FFF8042802100F0
(1790978685.803471) can0 017FFF03#7FFF7FFF00000000
(1790978685.803676) can0 02800365#7FFF7FAE800000E6
(1790978685.803813) can0 017FFF04#7FFF7FFF00000000
(1790978685.804039) can0 02800467#7FFE7FCC7FEB00F0
(1790978685.804170) can0 017FFF05#7FCD7FFF0F5C6666
(1790978685.804381) can0 02800569#7FE27FA07FA800F0
(1790978685.807844) can0 017FFF01#7FFF7FFF00000000
(1790978685.808040) can0 02800161#7FFF80967FEE00F0
(1790978685.808176) can0 017FFF02#7FFF7FFF00000000
(1790978685.808330) can0 02800263#7FFE7FB67FE900F0
(1790978685.808473) can0 017FFF03#7FFF7FFF00000000
(1790978685.808676) can0 02800365#7FFF7FC0800E00E6
(1790978685.808814) can0 017FFF04#7FFF7FFF00000000
(1790978685.809040) can0 02800467#7FFF804A800800F0
(1790978685.809171) can0 017FFF05#7FCC7FFF0F5C6666
(1790978685.809380) can0 02800569#7FE17F937F4300F0
(1790978685.812843) can0 017FFF01#7FFF7FFF00000000
(1790978685.813041) can0 02800161#7FFF806F800100F0
(1790978685.813177) can0 017FFF02#7FFF7FFF00000000
(1790978685.813378) can0 02800263#7FFE7FF07FF900F0
(1790978685.813514) can0 017FFF03#7FFF7FFF00000000
(1790978685.813726) can0 02800365#7FFF7FF77FF300E6
(1790978685.813863) can0 017FFF04#7FFF7FFF00000000
(1790978685.814090) can0 02800467#7FFF801C7FDF00F0
(1790978685.814222) can0 017FFF05#7FCB7FFF0F5C6666
(1790978685.814429) can0 02800569#7FE07F9A7F9500F0
(1790978685.817843) can0 017FFF01#7FFF7FFF00000000
(1790978685.818042) can0 02800161#7FFF8036800400F0
(1790978685.818178) can0 017FFF02#7FFF7FFF00000000
(1790978685.818380) can0 02800263#7FFF7FF77FE400F0
(1790978685.818516) can0 017FFF03#7FFF7FFF00000000
(1790978685.818726) can0 02800365#7FFF7FD07FF900E6
(1790978685.818863) can0 017FFF04#7FFF7FFF00000000
(1790978685.819089) can0 02800467#7FFF800B800700F0
(1790978685.819220) can0 017FFF05#7FCB7FFF0F5C6666
(1790978685.819425) can0 02800569#7FDF7F597F5600F0
(1790978685.823045) can0 1200FD01#0A70000000000000
(1790978685.823241) can0 028001FD#7FFF805E800700F0
(1790978685.823377) can0 017FFF01#7FFF7FFF00000000
(1790978685.823545) can0 028001FD#7FFF8020800800F0
(1790978685.823680) can0 0400FD01#0000000000000000
(1790978685.823937) can0 1200FD02#0A70000000000000
(1790978685.824135) can0 028002FD#7FFF8172800800F0
(1790978685.824271) can0 017FFF02#7FFF7FFF00000000
(1790978685.824430) can0 028002FD#7FFE800F7FFB00F0
(1790978685.824571) can0 0400FD02#0000000000000000
(1790978685.824828) can0 1200FD03#0A70000000000000
(1790978685.825030) can0 028003FD#7FFF7FEF7FFE00E6
(1790978685.825166) can0 017FFF03#7FFF7FFF00000000
(1790978685.825378) can0 028003FD#7FFF7FDC800400E6
(1790978685.825515) can0 0400FD03#0000000000000000
(1790978685.825772) can0 1200FD04#0A70000000000000
(1790978685.825946) can0 028004FD#7FFF7FC07FAD00F0
(1790978685.826083) can0 017FFF04#7FFF7FFF00000000
(1790978685.826289) can0 028004FD#7FFF7FFF7FC900F0
(1790978685.826429) can0 0400FD04#0000000000000000
(1790978685.826686) can0 1200FD05#0A70000000000000
(1790978685.826885) can0 028005FD#7FDD7F7E7FD800F0
(1790978685.827022) can0 017FFF05#7FFF7FFF00000000
(1790978685.827228) can0 028005FD#7FDD7FAD7FF300F0
(1790978685.827364) can0 0400FD05#0000000000000000
(1790978685.845830) can0 020002FD#7FFF7FDD7FFF00F0
(1790978685.845975) can0 020001FD#7FFF80707FFF00F0
(1790978685.846164) can0 020003FD#7FFF800E7FFF00E6
(1790978685.849236) can0 020004FD#7FFF801A7FFF00F0
(1790978685.850688) can0 020005FD#7FE080747FFF00F0
